 time            v(Q)            v(A)-v(B)       v(B)           
 0.00000000e+00  4.64350199e-09  1.10000000e+00  0.00000000e+00 
 1.00000000e-09  4.64373238e-09  1.10000000e+00  0.00000000e+00 
 2.00000000e-09  4.64373352e-09  1.10000001e+00  0.00000000e+00 
 4.00000000e-09  4.64373342e-09  1.10000002e+00  0.00000000e+00 
 8.00000000e-09  4.64373323e-09  1.10000003e+00  0.00000000e+00 
 1.60000000e-08  4.64373289e-09  1.10000006e+00  0.00000000e+00 
 3.20000000e-08  4.64373204e-09  1.10000013e+00  0.00000000e+00 
 6.40000000e-08  4.64373063e-09  1.10000026e+00  0.00000000e+00 
 1.00000000e-07  4.64372887e-09  1.10000040e+00  0.00000000e+00 
 1.00010000e-07  1.50863548e-05  1.10000040e+00  0.00000000e+00 
 1.00030000e-07 -7.06285813e-06  1.10000040e+00  0.00000000e+00 
 1.00070000e-07 -3.20790388e-05  1.10000040e+00  0.00000000e+00 
 1.00100000e-07 -7.45357385e-05  1.10000040e+00  0.00000000e+00 
 1.00108000e-07 -7.14169230e-05  1.10000040e+00  0.00000000e+00 
 1.00124000e-07 -2.03218294e-04  1.10000040e+00  0.00000000e+00 
 1.00156000e-07  3.54807509e-03  1.10000040e+00  0.00000000e+00 
 1.00220000e-07 -3.92621981e-01  1.10000040e+00  0.00000000e+00 
 1.00296010e-07  1.00518456e+00  1.10000040e+00  0.00000000e+00 
 1.00371231e-07  1.78723887e+00  1.10000040e+00  0.00000000e+00 
 1.00504284e-07  1.78977746e+00  1.10000040e+00  0.00000000e+00 
 1.00660279e-07  1.81493033e+00  1.10000040e+00  0.00000000e+00 
 1.00873999e-07  1.78191777e+00  1.10000040e+00  0.00000000e+00 
 1.01278781e-07  1.81747129e+00  1.10000041e+00  0.00000000e+00 
 1.01802842e-07  1.78133313e+00  1.10000041e+00  0.00000000e+00 
 1.02761311e-07  1.81776458e+00  1.10000041e+00  0.00000000e+00 
 1.04477967e-07  1.78127592e+00  1.10000042e+00  0.00000000e+00 
 1.07190061e-07  1.81778343e+00  1.10000043e+00  0.00000000e+00 
 1.12212337e-07  1.78127019e+00  1.10000045e+00  0.00000000e+00 
 1.21914500e-07  1.81782837e+00  1.10000049e+00  0.00000000e+00 
 1.41318824e-07  1.78127018e+00  1.10000057e+00  0.00000000e+00 
 1.80127473e-07  1.81783850e+00  1.10000072e+00  0.00000000e+00 
 2.57744770e-07  1.78127022e+00  1.10000103e+00  0.00000000e+00 
 4.12979365e-07  1.81783900e+00  1.10000165e+00  0.00000000e+00 
 7.23448554e-07  1.78127020e+00  1.10000289e+00  0.00000000e+00 
 1.34438693e-06  1.81783907e+00  1.10000538e+00  0.00000000e+00 
 2.58626369e-06  1.78127015e+00  1.10001035e+00  0.00000000e+00 
 4.58626369e-06  1.81779838e+00  1.10001835e+00  0.00000000e+00 
 6.58626369e-06  1.78147178e+00  1.10002635e+00  0.00000000e+00 
 8.58626369e-06  1.81775642e+00  1.10003435e+00  0.00000000e+00 
 1.05862637e-05  1.78147294e+00  1.10004235e+00  0.00000000e+00 
 1.25862637e-05  1.81775643e+00  1.10005035e+00  0.00000000e+00 
 1.45862637e-05  1.78147292e+00  1.10005835e+00  0.00000000e+00 
 1.65862637e-05  1.81775646e+00  1.10006635e+00  0.00000000e+00 
 1.85862637e-05  1.78147289e+00  1.10007435e+00  0.00000000e+00 
 2.05862637e-05  1.81775649e+00  1.10008235e+00  0.00000000e+00 
 2.25862637e-05  1.78126974e+00  1.10009035e+00  0.00000000e+00 
 2.45862637e-05  1.81775639e+00  1.10009835e+00  0.00000000e+00 
 2.65862637e-05  1.78126974e+00  1.10010635e+00  0.00000000e+00 
 2.85862637e-05  1.81775641e+00  1.10011435e+00  0.00000000e+00 
 3.05862637e-05  1.78147179e+00  1.10012235e+00  0.00000000e+00 
 3.25862637e-05  1.81775658e+00  1.10013035e+00  0.00000000e+00 
 3.45862637e-05  1.78147280e+00  1.10013835e+00  0.00000000e+00 
 3.65862637e-05  1.81775661e+00  1.10014635e+00  0.00000000e+00 
 3.85862637e-05  1.78147279e+00  1.10015435e+00  0.00000000e+00 
 4.05862637e-05  1.81775665e+00  1.10016235e+00  0.00000000e+00 
 4.25862637e-05  1.78147276e+00  1.10017035e+00  0.00000000e+00 
 4.45862637e-05  1.81775668e+00  1.10017835e+00  0.00000000e+00 
 4.65862637e-05  1.78147273e+00  1.10018635e+00  0.00000000e+00 
 4.85862637e-05  1.81775672e+00  1.10019435e+00  0.00000000e+00 
 5.05862637e-05  1.78147271e+00  1.10020235e+00  0.00000000e+00 
 5.25862637e-05  1.81775675e+00  1.10021035e+00  0.00000000e+00 
 5.45862637e-05  1.78147268e+00  1.10021835e+00  0.00000000e+00 
 5.65862637e-05  1.81775679e+00  1.10022635e+00  0.00000000e+00 
 5.85862637e-05  1.78147266e+00  1.10023435e+00  0.00000000e+00 
 6.05862637e-05  1.81775683e+00  1.10024235e+00  0.00000000e+00 
 6.25862637e-05  1.78147263e+00  1.10025035e+00  0.00000000e+00 
 6.45862637e-05  1.81775686e+00  1.10025835e+00  0.00000000e+00 
 6.65862637e-05  1.78147260e+00  1.10026635e+00  0.00000000e+00 
 6.85862637e-05  1.81775690e+00  1.10027435e+00  0.00000000e+00 
 7.05862637e-05  1.78147258e+00  1.10028235e+00  0.00000000e+00 
 7.25862637e-05  1.81775693e+00  1.10029035e+00  0.00000000e+00 
 7.45862637e-05  1.78147255e+00  1.10029835e+00  0.00000000e+00 
 7.65862637e-05  1.81775697e+00  1.10030635e+00  0.00000000e+00 
 7.85862637e-05  1.78147253e+00  1.10031435e+00  0.00000000e+00 
 8.05862637e-05  1.81775700e+00  1.10032235e+00  0.00000000e+00 
 8.25862637e-05  1.78147250e+00  1.10033035e+00  0.00000000e+00 
 8.45862637e-05  1.81775704e+00  1.10033835e+00  0.00000000e+00 
 8.65862637e-05  1.78147248e+00  1.10034635e+00  0.00000000e+00 
 8.85862637e-05  1.81775707e+00  1.10035435e+00  0.00000000e+00 
 9.05862637e-05  1.78147245e+00  1.10036235e+00  0.00000000e+00 
 9.25862637e-05  1.81775711e+00  1.10037035e+00  0.00000000e+00 
 9.45862637e-05  1.78147243e+00  1.10037835e+00  0.00000000e+00 
 9.65862637e-05  1.81775714e+00  1.10038635e+00  0.00000000e+00 
 9.85862637e-05  1.78147240e+00  1.10039435e+00  0.00000000e+00 
 1.00586264e-04  1.81775718e+00  1.10040235e+00  0.00000000e+00 
 1.02586264e-04  1.78147237e+00  1.10041035e+00  0.00000000e+00 
 1.04586264e-04  1.81775721e+00  1.10041835e+00  0.00000000e+00 
 1.06586264e-04  1.78147235e+00  1.10042635e+00  0.00000000e+00 
 1.08586264e-04  1.81775725e+00  1.10043435e+00  0.00000000e+00 
 1.10586264e-04  1.78147232e+00  1.10044235e+00  0.00000000e+00 
 1.12586264e-04  1.81775728e+00  1.10045035e+00  0.00000000e+00 
 1.14586264e-04  1.78147230e+00  1.10045835e+00  0.00000000e+00 
 1.16586264e-04  1.81775732e+00  1.10046635e+00  0.00000000e+00 
 1.18586264e-04  1.78147227e+00  1.10047435e+00  0.00000000e+00 
 1.20586264e-04  1.81775735e+00  1.10048235e+00  0.00000000e+00 
 1.22586264e-04  1.78147225e+00  1.10049035e+00  0.00000000e+00 
 1.24586264e-04  1.81775739e+00  1.10049835e+00  0.00000000e+00 
 1.26586264e-04  1.78147222e+00  1.10050635e+00  0.00000000e+00 
 1.28586264e-04  1.81775742e+00  1.10051435e+00  0.00000000e+00 
 1.30586264e-04  1.78147220e+00  1.10052235e+00  0.00000000e+00 
 1.32586264e-04  1.81775746e+00  1.10053035e+00  0.00000000e+00 
 1.34586264e-04  1.78147217e+00  1.10053835e+00  0.00000000e+00 
 1.36586264e-04  1.81775749e+00  1.10054635e+00  0.00000000e+00 
 1.38586264e-04  1.78147215e+00  1.10055435e+00  0.00000000e+00 
 1.40586264e-04  1.81775753e+00  1.10056235e+00  0.00000000e+00 
 1.42586264e-04  1.78147212e+00  1.10057035e+00  0.00000000e+00 
 1.44586264e-04  1.81775756e+00  1.10057835e+00  0.00000000e+00 
 1.46586264e-04  1.78147210e+00  1.10058635e+00  0.00000000e+00 
 1.48586264e-04  1.81775760e+00  1.10059435e+00  0.00000000e+00 
 1.50586264e-04  1.78147207e+00  1.10060235e+00  0.00000000e+00 
 1.52586264e-04  1.81775763e+00  1.10061035e+00  0.00000000e+00 
 1.54586264e-04  1.78147205e+00  1.10061835e+00  0.00000000e+00 
 1.56586264e-04  1.81775767e+00  1.10062635e+00  0.00000000e+00 
 1.58586264e-04  1.78147202e+00  1.10063435e+00  0.00000000e+00 
 1.60586264e-04  1.81775770e+00  1.10064235e+00  0.00000000e+00 
 1.62586264e-04  1.78147200e+00  1.10065035e+00  0.00000000e+00 
 1.64586264e-04  1.81775774e+00  1.10065835e+00  0.00000000e+00 
 1.66586264e-04  1.78147197e+00  1.10066635e+00  0.00000000e+00 
 1.68586264e-04  1.81775777e+00  1.10067435e+00  0.00000000e+00 
 1.70586264e-04  1.78147195e+00  1.10068235e+00  0.00000000e+00 
 1.72586264e-04  1.81775780e+00  1.10069035e+00  0.00000000e+00 
 1.74586264e-04  1.78147192e+00  1.10069835e+00  0.00000000e+00 
 1.76586264e-04  1.81775784e+00  1.10070635e+00  0.00000000e+00 
 1.78586264e-04  1.78147190e+00  1.10071435e+00  0.00000000e+00 
 1.80586264e-04  1.81775787e+00  1.10072235e+00  0.00000000e+00 
 1.82586264e-04  1.78147187e+00  1.10073035e+00  0.00000000e+00 
 1.84586264e-04  1.81775791e+00  1.10073835e+00  0.00000000e+00 
 1.86586264e-04  1.78147185e+00  1.10074635e+00  0.00000000e+00 
 1.88586264e-04  1.81775794e+00  1.10075435e+00  0.00000000e+00 
 1.90586264e-04  1.78147183e+00  1.10076235e+00  0.00000000e+00 
 1.92586264e-04  1.81775798e+00  1.10077035e+00  0.00000000e+00 
 1.94586264e-04  1.78147180e+00  1.10077835e+00  0.00000000e+00 
 1.96586264e-04  1.81775801e+00  1.10078635e+00  0.00000000e+00 
 1.98586264e-04  1.78147178e+00  1.10079435e+00  0.00000000e+00 
 2.00000000e-04  1.81774582e+00  1.10080000e+00  0.00000000e+00 
 2.00141580e-04  1.79999911e+00 -9.91994337e-02  1.20000000e+00 
 2.00424740e-04  1.80000084e+00 -9.91983010e-02  1.20000000e+00 
 2.00680486e-04  1.79999911e+00 -9.91972781e-02  1.20000000e+00 
 2.00971622e-04  1.80000084e+00 -9.91961135e-02  1.20000000e+00 
 2.01553894e-04  1.79999911e+00 -9.91937844e-02  1.20000000e+00 
 2.02718437e-04  1.80000084e+00 -9.91891263e-02  1.20000000e+00 
 2.04718437e-04  1.79999911e+00 -9.91811263e-02  1.20000000e+00 
 2.06718437e-04  1.80000084e+00 -9.91731263e-02  1.20000000e+00 
 2.08718437e-04  1.79999911e+00 -9.91651263e-02  1.20000000e+00 
 2.10718437e-04  1.80000084e+00 -9.91571263e-02  1.20000000e+00 
 2.12718437e-04  1.79999911e+00 -9.91491263e-02  1.20000000e+00 
 2.14718437e-04  1.80000084e+00 -9.91411263e-02  1.20000000e+00 
 2.16718437e-04  1.79999911e+00 -9.91331263e-02  1.20000000e+00 
 2.18718437e-04  1.80000084e+00 -9.91251263e-02  1.20000000e+00 
 2.20718437e-04  1.79999911e+00 -9.91171263e-02  1.20000000e+00 
 2.22718437e-04  1.80000084e+00 -9.91091263e-02  1.20000000e+00 
 2.24718437e-04  1.79999911e+00 -9.91011263e-02  1.20000000e+00 
 2.26718437e-04  1.80000084e+00 -9.90931263e-02  1.20000000e+00 
 2.28718437e-04  1.79999911e+00 -9.90851263e-02  1.20000000e+00 
 2.30718437e-04  1.80000084e+00 -9.90771263e-02  1.20000000e+00 
 2.32718437e-04  1.79999911e+00 -9.90691263e-02  1.20000000e+00 
 2.34718437e-04  1.80000084e+00 -9.90611263e-02  1.20000000e+00 
 2.36718437e-04  1.79999911e+00 -9.90531263e-02  1.20000000e+00 
 2.38718437e-04  1.80000084e+00 -9.90451263e-02  1.20000000e+00 
 2.40718437e-04  1.79999911e+00 -9.90371263e-02  1.20000000e+00 
 2.42718437e-04  1.80000084e+00 -9.90291263e-02  1.20000000e+00 
 2.44718437e-04  1.79999911e+00 -9.90211263e-02  1.20000000e+00 
 2.46718437e-04  1.80000084e+00 -9.90131263e-02  1.20000000e+00 
 2.48718437e-04  1.79999911e+00 -9.90051263e-02  1.20000000e+00 
 2.50718437e-04  1.80000084e+00 -9.89971263e-02  1.20000000e+00 
 2.52718437e-04  1.79999911e+00 -9.89891263e-02  1.20000000e+00 
 2.54718437e-04  1.80000084e+00 -9.89811263e-02  1.20000000e+00 
 2.56718437e-04  1.79999911e+00 -9.89731263e-02  1.20000000e+00 
 2.58718437e-04  1.80000084e+00 -9.89651263e-02  1.20000000e+00 
 2.60718437e-04  1.79999911e+00 -9.89571263e-02  1.20000000e+00 
 2.62718437e-04  1.80000084e+00 -9.89491263e-02  1.20000000e+00 
 2.64718437e-04  1.79999911e+00 -9.89411263e-02  1.20000000e+00 
 2.66718437e-04  1.80000083e+00 -9.89331263e-02  1.20000000e+00 
 2.68718437e-04  1.79999911e+00 -9.89251263e-02  1.20000000e+00 
 2.70718437e-04  1.80000083e+00 -9.89171263e-02  1.20000000e+00 
 2.72718437e-04  1.79999911e+00 -9.89091263e-02  1.20000000e+00 
 2.74718437e-04  1.80000083e+00 -9.89011263e-02  1.20000000e+00 
 2.76718437e-04  1.79999911e+00 -9.88931263e-02  1.20000000e+00 
 2.78718437e-04  1.80000083e+00 -9.88851263e-02  1.20000000e+00 
 2.80718437e-04  1.79999911e+00 -9.88771263e-02  1.20000000e+00 
 2.82718437e-04  1.80000083e+00 -9.88691263e-02  1.20000000e+00 
 2.84718437e-04  1.79999911e+00 -9.88611263e-02  1.20000000e+00 
 2.86718437e-04  1.80000083e+00 -9.88531263e-02  1.20000000e+00 
 2.88718437e-04  1.79999911e+00 -9.88451263e-02  1.20000000e+00 
 2.90718437e-04  1.80000083e+00 -9.88371263e-02  1.20000000e+00 
 2.92718437e-04  1.79999911e+00 -9.88291263e-02  1.20000000e+00 
 2.94718437e-04  1.80000083e+00 -9.88211263e-02  1.20000000e+00 
 2.96718437e-04  1.79999911e+00 -9.88131263e-02  1.20000000e+00 
 2.98718437e-04  1.80000083e+00 -9.88051263e-02  1.20000000e+00 
 3.00718437e-04  1.79999911e+00 -9.87971263e-02  1.20000000e+00 
 3.02718437e-04  1.80000083e+00 -9.87891263e-02  1.20000000e+00 
 3.04718437e-04  1.79999911e+00 -9.87811263e-02  1.20000000e+00 
 3.06718437e-04  1.80000083e+00 -9.87731263e-02  1.20000000e+00 
 3.08718437e-04  1.79999911e+00 -9.87651263e-02  1.20000000e+00 
 3.10718437e-04  1.80000083e+00 -9.87571263e-02  1.20000000e+00 
 3.12718437e-04  1.79999912e+00 -9.87491263e-02  1.20000000e+00 
 3.14718437e-04  1.80000083e+00 -9.87411263e-02  1.20000000e+00 
 3.16718437e-04  1.79999912e+00 -9.87331263e-02  1.20000000e+00 
 3.18718437e-04  1.80000083e+00 -9.87251263e-02  1.20000000e+00 
 3.20718437e-04  1.79999912e+00 -9.87171263e-02  1.20000000e+00 
 3.22718437e-04  1.80000083e+00 -9.87091263e-02  1.20000000e+00 
 3.24718437e-04  1.79999912e+00 -9.87011263e-02  1.20000000e+00 
 3.26718437e-04  1.80000083e+00 -9.86931263e-02  1.20000000e+00 
 3.28718437e-04  1.79999912e+00 -9.86851263e-02  1.20000000e+00 
 3.30718437e-04  1.80000083e+00 -9.86771263e-02  1.20000000e+00 
 3.32718437e-04  1.79999912e+00 -9.86691263e-02  1.20000000e+00 
 3.34718437e-04  1.80000083e+00 -9.86611263e-02  1.20000000e+00 
 3.36718437e-04  1.79999912e+00 -9.86531263e-02  1.20000000e+00 
 3.38718437e-04  1.80000083e+00 -9.86451263e-02  1.20000000e+00 
 3.40718437e-04  1.79999912e+00 -9.86371263e-02  1.20000000e+00 
 3.42718437e-04  1.80000083e+00 -9.86291263e-02  1.20000000e+00 
 3.44718437e-04  1.79999912e+00 -9.86211263e-02  1.20000000e+00 
 3.46718437e-04  1.80000083e+00 -9.86131263e-02  1.20000000e+00 
 3.48718437e-04  1.79999912e+00 -9.86051263e-02  1.20000000e+00 
 3.50718437e-04  1.80000083e+00 -9.85971263e-02  1.20000000e+00 
 3.52718437e-04  1.79999912e+00 -9.85891263e-02  1.20000000e+00 
 3.54718437e-04  1.80000083e+00 -9.85811263e-02  1.20000000e+00 
 3.56718437e-04  1.79999912e+00 -9.85731263e-02  1.20000000e+00 
 3.58718437e-04  1.80000083e+00 -9.85651263e-02  1.20000000e+00 
 3.60718437e-04  1.79999912e+00 -9.85571263e-02  1.20000000e+00 
 3.62718437e-04  1.80000083e+00 -9.85491263e-02  1.20000000e+00 
 3.64718437e-04  1.79999912e+00 -9.85411263e-02  1.20000000e+00 
 3.66718437e-04  1.80000083e+00 -9.85331263e-02  1.20000000e+00 
 3.68718437e-04  1.79999912e+00 -9.85251263e-02  1.20000000e+00 
 3.70718437e-04  1.80000083e+00 -9.85171263e-02  1.20000000e+00 
 3.72718437e-04  1.79999912e+00 -9.85091263e-02  1.20000000e+00 
 3.74718437e-04  1.80000083e+00 -9.85011263e-02  1.20000000e+00 
 3.76718437e-04  1.79999912e+00 -9.84931263e-02  1.20000000e+00 
 3.78718437e-04  1.80000083e+00 -9.84851263e-02  1.20000000e+00 
 3.80718437e-04  1.79999912e+00 -9.84771263e-02  1.20000000e+00 
 3.82718437e-04  1.80000083e+00 -9.84691263e-02  1.20000000e+00 
 3.84718437e-04  1.79999912e+00 -9.84611263e-02  1.20000000e+00 
 3.86718437e-04  1.80000083e+00 -9.84531263e-02  1.20000000e+00 
 3.88718437e-04  1.79999912e+00 -9.84451263e-02  1.20000000e+00 
 3.90718437e-04  1.80000083e+00 -9.84371263e-02  1.20000000e+00 
 3.92718437e-04  1.79999912e+00 -9.84291263e-02  1.20000000e+00 
 3.94718437e-04  1.80000083e+00 -9.84211263e-02  1.20000000e+00 
 3.96718437e-04  1.79999912e+00 -9.84131263e-02  1.20000000e+00 
 3.98718437e-04  1.80000083e+00 -9.84051263e-02  1.20000000e+00 
 4.00718437e-04  1.79999912e+00 -9.83971263e-02  1.20000000e+00 
 4.02718437e-04  1.80000083e+00 -9.83891263e-02  1.20000000e+00 
 4.04718437e-04  1.79999912e+00 -9.83811263e-02  1.20000000e+00 
 4.06718437e-04  1.80000083e+00 -9.83731263e-02  1.20000000e+00 
 4.08718437e-04  1.79999912e+00 -9.83651263e-02  1.20000000e+00 
 4.10718437e-04  1.80000083e+00 -9.83571263e-02  1.20000000e+00 
 4.12718437e-04  1.79999912e+00 -9.83491263e-02  1.20000000e+00 
 4.14718437e-04  1.80000083e+00 -9.83411263e-02  1.20000000e+00 
 4.16718437e-04  1.79999912e+00 -9.83331263e-02  1.20000000e+00 
 4.18718437e-04  1.80000083e+00 -9.83251263e-02  1.20000000e+00 
 4.20718437e-04  1.79999912e+00 -9.83171263e-02  1.20000000e+00 
 4.22718437e-04  1.80000083e+00 -9.83091263e-02  1.20000000e+00 
 4.24718437e-04  1.79999912e+00 -9.83011263e-02  1.20000000e+00 
 4.26718437e-04  1.80000083e+00 -9.82931263e-02  1.20000000e+00 
 4.28718437e-04  1.79999912e+00 -9.82851263e-02  1.20000000e+00 
 4.30718437e-04  1.80000083e+00 -9.82771263e-02  1.20000000e+00 
 4.32718437e-04  1.79999912e+00 -9.82691263e-02  1.20000000e+00 
 4.34718437e-04  1.80000083e+00 -9.82611263e-02  1.20000000e+00 
 4.36718437e-04  1.79999912e+00 -9.82531263e-02  1.20000000e+00 
 4.38718437e-04  1.80000083e+00 -9.82451263e-02  1.20000000e+00 
 4.40718437e-04  1.79999912e+00 -9.82371263e-02  1.20000000e+00 
 4.42718437e-04  1.80000083e+00 -9.82291263e-02  1.20000000e+00 
 4.44718437e-04  1.79999912e+00 -9.82211263e-02  1.20000000e+00 
 4.46718437e-04  1.80000083e+00 -9.82131263e-02  1.20000000e+00 
 4.48718437e-04  1.79999912e+00 -9.82051263e-02  1.20000000e+00 
 4.50718437e-04  1.80000083e+00 -9.81971263e-02  1.20000000e+00 
 4.52718437e-04  1.79999912e+00 -9.81891263e-02  1.20000000e+00 
 4.54718437e-04  1.80000083e+00 -9.81811263e-02  1.20000000e+00 
 4.56718437e-04  1.79999912e+00 -9.81731263e-02  1.20000000e+00 
 4.58718437e-04  1.80000083e+00 -9.81651263e-02  1.20000000e+00 
 4.60718437e-04  1.79999912e+00 -9.81571263e-02  1.20000000e+00 
 4.62718437e-04  1.80000083e+00 -9.81491263e-02  1.20000000e+00 
 4.64718437e-04  1.79999912e+00 -9.81411263e-02  1.20000000e+00 
 4.66718437e-04  1.80000083e+00 -9.81331263e-02  1.20000000e+00 
 4.68718437e-04  1.79999912e+00 -9.81251263e-02  1.20000000e+00 
 4.70718437e-04  1.80000083e+00 -9.81171263e-02  1.20000000e+00 
 4.72718437e-04  1.79999912e+00 -9.81091263e-02  1.20000000e+00 
 4.74718437e-04  1.80000083e+00 -9.81011263e-02  1.20000000e+00 
 4.76718437e-04  1.79999912e+00 -9.80931263e-02  1.20000000e+00 
 4.78718437e-04  1.80000083e+00 -9.80851263e-02  1.20000000e+00 
 4.80718437e-04  1.79999912e+00 -9.80771263e-02  1.20000000e+00 
 4.82718437e-04  1.80000083e+00 -9.80691263e-02  1.20000000e+00 
 4.84718437e-04  1.79999912e+00 -9.80611263e-02  1.20000000e+00 
 4.86718437e-04  1.80000083e+00 -9.80531263e-02  1.20000000e+00 
 4.88718437e-04  1.79999912e+00 -9.80451263e-02  1.20000000e+00 
 4.90718437e-04  1.80000083e+00 -9.80371263e-02  1.20000000e+00 
 4.92718437e-04  1.79999912e+00 -9.80291263e-02  1.20000000e+00 
 4.94718437e-04  1.80000083e+00 -9.80211263e-02  1.20000000e+00 
 4.96718437e-04  1.79999912e+00 -9.80131263e-02  1.20000000e+00 
 4.98718437e-04  1.80000083e+00 -9.80051263e-02  1.20000000e+00 
 5.00100100e-04  1.79999912e+00 -9.79995996e-02  1.20000000e+00 
 5.00100110e-04  1.79996173e+00 -9.79995996e-02  1.20000000e+00 
 5.00100130e-04  1.79998864e+00 -9.79995995e-02  1.20000000e+00 
 5.00100170e-04  1.79996463e+00 -9.79995993e-02  1.20000000e+00 
 5.00100200e-04  1.80025100e+00 -9.79995992e-02  1.20000000e+00 
 5.00100208e-04  1.80031971e+00 -9.79995992e-02  1.20000000e+00 
 5.00100224e-04  1.80021434e+00 -9.79995991e-02  1.20000000e+00 
 5.00100256e-04  1.79983672e+00 -9.79995990e-02  1.20000000e+00 
 5.00100320e-04  1.79904334e+00 -9.79995987e-02  1.20000000e+00 
 5.00100400e-04  1.80433163e+00 -9.79995984e-02  1.20000000e+00 
 5.00100482e-04  1.79755810e+00 -9.79995981e-02  1.20000000e+00 
 5.00100613e-04  1.80192775e+00 -9.79995975e-02  1.20000000e+00 
 5.00100750e-04  1.79845200e+00 -9.79995970e-02  1.20000000e+00 
 5.00101025e-04  1.80142791e+00 -9.79995959e-02  1.20000000e+00 
 5.00101565e-04  1.79866059e+00 -9.79995937e-02  1.20000000e+00 
 5.00102394e-04  1.80131871e+00 -9.79995904e-02  1.20000000e+00 
 5.00104054e-04  1.79872224e+00 -9.79995838e-02  1.20000000e+00 
