 time            v(Q)            v(A)-v(B)       v(B)           
 0.00000000e+00  4.64350577e-09  1.60000000e+00  0.00000000e+00 
 1.00000000e-09  4.64356480e-09  1.60000000e+00  0.00000000e+00 
 2.00000000e-09  4.64356508e-09  1.60000001e+00  0.00000000e+00 
 4.00000000e-09  4.64356505e-09  1.60000002e+00  0.00000000e+00 
 8.00000000e-09  4.64356506e-09  1.60000003e+00  0.00000000e+00 
 1.60000000e-08  4.64356497e-09  1.60000006e+00  0.00000000e+00 
 3.20000000e-08  4.64356473e-09  1.60000013e+00  0.00000000e+00 
 6.40000000e-08  4.64356435e-09  1.60000026e+00  0.00000000e+00 
 1.00000000e-07  4.64356391e-09  1.60000040e+00  0.00000000e+00 
 1.00010000e-07  1.52967673e-05  1.60000040e+00  0.00000000e+00 
 1.00030000e-07 -7.09512140e-06  1.60000040e+00  0.00000000e+00 
 1.00070000e-07 -4.36712536e-05  1.60000040e+00  0.00000000e+00 
 1.00100000e-07 -1.70260257e-04  1.60000040e+00  0.00000000e+00 
 1.00108000e-07 -3.20845113e-04  1.60000040e+00  0.00000000e+00 
 1.00124000e-07  1.47242458e-03  1.60000040e+00  0.00000000e+00 
 1.00156000e-07  5.75763967e-03  1.60000040e+00  0.00000000e+00 
 1.00199146e-07 -4.49136132e-01  1.60000040e+00  0.00000000e+00 
 1.00245397e-07  3.86260930e-01  1.60000040e+00  0.00000000e+00 
 1.00305578e-07  1.57047394e+00  1.60000040e+00  0.00000000e+00 
 1.00394036e-07  1.81862464e+00  1.60000040e+00  0.00000000e+00 
 1.00485544e-07  1.80186676e+00  1.60000040e+00  0.00000000e+00 
 1.00668559e-07  1.79527946e+00  1.60000040e+00  0.00000000e+00 
 1.00896153e-07  1.80670536e+00  1.60000040e+00  0.00000000e+00 
 1.01310357e-07  1.79342851e+00  1.60000041e+00  0.00000000e+00 
 1.01951966e-07  1.80741331e+00  1.60000041e+00  0.00000000e+00 
 1.02968865e-07  1.79308616e+00  1.60000041e+00  0.00000000e+00 
 1.05002665e-07  1.80758383e+00  1.60000042e+00  0.00000000e+00 
 1.09070263e-07  1.79301049e+00  1.60000044e+00  0.00000000e+00 
 1.16722055e-07  1.80762105e+00  1.60000047e+00  0.00000000e+00 
 1.32025639e-07  1.79299178e+00  1.60000053e+00  0.00000000e+00 
 1.61745103e-07  1.80763045e+00  1.60000065e+00  0.00000000e+00 
 2.21184032e-07  1.79298706e+00  1.60000088e+00  0.00000000e+00 
 3.40061889e-07  1.80763282e+00  1.60000136e+00  0.00000000e+00 
 5.77817604e-07  1.79298588e+00  1.60000231e+00  0.00000000e+00 
 1.05332903e-06  1.80763341e+00  1.60000421e+00  0.00000000e+00 
 2.00435189e-06  1.79298559e+00  1.60000802e+00  0.00000000e+00 
 3.90639761e-06  1.80763356e+00  1.60001563e+00  0.00000000e+00 
 5.90639761e-06  1.79298491e+00  1.60002363e+00  0.00000000e+00 
 7.90639761e-06  1.80765805e+00  1.60003163e+00  0.00000000e+00 
 9.90639761e-06  1.79298481e+00  1.60003963e+00  0.00000000e+00 
 1.19063976e-05  1.80765814e+00  1.60004763e+00  0.00000000e+00 
 1.39063976e-05  1.79298472e+00  1.60005563e+00  0.00000000e+00 
 1.59063976e-05  1.80765824e+00  1.60006363e+00  0.00000000e+00 
 1.79063976e-05  1.79298463e+00  1.60007163e+00  0.00000000e+00 
 1.99063976e-05  1.80765833e+00  1.60007963e+00  0.00000000e+00 
 2.19063976e-05  1.79298454e+00  1.60008763e+00  0.00000000e+00 
 2.39063976e-05  1.80765842e+00  1.60009563e+00  0.00000000e+00 
 2.59063976e-05  1.79298445e+00  1.60010363e+00  0.00000000e+00 
 2.79063976e-05  1.80765851e+00  1.60011163e+00  0.00000000e+00 
 2.99063976e-05  1.79298436e+00  1.60011963e+00  0.00000000e+00 
 3.19063976e-05  1.80765860e+00  1.60012763e+00  0.00000000e+00 
 3.39063976e-05  1.79298427e+00  1.60013563e+00  0.00000000e+00 
 3.59063976e-05  1.80765869e+00  1.60014363e+00  0.00000000e+00 
 3.79063976e-05  1.79298418e+00  1.60015163e+00  0.00000000e+00 
 3.99063976e-05  1.80765878e+00  1.60015963e+00  0.00000000e+00 
 4.19063976e-05  1.79298408e+00  1.60016763e+00  0.00000000e+00 
 4.39063976e-05  1.80765887e+00  1.60017563e+00  0.00000000e+00 
 4.59063976e-05  1.79298399e+00  1.60018363e+00  0.00000000e+00 
 4.79063976e-05  1.80765896e+00  1.60019163e+00  0.00000000e+00 
 4.99063976e-05  1.79298390e+00  1.60019963e+00  0.00000000e+00 
 5.19063976e-05  1.80765906e+00  1.60020763e+00  0.00000000e+00 
 5.39063976e-05  1.79298381e+00  1.60021563e+00  0.00000000e+00 
 5.59063976e-05  1.80765915e+00  1.60022363e+00  0.00000000e+00 
 5.79063976e-05  1.79298372e+00  1.60023163e+00  0.00000000e+00 
 5.99063976e-05  1.80765924e+00  1.60023963e+00  0.00000000e+00 
 6.19063976e-05  1.79298363e+00  1.60024763e+00  0.00000000e+00 
 6.39063976e-05  1.80765933e+00  1.60025563e+00  0.00000000e+00 
 6.59063976e-05  1.79298354e+00  1.60026363e+00  0.00000000e+00 
 6.79063976e-05  1.80765942e+00  1.60027163e+00  0.00000000e+00 
 6.99063976e-05  1.79298345e+00  1.60027963e+00  0.00000000e+00 
 7.19063976e-05  1.80765951e+00  1.60028763e+00  0.00000000e+00 
 7.39063976e-05  1.79298336e+00  1.60029563e+00  0.00000000e+00 
 7.59063976e-05  1.80765960e+00  1.60030363e+00  0.00000000e+00 
 7.79063976e-05  1.79298327e+00  1.60031163e+00  0.00000000e+00 
 7.99063976e-05  1.80765969e+00  1.60031963e+00  0.00000000e+00 
 8.19063976e-05  1.79298318e+00  1.60032763e+00  0.00000000e+00 
 8.39063976e-05  1.80765978e+00  1.60033563e+00  0.00000000e+00 
 8.59063976e-05  1.79298309e+00  1.60034363e+00  0.00000000e+00 
 8.79063976e-05  1.80765987e+00  1.60035163e+00  0.00000000e+00 
 8.99063976e-05  1.79298300e+00  1.60035963e+00  0.00000000e+00 
 9.19063976e-05  1.80765996e+00  1.60036763e+00  0.00000000e+00 
 9.39063976e-05  1.79298291e+00  1.60037563e+00  0.00000000e+00 
 9.59063976e-05  1.80766005e+00  1.60038363e+00  0.00000000e+00 
 9.79063976e-05  1.79298282e+00  1.60039163e+00  0.00000000e+00 
 9.99063976e-05  1.80766014e+00  1.60039963e+00  0.00000000e+00 
 1.01906398e-04  1.79298273e+00  1.60040763e+00  0.00000000e+00 
 1.03906398e-04  1.80766023e+00  1.60041563e+00  0.00000000e+00 
 1.05906398e-04  1.79298264e+00  1.60042363e+00  0.00000000e+00 
 1.07906398e-04  1.80766033e+00  1.60043163e+00  0.00000000e+00 
 1.09906398e-04  1.79298255e+00  1.60043963e+00  0.00000000e+00 
 1.11906398e-04  1.80766042e+00  1.60044763e+00  0.00000000e+00 
 1.13906398e-04  1.79298246e+00  1.60045563e+00  0.00000000e+00 
 1.15906398e-04  1.80766051e+00  1.60046363e+00  0.00000000e+00 
 1.17906398e-04  1.79298237e+00  1.60047163e+00  0.00000000e+00 
 1.19906398e-04  1.80766060e+00  1.60047963e+00  0.00000000e+00 
 1.21906398e-04  1.79298228e+00  1.60048763e+00  0.00000000e+00 
 1.23906398e-04  1.80766069e+00  1.60049563e+00  0.00000000e+00 
 1.25906398e-04  1.79298219e+00  1.60050363e+00  0.00000000e+00 
 1.27906398e-04  1.80766078e+00  1.60051163e+00  0.00000000e+00 
 1.29906398e-04  1.79298210e+00  1.60051963e+00  0.00000000e+00 
 1.31906398e-04  1.80766087e+00  1.60052763e+00  0.00000000e+00 
 1.33906398e-04  1.79298201e+00  1.60053563e+00  0.00000000e+00 
 1.35906398e-04  1.80766096e+00  1.60054363e+00  0.00000000e+00 
 1.37906398e-04  1.79298192e+00  1.60055163e+00  0.00000000e+00 
 1.39906398e-04  1.80766105e+00  1.60055963e+00  0.00000000e+00 
 1.41906398e-04  1.79298183e+00  1.60056763e+00  0.00000000e+00 
 1.43906398e-04  1.80766114e+00  1.60057563e+00  0.00000000e+00 
 1.45906398e-04  1.79298174e+00  1.60058363e+00  0.00000000e+00 
 1.47906398e-04  1.80766123e+00  1.60059163e+00  0.00000000e+00 
 1.49906398e-04  1.79298165e+00  1.60059963e+00  0.00000000e+00 
 1.51906398e-04  1.80766132e+00  1.60060763e+00  0.00000000e+00 
 1.53906398e-04  1.79298156e+00  1.60061563e+00  0.00000000e+00 
 1.55906398e-04  1.80766141e+00  1.60062363e+00  0.00000000e+00 
 1.57906398e-04  1.79298147e+00  1.60063163e+00  0.00000000e+00 
 1.59906398e-04  1.80766150e+00  1.60063963e+00  0.00000000e+00 
 1.61906398e-04  1.79298138e+00  1.60064763e+00  0.00000000e+00 
 1.63906398e-04  1.80766159e+00  1.60065563e+00  0.00000000e+00 
 1.65906398e-04  1.79298129e+00  1.60066363e+00  0.00000000e+00 
 1.67906398e-04  1.80766168e+00  1.60067163e+00  0.00000000e+00 
 1.69906398e-04  1.79298120e+00  1.60067963e+00  0.00000000e+00 
 1.71906398e-04  1.80766177e+00  1.60068763e+00  0.00000000e+00 
 1.73906398e-04  1.79298111e+00  1.60069563e+00  0.00000000e+00 
 1.75906398e-04  1.80766186e+00  1.60070363e+00  0.00000000e+00 
 1.77906398e-04  1.79298103e+00  1.60071163e+00  0.00000000e+00 
 1.79906398e-04  1.80766195e+00  1.60071963e+00  0.00000000e+00 
 1.81906398e-04  1.79298094e+00  1.60072763e+00  0.00000000e+00 
 1.83906398e-04  1.80766204e+00  1.60073563e+00  0.00000000e+00 
 1.85906398e-04  1.79298085e+00  1.60074363e+00  0.00000000e+00 
 1.87906398e-04  1.80766213e+00  1.60075163e+00  0.00000000e+00 
 1.89906398e-04  1.79298076e+00  1.60075963e+00  0.00000000e+00 
 1.91906398e-04  1.80766222e+00  1.60076763e+00  0.00000000e+00 
 1.93906398e-04  1.79298067e+00  1.60077563e+00  0.00000000e+00 
 1.95906398e-04  1.80766231e+00  1.60078363e+00  0.00000000e+00 
 1.97906398e-04  1.79298058e+00  1.60079163e+00  0.00000000e+00 
 1.99906398e-04  1.80766240e+00  1.60079963e+00  0.00000000e+00 
 2.00000000e-04  1.79297611e+00  1.60080000e+00  0.00000000e+00 
 2.00007681e-04  1.79999987e+00 -9.91999693e-02  1.70000000e+00 
 2.00023043e-04  1.80000009e+00 -9.91999078e-02  1.70000000e+00 
 2.00036384e-04  1.79999985e+00 -9.91998545e-02  1.70000000e+00 
 2.00052028e-04  1.80000010e+00 -9.91997919e-02  1.70000000e+00 
 2.00083314e-04  1.79999984e+00 -9.91996667e-02  1.70000000e+00 
 2.00145887e-04  1.80000011e+00 -9.91994165e-02  1.70000000e+00 
 2.00271033e-04  1.79999984e+00 -9.91989159e-02  1.70000000e+00 
 2.00521324e-04  1.80000011e+00 -9.91979147e-02  1.70000000e+00 
 2.01021908e-04  1.79999984e+00 -9.91959124e-02  1.70000000e+00 
 2.02023074e-04  1.80000011e+00 -9.91919077e-02  1.70000000e+00 
 2.04023074e-04  1.79999984e+00 -9.91839077e-02  1.70000000e+00 
 2.06023074e-04  1.80000011e+00 -9.91759077e-02  1.70000000e+00 
 2.08023074e-04  1.79999984e+00 -9.91679077e-02  1.70000000e+00 
 2.10023074e-04  1.80000011e+00 -9.91599077e-02  1.70000000e+00 
 2.12023074e-04  1.79999984e+00 -9.91519077e-02  1.70000000e+00 
 2.14023074e-04  1.80000011e+00 -9.91439077e-02  1.70000000e+00 
 2.16023074e-04  1.79999984e+00 -9.91359077e-02  1.70000000e+00 
 2.18023074e-04  1.80000011e+00 -9.91279077e-02  1.70000000e+00 
 2.20023074e-04  1.79999984e+00 -9.91199077e-02  1.70000000e+00 
 2.22023074e-04  1.80000011e+00 -9.91119077e-02  1.70000000e+00 
 2.24023074e-04  1.79999984e+00 -9.91039077e-02  1.70000000e+00 
 2.26023074e-04  1.80000011e+00 -9.90959077e-02  1.70000000e+00 
 2.28023074e-04  1.79999984e+00 -9.90879077e-02  1.70000000e+00 
 2.30023074e-04  1.80000011e+00 -9.90799077e-02  1.70000000e+00 
 2.32023074e-04  1.79999984e+00 -9.90719077e-02  1.70000000e+00 
 2.34023074e-04  1.80000011e+00 -9.90639077e-02  1.70000000e+00 
 2.36023074e-04  1.79999984e+00 -9.90559077e-02  1.70000000e+00 
 2.38023074e-04  1.80000011e+00 -9.90479077e-02  1.70000000e+00 
 2.40023074e-04  1.79999984e+00 -9.90399077e-02  1.70000000e+00 
 2.42023074e-04  1.80000011e+00 -9.90319077e-02  1.70000000e+00 
 2.44023074e-04  1.79999984e+00 -9.90239077e-02  1.70000000e+00 
 2.46023074e-04  1.80000011e+00 -9.90159077e-02  1.70000000e+00 
 2.48023074e-04  1.79999984e+00 -9.90079077e-02  1.70000000e+00 
 2.50023074e-04  1.80000011e+00 -9.89999077e-02  1.70000000e+00 
 2.52023074e-04  1.79999984e+00 -9.89919077e-02  1.70000000e+00 
 2.54023074e-04  1.80000011e+00 -9.89839077e-02  1.70000000e+00 
 2.56023074e-04  1.79999984e+00 -9.89759077e-02  1.70000000e+00 
 2.58023074e-04  1.80000011e+00 -9.89679077e-02  1.70000000e+00 
 2.60023074e-04  1.79999984e+00 -9.89599077e-02  1.70000000e+00 
 2.62023074e-04  1.80000011e+00 -9.89519077e-02  1.70000000e+00 
 2.64023074e-04  1.79999984e+00 -9.89439077e-02  1.70000000e+00 
 2.66023074e-04  1.80000011e+00 -9.89359077e-02  1.70000000e+00 
 2.68023074e-04  1.79999984e+00 -9.89279077e-02  1.70000000e+00 
 2.70023074e-04  1.80000011e+00 -9.89199077e-02  1.70000000e+00 
 2.72023074e-04  1.79999984e+00 -9.89119077e-02  1.70000000e+00 
 2.74023074e-04  1.80000011e+00 -9.89039077e-02  1.70000000e+00 
 2.76023074e-04  1.79999984e+00 -9.88959077e-02  1.70000000e+00 
 2.78023074e-04  1.80000011e+00 -9.88879077e-02  1.70000000e+00 
 2.80023074e-04  1.79999984e+00 -9.88799077e-02  1.70000000e+00 
 2.82023074e-04  1.80000011e+00 -9.88719077e-02  1.70000000e+00 
 2.84023074e-04  1.79999983e+00 -9.88639077e-02  1.70000000e+00 
 2.86023074e-04  1.80000011e+00 -9.88559077e-02  1.70000000e+00 
 2.88023074e-04  1.79999983e+00 -9.88479077e-02  1.70000000e+00 
 2.90023074e-04  1.80000011e+00 -9.88399077e-02  1.70000000e+00 
 2.92023074e-04  1.79999983e+00 -9.88319077e-02  1.70000000e+00 
 2.94023074e-04  1.80000011e+00 -9.88239077e-02  1.70000000e+00 
 2.96023074e-04  1.79999983e+00 -9.88159077e-02  1.70000000e+00 
 2.98023074e-04  1.80000011e+00 -9.88079077e-02  1.70000000e+00 
 3.00023074e-04  1.79999983e+00 -9.87999077e-02  1.70000000e+00 
 3.02023074e-04  1.80000011e+00 -9.87919077e-02  1.70000000e+00 
 3.04023074e-04  1.79999983e+00 -9.87839077e-02  1.70000000e+00 
 3.06023074e-04  1.80000011e+00 -9.87759077e-02  1.70000000e+00 
 3.08023074e-04  1.79999983e+00 -9.87679077e-02  1.70000000e+00 
 3.10023074e-04  1.80000011e+00 -9.87599077e-02  1.70000000e+00 
 3.12023074e-04  1.79999983e+00 -9.87519077e-02  1.70000000e+00 
 3.14023074e-04  1.80000011e+00 -9.87439077e-02  1.70000000e+00 
 3.16023074e-04  1.79999983e+00 -9.87359077e-02  1.70000000e+00 
 3.18023074e-04  1.80000011e+00 -9.87279077e-02  1.70000000e+00 
 3.20023074e-04  1.79999983e+00 -9.87199077e-02  1.70000000e+00 
 3.22023074e-04  1.80000011e+00 -9.87119077e-02  1.70000000e+00 
 3.24023074e-04  1.79999983e+00 -9.87039077e-02  1.70000000e+00 
 3.26023074e-04  1.80000011e+00 -9.86959077e-02  1.70000000e+00 
 3.28023074e-04  1.79999983e+00 -9.86879077e-02  1.70000000e+00 
 3.30023074e-04  1.80000011e+00 -9.86799077e-02  1.70000000e+00 
 3.32023074e-04  1.79999983e+00 -9.86719077e-02  1.70000000e+00 
 3.34023074e-04  1.80000011e+00 -9.86639077e-02  1.70000000e+00 
 3.36023074e-04  1.79999983e+00 -9.86559077e-02  1.70000000e+00 
 3.38023074e-04  1.80000011e+00 -9.86479077e-02  1.70000000e+00 
 3.40023074e-04  1.79999983e+00 -9.86399077e-02  1.70000000e+00 
 3.42023074e-04  1.80000011e+00 -9.86319077e-02  1.70000000e+00 
 3.44023074e-04  1.79999983e+00 -9.86239077e-02  1.70000000e+00 
 3.46023074e-04  1.80000011e+00 -9.86159077e-02  1.70000000e+00 
 3.48023074e-04  1.79999983e+00 -9.86079077e-02  1.70000000e+00 
 3.50023074e-04  1.80000012e+00 -9.85999077e-02  1.70000000e+00 
 3.52023074e-04  1.79999983e+00 -9.85919077e-02  1.70000000e+00 
 3.54023074e-04  1.80000012e+00 -9.85839077e-02  1.70000000e+00 
 3.56023074e-04  1.79999983e+00 -9.85759077e-02  1.70000000e+00 
 3.58023074e-04  1.80000012e+00 -9.85679077e-02  1.70000000e+00 
 3.60023074e-04  1.79999983e+00 -9.85599077e-02  1.70000000e+00 
 3.62023074e-04  1.80000012e+00 -9.85519077e-02  1.70000000e+00 
 3.64023074e-04  1.79999983e+00 -9.85439077e-02  1.70000000e+00 
 3.66023074e-04  1.80000012e+00 -9.85359077e-02  1.70000000e+00 
 3.68023074e-04  1.79999983e+00 -9.85279077e-02  1.70000000e+00 
 3.70023074e-04  1.80000012e+00 -9.85199077e-02  1.70000000e+00 
 3.72023074e-04  1.79999983e+00 -9.85119077e-02  1.70000000e+00 
 3.74023074e-04  1.80000012e+00 -9.85039077e-02  1.70000000e+00 
 3.76023074e-04  1.79999983e+00 -9.84959077e-02  1.70000000e+00 
 3.78023074e-04  1.80000012e+00 -9.84879077e-02  1.70000000e+00 
 3.80023074e-04  1.79999983e+00 -9.84799077e-02  1.70000000e+00 
 3.82023074e-04  1.80000012e+00 -9.84719077e-02  1.70000000e+00 
 3.84023074e-04  1.79999983e+00 -9.84639077e-02  1.70000000e+00 
 3.86023074e-04  1.80000012e+00 -9.84559077e-02  1.70000000e+00 
 3.88023074e-04  1.79999983e+00 -9.84479077e-02  1.70000000e+00 
 3.90023074e-04  1.80000012e+00 -9.84399077e-02  1.70000000e+00 
 3.92023074e-04  1.79999983e+00 -9.84319077e-02  1.70000000e+00 
 3.94023074e-04  1.80000012e+00 -9.84239077e-02  1.70000000e+00 
 3.96023074e-04  1.79999983e+00 -9.84159077e-02  1.70000000e+00 
 3.98023074e-04  1.80000012e+00 -9.84079077e-02  1.70000000e+00 
 4.00023074e-04  1.79999983e+00 -9.83999077e-02  1.70000000e+00 
 4.02023074e-04  1.80000012e+00 -9.83919077e-02  1.70000000e+00 
 4.04023074e-04  1.79999983e+00 -9.83839077e-02  1.70000000e+00 
 4.06023074e-04  1.80000012e+00 -9.83759077e-02  1.70000000e+00 
 4.08023074e-04  1.79999983e+00 -9.83679077e-02  1.70000000e+00 
 4.10023074e-04  1.80000012e+00 -9.83599077e-02  1.70000000e+00 
 4.12023074e-04  1.79999983e+00 -9.83519077e-02  1.70000000e+00 
 4.14023074e-04  1.80000012e+00 -9.83439077e-02  1.70000000e+00 
 4.16023074e-04  1.79999983e+00 -9.83359077e-02  1.70000000e+00 
 4.18023074e-04  1.80000012e+00 -9.83279077e-02  1.70000000e+00 
 4.20023074e-04  1.79999983e+00 -9.83199077e-02  1.70000000e+00 
 4.22023074e-04  1.80000012e+00 -9.83119077e-02  1.70000000e+00 
 4.24023074e-04  1.79999983e+00 -9.83039077e-02  1.70000000e+00 
 4.26023074e-04  1.80000012e+00 -9.82959077e-02  1.70000000e+00 
 4.28023074e-04  1.79999983e+00 -9.82879077e-02  1.70000000e+00 
 4.30023074e-04  1.80000012e+00 -9.82799077e-02  1.70000000e+00 
 4.32023074e-04  1.79999983e+00 -9.82719077e-02  1.70000000e+00 
 4.34023074e-04  1.80000012e+00 -9.82639077e-02  1.70000000e+00 
 4.36023074e-04  1.79999983e+00 -9.82559077e-02  1.70000000e+00 
 4.38023074e-04  1.80000012e+00 -9.82479077e-02  1.70000000e+00 
 4.40023074e-04  1.79999983e+00 -9.82399077e-02  1.70000000e+00 
 4.42023074e-04  1.80000012e+00 -9.82319077e-02  1.70000000e+00 
 4.44023074e-04  1.79999983e+00 -9.82239077e-02  1.70000000e+00 
 4.46023074e-04  1.80000012e+00 -9.82159077e-02  1.70000000e+00 
 4.48023074e-04  1.79999983e+00 -9.82079077e-02  1.70000000e+00 
 4.50023074e-04  1.80000012e+00 -9.81999077e-02  1.70000000e+00 
 4.52023074e-04  1.79999983e+00 -9.81919077e-02  1.70000000e+00 
 4.54023074e-04  1.80000012e+00 -9.81839077e-02  1.70000000e+00 
 4.56023074e-04  1.79999983e+00 -9.81759077e-02  1.70000000e+00 
 4.58023074e-04  1.80000012e+00 -9.81679077e-02  1.70000000e+00 
 4.60023074e-04  1.79999983e+00 -9.81599077e-02  1.70000000e+00 
 4.62023074e-04  1.80000012e+00 -9.81519077e-02  1.70000000e+00 
 4.64023074e-04  1.79999983e+00 -9.81439077e-02  1.70000000e+00 
 4.66023074e-04  1.80000012e+00 -9.81359077e-02  1.70000000e+00 
 4.68023074e-04  1.79999983e+00 -9.81279077e-02  1.70000000e+00 
 4.70023074e-04  1.80000012e+00 -9.81199077e-02  1.70000000e+00 
 4.72023074e-04  1.79999983e+00 -9.81119077e-02  1.70000000e+00 
 4.74023074e-04  1.80000012e+00 -9.81039077e-02  1.70000000e+00 
 4.76023074e-04  1.79999983e+00 -9.80959077e-02  1.70000000e+00 
 4.78023074e-04  1.80000012e+00 -9.80879077e-02  1.70000000e+00 
 4.80023074e-04  1.79999983e+00 -9.80799077e-02  1.70000000e+00 
 4.82023074e-04  1.80000012e+00 -9.80719077e-02  1.70000000e+00 
 4.84023074e-04  1.79999983e+00 -9.80639077e-02  1.70000000e+00 
 4.86023074e-04  1.80000012e+00 -9.80559077e-02  1.70000000e+00 
 4.88023074e-04  1.79999983e+00 -9.80479077e-02  1.70000000e+00 
 4.90023074e-04  1.80000012e+00 -9.80399077e-02  1.70000000e+00 
 4.92023074e-04  1.79999983e+00 -9.80319077e-02  1.70000000e+00 
 4.94023074e-04  1.80000012e+00 -9.80239077e-02  1.70000000e+00 
 4.96023074e-04  1.79999983e+00 -9.80159077e-02  1.70000000e+00 
 4.98023074e-04  1.80000012e+00 -9.80079077e-02  1.70000000e+00 
 5.00023074e-04  1.79999983e+00 -9.79999077e-02  1.70000000e+00 
 5.00100100e-04  1.80000012e+00 -9.79995996e-02  1.70000000e+00 
 5.00100110e-04  1.79996798e+00 -9.79995996e-02  1.70000000e+00 
 5.00100130e-04  1.79998943e+00 -9.79995995e-02  1.70000000e+00 
 5.00100170e-04  1.79995724e+00 -9.79995993e-02  1.70000000e+00 
 5.00100200e-04  1.80025672e+00 -9.79995992e-02  1.70000000e+00 
 5.00100208e-04  1.80033078e+00 -9.79995992e-02  1.70000000e+00 
 5.00100224e-04  1.80020354e+00 -9.79995991e-02  1.70000000e+00 
 5.00100256e-04  1.79984376e+00 -9.79995990e-02  1.70000000e+00 
 5.00100320e-04  1.79870629e+00 -9.79995987e-02  1.70000000e+00 
 5.00100399e-04  1.80433115e+00 -9.79995984e-02  1.70000000e+00 
 5.00100481e-04  1.79748122e+00 -9.79995981e-02  1.70000000e+00 
