 time            v(Q)            v(A)-v(B)       v(B)           
 0.00000000e+00  1.07063102e-08 -1.70000000e+00  1.70000000e+00 
 2.00000000e-11  1.07263882e-08 -1.70000020e+00  1.70000020e+00 
 4.00000000e-11  1.07034599e-08 -1.70000040e+00  1.70000040e+00 
 8.00000000e-11  1.06948642e-08 -1.70000080e+00  1.70000080e+00 
 1.60000000e-10  1.07147202e-08 -1.70000160e+00  1.70000160e+00 
 3.20000000e-10  1.06994129e-08 -1.70000320e+00  1.70000320e+00 
 6.40000000e-10  1.07124983e-08 -1.70000640e+00  1.70000640e+00 
 1.28000000e-09  1.07004627e-08 -1.70001280e+00  1.70001280e+00 
 2.56000000e-09  1.07119910e-08 -1.70002560e+00  1.70002560e+00 
 4.56000000e-09  1.07007346e-08 -1.70004560e+00  1.70004560e+00 
 6.56000000e-09  1.07117814e-08 -1.70006560e+00  1.70006560e+00 
 8.56000000e-09  1.07009422e-08 -1.70008560e+00  1.70008560e+00 
 1.05600000e-08  1.07115759e-08 -1.70010560e+00  1.70010560e+00 
 1.25600000e-08  1.07011458e-08 -1.70012560e+00  1.70012560e+00 
 1.45600000e-08  1.07113745e-08 -1.70014560e+00  1.70014560e+00 
 1.65600000e-08  1.07013450e-08 -1.70016560e+00  1.70016560e+00 
 1.85600000e-08  1.07111773e-08 -1.70018560e+00  1.70018560e+00 
 2.05600000e-08  1.07015401e-08 -1.70020560e+00  1.70020560e+00 
 2.25600000e-08  1.07109843e-08 -1.70022560e+00  1.70022560e+00 
 2.45600000e-08  1.07017309e-08 -1.70024560e+00  1.70024560e+00 
 2.65600000e-08  1.07107956e-08 -1.70026560e+00  1.70026560e+00 
 2.85600000e-08  1.07019176e-08 -1.70028560e+00  1.70028560e+00 
 3.05600000e-08  1.07106111e-08 -1.70030560e+00  1.70030560e+00 
 3.25600000e-08  1.07020999e-08 -1.70032560e+00  1.70032560e+00 
 3.45600000e-08  1.07104307e-08 -1.70034560e+00  1.70034560e+00 
 3.65600000e-08  1.07022782e-08 -1.70036560e+00  1.70036560e+00 
 3.85600000e-08  1.07102547e-08 -1.70038560e+00  1.70038560e+00 
 4.05600000e-08  1.07024522e-08 -1.70040560e+00  1.70040560e+00 
 4.25600000e-08  1.07100827e-08 -1.70042560e+00  1.70042560e+00 
 4.45600000e-08  1.07026221e-08 -1.70044560e+00  1.70044560e+00 
 4.65600000e-08  1.07099149e-08 -1.70046560e+00  1.70046560e+00 
 4.85600000e-08  1.07027878e-08 -1.70048560e+00  1.70048560e+00 
 5.05600000e-08  1.07097512e-08 -1.70050560e+00  1.70050560e+00 
 5.25600000e-08  1.07029493e-08 -1.70052560e+00  1.70052560e+00 
 5.45600000e-08  1.07095917e-08 -1.70054560e+00  1.70054560e+00 
 5.65600000e-08  1.07031069e-08 -1.70056560e+00  1.70056560e+00 
 5.85600000e-08  1.07094362e-08 -1.70058560e+00  1.70058560e+00 
 6.05600000e-08  1.07032603e-08 -1.70060560e+00  1.70060560e+00 
 6.25600000e-08  1.07092847e-08 -1.70062560e+00  1.70062560e+00 
 6.45600000e-08  1.07034099e-08 -1.70064560e+00  1.70064560e+00 
 6.65600000e-08  1.07091372e-08 -1.70066560e+00  1.70066560e+00 
 6.85600000e-08  1.07035554e-08 -1.70068560e+00  1.70068560e+00 
 7.05600000e-08  1.07089936e-08 -1.70070560e+00  1.70070560e+00 
 7.25600000e-08  1.07036970e-08 -1.70072560e+00  1.70072560e+00 
 7.45600000e-08  1.07088540e-08 -1.70074560e+00  1.70074560e+00 
 7.65600000e-08  1.07038348e-08 -1.70076560e+00  1.70076560e+00 
 7.85600000e-08  1.07087180e-08 -1.70078560e+00  1.70078560e+00 
 8.05600000e-08  1.07039688e-08 -1.70080560e+00  1.70080560e+00 
 8.25600000e-08  1.07085860e-08 -1.70082560e+00  1.70082560e+00 
 8.45600000e-08  1.07040990e-08 -1.70084560e+00  1.70084560e+00 
 8.65600000e-08  1.07084575e-08 -1.70086560e+00  1.70086560e+00 
 8.85600000e-08  1.07042257e-08 -1.70088560e+00  1.70088560e+00 
 9.05600000e-08  1.07083328e-08 -1.70090560e+00  1.70090560e+00 
 9.25600000e-08  1.07043486e-08 -1.70092560e+00  1.70092560e+00 
 9.45600000e-08  1.07082116e-08 -1.70094560e+00  1.70094560e+00 
 9.65600000e-08  1.07044680e-08 -1.70096560e+00  1.70096560e+00 
 9.85600000e-08  1.07080940e-08 -1.70098560e+00  1.70098560e+00 
 1.00000000e-07  1.07046060e-08 -1.70100000e+00  1.70100000e+00 
 1.00010000e-07  1.31868327e-05 -1.70100010e+00  1.70100010e+00 
 1.00030000e-07 -1.33780936e-05 -1.70100030e+00  1.70100030e+00 
 1.00070000e-07 -8.42031917e-05 -1.70100070e+00  1.70100070e+00 
 1.00100000e-07  1.07974749e-04 -1.70100100e+00  1.70100100e+00 
 1.00107583e-07  3.45618662e-04 -1.70100108e+00  1.70100108e+00 
 1.00122748e-07  2.66901090e-04 -1.70100123e+00  1.70100123e+00 
 1.00153078e-07 -1.48559657e-04 -1.70100153e+00  1.70100153e+00 
 1.00213738e-07 -2.25769715e-03 -1.70100214e+00  1.70100214e+00 
 1.00290647e-07 -3.12872209e-03 -1.70100291e+00  1.70100291e+00 
 1.00380713e-07  5.20499197e-03 -1.70100381e+00  1.70100381e+00 
 1.00478256e-07 -5.66972245e-03 -1.70100478e+00  1.70100478e+00 
 1.00635164e-07  5.56185716e-03 -1.70100635e+00  1.70100635e+00 
 1.00897167e-07 -5.41491908e-03 -1.70100897e+00  1.70100897e+00 
 1.01292103e-07  5.28447160e-03 -1.70101292e+00  1.70101292e+00 
 1.01989051e-07 -5.20622187e-03 -1.70101989e+00  1.70101989e+00 
 1.03342781e-07  5.16186451e-03 -1.70103343e+00  1.70103343e+00 
 1.05342781e-07 -5.13291106e-03 -1.70105343e+00  1.70105343e+00 
 1.07342781e-07  5.10205421e-03 -1.70107343e+00  1.70107343e+00 
 1.09342781e-07 -5.07138576e-03 -1.70109343e+00  1.70109343e+00 
 1.11342781e-07  5.04012325e-03 -1.70111343e+00  1.70111343e+00 
 1.13342781e-07 -5.00794090e-03 -1.70113343e+00  1.70113343e+00 
 1.15342781e-07  4.97633139e-03 -1.70115343e+00  1.70115343e+00 
 1.17342781e-07 -4.94276456e-03 -1.70117343e+00  1.70117343e+00 
 1.19342781e-07  4.91084384e-03 -1.70119343e+00  1.70119343e+00 
 1.21342781e-07 -4.87601568e-03 -1.70121343e+00  1.70121343e+00 
 1.23342781e-07  4.84381748e-03 -1.70123343e+00  1.70123343e+00 
 1.25342781e-07 -4.80784511e-03 -1.70125343e+00  1.70125343e+00 
 1.27342781e-07  4.77540125e-03 -1.70127343e+00  1.70127343e+00 
 1.29342781e-07 -4.73839599e-03 -1.70129343e+00  1.70129343e+00 
 1.31342781e-07  4.70573657e-03 -1.70131343e+00  1.70131343e+00 
 1.33342781e-07 -4.66780411e-03 -1.70133343e+00  1.70133343e+00 
 1.35342781e-07  4.63495762e-03 -1.70135343e+00  1.70135343e+00 
 1.37342781e-07 -4.59619819e-03 -1.70137343e+00  1.70137343e+00 
 1.39342781e-07  4.56319167e-03 -1.70139343e+00  1.70139343e+00 
 1.41342781e-07 -4.52370025e-03 -1.70141343e+00  1.70141343e+00 
 1.43342781e-07  4.49055939e-03 -1.70143343e+00  1.70143343e+00 
 1.45342781e-07 -4.45042588e-03 -1.70145343e+00  1.70145343e+00 
 1.47342781e-07  4.41717512e-03 -1.70147343e+00  1.70147343e+00 
 1.49342781e-07 -4.37648454e-03 -1.70149343e+00  1.70149343e+00 
 1.51342781e-07  4.34314716e-03 -1.70151343e+00  1.70151343e+00 
 1.53342781e-07 -4.30197982e-03 -1.70153343e+00  1.70153343e+00 
 1.55342781e-07  4.26857806e-03 -1.70155343e+00  1.70155343e+00 
 1.57342781e-07 -4.22700975e-03 -1.70157343e+00  1.70157343e+00 
 1.59342781e-07  4.19356480e-03 -1.70159343e+00  1.70159343e+00 
 1.61342781e-07 -4.15166698e-03 -1.70161343e+00  1.70161343e+00 
 1.63342781e-07  4.11819912e-03 -1.70163343e+00  1.70163343e+00 
 1.65342781e-07 -4.07603908e-03 -1.70165343e+00  1.70165343e+00 
 1.67342781e-07  4.04256771e-03 -1.70167343e+00  1.70167343e+00 
 1.69342781e-07 -4.00020876e-03 -1.70169343e+00  1.70169343e+00 
 1.71342781e-07  3.96675243e-03 -1.70171343e+00  1.70171343e+00 
 1.73342781e-07 -3.92425405e-03 -1.70173343e+00  1.70173343e+00 
 1.75342781e-07  3.89083056e-03 -1.70175343e+00  1.70175343e+00 
 1.77342781e-07 -3.84824859e-03 -1.70177343e+00  1.70177343e+00 
 1.79342781e-07  3.81487496e-03 -1.70179343e+00  1.70179343e+00 
 1.81342781e-07 -3.77226174e-03 -1.70181343e+00  1.70181343e+00 
 1.83342781e-07  3.73895430e-03 -1.70183343e+00  1.70183343e+00 
 1.85342781e-07 -3.69635885e-03 -1.70185343e+00  1.70185343e+00 
 1.87342781e-07  3.66313325e-03 -1.70187343e+00  1.70187343e+00 
 1.89342781e-07 -3.62060140e-03 -1.70189343e+00  1.70189343e+00 
 1.91342781e-07  3.58747264e-03 -1.70191343e+00  1.70191343e+00 
 1.93342781e-07 -3.54504719e-03 -1.70193343e+00  1.70193343e+00 
 1.95342781e-07  3.51202964e-03 -1.70195343e+00  1.70195343e+00 
 1.97342781e-07 -3.46975052e-03 -1.70197343e+00  1.70197343e+00 
 1.99342781e-07  3.43685796e-03 -1.70199343e+00  1.70199343e+00 
 2.01342781e-07 -3.39476233e-03 -1.70201343e+00  1.70201343e+00 
 2.03342781e-07  3.36200796e-03 -1.70203343e+00  1.70203343e+00 
 2.05342781e-07 -3.32013037e-03 -1.70205343e+00  1.70205343e+00 
 2.07342781e-07  3.28752685e-03 -1.70207343e+00  1.70207343e+00 
 2.09342781e-07 -3.24589937e-03 -1.70209343e+00  1.70209343e+00 
 2.11342781e-07  3.21345878e-03 -1.70211343e+00  1.70211343e+00 
 2.13342781e-07 -3.17211112e-03 -1.70213343e+00  1.70213343e+00 
 2.15342781e-07  3.13984506e-03 -1.70215343e+00  1.70215343e+00 
 2.17342781e-07 -3.09880467e-03 -1.70217343e+00  1.70217343e+00 
 2.19342781e-07  3.06672420e-03 -1.70219343e+00  1.70219343e+00 
 2.21342781e-07 -3.02601643e-03 -1.70221343e+00  1.70221343e+00 
 2.23342781e-07  2.99413213e-03 -1.70223343e+00  1.70223343e+00 
 2.25342781e-07 -2.95378028e-03 -1.70225343e+00  1.70225343e+00 
 2.27342781e-07  2.92210225e-03 -1.70227343e+00  1.70227343e+00 
 2.29342781e-07 -2.88212775e-03 -1.70229343e+00  1.70229343e+00 
 2.31342781e-07  2.85066562e-03 -1.70231343e+00  1.70231343e+00 
 2.33342781e-07 -2.81108804e-03 -1.70233343e+00  1.70233343e+00 
 2.35342781e-07  2.77985098e-03 -1.70235343e+00  1.70235343e+00 
 2.37342781e-07 -2.74068823e-03 -1.70237343e+00  1.70237343e+00 
 2.39342781e-07  2.70968497e-03 -1.70239343e+00  1.70239343e+00 
 2.41342781e-07 -2.67095330e-03 -1.70241343e+00  1.70241343e+00 
 2.43342781e-07  2.64019213e-03 -1.70243343e+00  1.70243343e+00 
 2.45342781e-07 -2.60190628e-03 -1.70245343e+00  1.70245343e+00 
 2.47342781e-07  2.57139507e-03 -1.70247343e+00  1.70247343e+00 
 2.49342781e-07 -2.53356834e-03 -1.70249343e+00  1.70249343e+00 
 2.51342781e-07  2.50331454e-03 -1.70251343e+00  1.70251343e+00 
 2.53342781e-07 -2.46595884e-03 -1.70253343e+00  1.70253343e+00 
 2.55342781e-07  2.43596952e-03 -1.70255343e+00  1.70255343e+00 
 2.57342781e-07 -2.39909549e-03 -1.70257343e+00  1.70257343e+00 
 2.59342781e-07  2.36937730e-03 -1.70259343e+00  1.70259343e+00 
 2.61342781e-07 -2.33299438e-03 -1.70261343e+00  1.70261343e+00 
 2.63342781e-07  2.30355359e-03 -1.70263343e+00  1.70263343e+00 
 2.65342781e-07 -2.26767005e-03 -1.70265343e+00  1.70265343e+00 
 2.67342781e-07  2.23851256e-03 -1.70267343e+00  1.70267343e+00 
 2.69342781e-07 -2.20313562e-03 -1.70269343e+00  1.70269343e+00 
 2.71342781e-07  2.17426697e-03 -1.70271343e+00  1.70271343e+00 
 2.73342781e-07 -2.13940283e-03 -1.70273343e+00  1.70273343e+00 
 2.75342781e-07  2.11082819e-03 -1.70275343e+00  1.70275343e+00 
 2.77342781e-07 -2.07648209e-03 -1.70277343e+00  1.70277343e+00 
 2.79342781e-07  2.04820630e-03 -1.70279343e+00  1.70279343e+00 
 2.81342781e-07 -2.01438260e-03 -1.70281343e+00  1.70281343e+00 
 2.83342781e-07  1.98641014e-03 -1.70283343e+00  1.70283343e+00 
 2.85342781e-07 -1.95311237e-03 -1.70285343e+00  1.70285343e+00 
 2.87342781e-07  1.92544740e-03 -1.70287343e+00  1.70287343e+00 
 2.89342781e-07 -1.89267829e-03 -1.70289343e+00  1.70289343e+00 
 2.91342781e-07  1.86532466e-03 -1.70291343e+00  1.70291343e+00 
 2.93342781e-07 -1.83309216e-03 -1.70293343e+00  1.70293343e+00 
 2.95342781e-07  1.80604570e-03 -1.70295343e+00  1.70295343e+00 
 2.97342781e-07 -1.77434683e-03 -1.70297343e+00  1.70297343e+00 
 2.99342781e-07  1.74761884e-03 -1.70299343e+00  1.70299343e+00 
 3.01342781e-07 -1.71645247e-03 -1.70301343e+00  1.70301343e+00 
 3.03342781e-07  1.69004581e-03 -1.70303343e+00  1.70303343e+00 
 3.05342781e-07 -1.65941198e-03 -1.70305343e+00  1.70305343e+00 
 3.07342781e-07  1.63332925e-03 -1.70307343e+00  1.70307343e+00 
 3.09342781e-07 -1.60322744e-03 -1.70309343e+00  1.70309343e+00 
 3.11342781e-07  1.57747096e-03 -1.70311343e+00  1.70311343e+00 
 3.13342781e-07 -1.54790013e-03 -1.70313343e+00  1.70313343e+00 
 3.15342781e-07  1.52247194e-03 -1.70315343e+00  1.70315343e+00 
 3.17342781e-07 -1.49343058e-03 -1.70317343e+00  1.70317343e+00 
 3.19342781e-07  1.46833249e-03 -1.70319343e+00  1.70319343e+00 
 3.21342781e-07 -1.43981864e-03 -1.70321343e+00  1.70321343e+00 
 3.23342781e-07  1.41505219e-03 -1.70323343e+00  1.70323343e+00 
 3.25342781e-07 -1.38706348e-03 -1.70325343e+00  1.70325343e+00 
 3.27342781e-07  1.36262996e-03 -1.70327343e+00  1.70327343e+00 
 3.29342781e-07 -1.33516362e-03 -1.70329343e+00  1.70329343e+00 
 3.31342781e-07  1.31106411e-03 -1.70331343e+00  1.70331343e+00 
 3.33342781e-07 -1.28411704e-03 -1.70333343e+00  1.70333343e+00 
 3.35342781e-07  1.26035237e-03 -1.70335343e+00  1.70335343e+00 
 3.37342781e-07 -1.23392113e-03 -1.70337343e+00  1.70337343e+00 
 3.39342781e-07  1.21049192e-03 -1.70339343e+00  1.70339343e+00 
 3.41342781e-07 -1.18457276e-03 -1.70341343e+00  1.70341343e+00 
 3.43342781e-07  1.16147942e-03 -1.70343343e+00  1.70343343e+00 
 3.45342781e-07 -1.13606832e-03 -1.70345343e+00  1.70345343e+00 
 3.47342781e-07  1.11331106e-03 -1.70347343e+00  1.70347343e+00 
 3.49342781e-07 -1.08840374e-03 -1.70349343e+00  1.70349343e+00 
 3.51342781e-07  1.06598257e-03 -1.70351343e+00  1.70351343e+00 
 3.53342781e-07 -1.04157452e-03 -1.70353343e+00  1.70353343e+00 
 3.55342781e-07  1.01948925e-03 -1.70355343e+00  1.70355343e+00 
 3.57342781e-07 -9.95575751e-04 -1.70357343e+00  1.70357343e+00 
 3.59342781e-07  9.73826014e-04 -1.70359343e+00  1.70359343e+00 
 3.61342781e-07 -9.50402152e-04 -1.70361343e+00  1.70361343e+00 
 3.63342781e-07  9.28987410e-04 -1.70363343e+00  1.70363343e+00 
 3.65342781e-07 -9.06048090e-04 -1.70365343e+00  1.70365343e+00 
 3.67342781e-07  8.84967634e-04 -1.70367343e+00  1.70367343e+00 
 3.69342781e-07 -8.62507604e-04 -1.70369343e+00  1.70369343e+00 
 3.71342781e-07  8.41760564e-04 -1.70371343e+00  1.70371343e+00 
 3.73342781e-07 -8.19774431e-04 -1.70373343e+00  1.70373343e+00 
 3.75342781e-07  7.99359780e-04 -1.70375343e+00  1.70375343e+00 
 3.77342781e-07 -7.77842022e-04 -1.70377343e+00  1.70377343e+00 
 3.79342781e-07  7.57758585e-04 -1.70379343e+00  1.70379343e+00 
 3.81342781e-07 -7.36703568e-04 -1.70381343e+00  1.70381343e+00 
 3.83342781e-07  7.16950030e-04 -1.70383343e+00  1.70383343e+00 
 3.85342781e-07 -6.96352020e-04 -1.70385343e+00  1.70385343e+00 
 3.87342781e-07  6.76926926e-04 -1.70387343e+00  1.70387343e+00 
 3.89342781e-07 -6.56780101e-04 -1.70389343e+00  1.70389343e+00 
 3.91342781e-07  6.37681871e-04 -1.70391343e+00  1.70391343e+00 
 3.93342781e-07 -6.17980335e-04 -1.70393343e+00  1.70393343e+00 
 3.95342781e-07  5.99207262e-04 -1.70395343e+00  1.70395343e+00 
 3.97342781e-07 -5.79945053e-04 -1.70397343e+00  1.70397343e+00 
 3.99342781e-07  5.61495315e-04 -1.70399343e+00  1.70399343e+00 
 4.01342781e-07 -5.42666416e-04 -1.70401343e+00  1.70401343e+00 
 4.03342781e-07  5.24538078e-04 -1.70403343e+00  1.70403343e+00 
 4.05342781e-07 -5.06136430e-04 -1.70405343e+00  1.70405343e+00 
 4.07342781e-07  4.88322185e-04 -1.70407343e+00  1.70407343e+00 
 4.09342781e-07 -4.70347854e-04 -1.70409343e+00  1.70409343e+00 
 4.11342781e-07  4.52849541e-04 -1.70411343e+00  1.70411343e+00 
 4.13342781e-07 -4.35289829e-04 -1.70413343e+00  1.70413343e+00 
 4.15342781e-07  4.18106364e-04 -1.70415343e+00  1.70415343e+00 
 4.17342781e-07 -4.00955160e-04 -1.70417343e+00  1.70417343e+00 
 4.19342781e-07  3.84084235e-04 -1.70419343e+00  1.70419343e+00 
 4.21342781e-07 -3.67335415e-04 -1.70421343e+00  1.70421343e+00 
 4.23342781e-07  3.50774636e-04 -1.70423343e+00  1.70423343e+00 
 4.25342781e-07 -3.34422070e-04 -1.70425343e+00  1.70425343e+00 
 4.27342781e-07  3.18168963e-04 -1.70427343e+00  1.70427343e+00 
 4.29342781e-07 -3.02206522e-04 -1.70429343e+00  1.70429343e+00 
 4.31342781e-07  2.86258534e-04 -1.70431343e+00  1.70431343e+00 
 4.33342781e-07 -2.70680095e-04 -1.70433343e+00  1.70433343e+00 
 4.35342781e-07  2.55034605e-04 -1.70435343e+00  1.70435343e+00 
 4.37342781e-07 -2.39834058e-04 -1.70437343e+00  1.70437343e+00 
 4.39342781e-07  2.24488373e-04 -1.70439343e+00  1.70439343e+00 
 4.41342781e-07 -2.09659625e-04 -1.70441343e+00  1.70441343e+00 
 4.43342781e-07  1.94610994e-04 -1.70443343e+00  1.70443343e+00 
 4.45342781e-07 -1.80147976e-04 -1.70445343e+00  1.70445343e+00 
 4.47342781e-07  1.65393587e-04 -1.70447343e+00  1.70447343e+00 
 4.49342781e-07 -1.51290254e-04 -1.70449343e+00  1.70449343e+00 
 4.51342781e-07  1.36827241e-04 -1.70451343e+00  1.70451343e+00 
 4.53342781e-07 -1.23077583e-04 -1.70453343e+00  1.70453343e+00 
 4.55342781e-07  1.08903030e-04 -1.70455343e+00  1.70455343e+00 
 4.57342781e-07 -9.55010705e-05 -1.70457343e+00  1.70457343e+00 
 4.59342781e-07  8.16120149e-05 -1.70459343e+00  1.70459343e+00 
 4.61342781e-07 -6.85518146e-05 -1.70461343e+00  1.70461343e+00 
 4.63342781e-07  5.49452511e-05 -1.70463343e+00  1.70463343e+00 
 4.65342781e-07 -4.22209137e-05 -1.70465343e+00  1.70465343e+00 
 4.67342781e-07  2.88937981e-05 -1.70467343e+00  1.70467343e+00 
 4.69342781e-07 -1.64994723e-05 -1.70469343e+00  1.70469343e+00 
 4.71342781e-07  3.44836070e-06 -1.70471343e+00  1.70471343e+00 
 4.73342781e-07  8.62117047e-06 -1.70473343e+00  1.70473343e+00 
 4.75342781e-07 -2.13992802e-05 -1.70475343e+00  1.70475343e+00 
 4.77342781e-07  3.31503714e-05 -1.70477343e+00  1.70477343e+00 
 4.79342781e-07 -4.56583516e-05 -1.70479343e+00  1.70479343e+00 
 4.81342781e-07  5.70967035e-05 -1.70481343e+00  1.70481343e+00 
 4.83342781e-07 -6.93377206e-05 -1.70483343e+00  1.70483343e+00 
 4.85342781e-07  8.04689789e-05 -1.70485343e+00  1.70485343e+00 
 4.87342781e-07 -9.24462219e-05 -1.70487343e+00  1.70487343e+00 
 4.89342781e-07  1.03275976e-04 -1.70489343e+00  1.70489343e+00 
 4.91342781e-07 -1.14992654e-04 -1.70491343e+00  1.70491343e+00 
 4.93342781e-07  1.25526435e-04 -1.70493343e+00  1.70493343e+00 
 4.95342781e-07 -1.36985772e-04 -1.70495343e+00  1.70495343e+00 
 4.97342781e-07  1.47229052e-04 -1.70497343e+00  1.70497343e+00 
 4.99342781e-07 -1.58434290e-04 -1.70499343e+00  1.70499343e+00 
 5.00000000e-07  1.89455488e-04 -1.70500000e+00  1.70500000e+00 
 5.00049168e-07 -2.03195932e-04  9.49995083e-02  1.70500049e+00 
 5.00147503e-07  6.34975799e-03  9.49985250e-02  1.70500148e+00 
 5.00227066e-07 -9.64105541e-03  9.49977293e-02  1.70500227e+00 
 5.00321836e-07  9.22611143e-03  9.49967816e-02  1.70500322e+00 
 5.00511374e-07 -8.56944552e-03  9.49948863e-02  1.70500511e+00 
 5.00698037e-07  7.80709769e-03  9.49930196e-02  1.70500698e+00 
 5.01071361e-07 -7.38974006e-03  9.49892864e-02  1.70501071e+00 
 5.01603175e-07  7.11682823e-03  9.49839682e-02  1.70501603e+00 
 5.02525265e-07 -6.93860896e-03  9.49747474e-02  1.70502525e+00 
 5.04177934e-07  6.86066502e-03  9.49582207e-02  1.70504178e+00 
 5.06177934e-07 -6.77116833e-03  9.49382207e-02  1.70506178e+00 
 5.08177934e-07  6.70965858e-03  9.49182207e-02  1.70508178e+00 
 5.10177934e-07 -6.62034530e-03  9.48982207e-02  1.70510178e+00 
 5.12177934e-07  6.55954693e-03  9.48782207e-02  1.70512178e+00 
 5.14177934e-07 -6.47055677e-03  9.48582207e-02  1.70514178e+00 
 5.16177934e-07  6.41041523e-03  9.48382207e-02  1.70516178e+00 
 5.18177934e-07 -6.32191245e-03  9.48182207e-02  1.70518178e+00 
 5.20177934e-07  6.26242797e-03  9.47982207e-02  1.70520178e+00 
 5.22177934e-07 -6.17455984e-03  9.47782207e-02  1.70522178e+00 
 5.24177934e-07  6.11573475e-03  9.47582207e-02  1.70524178e+00 
 5.26177934e-07 -6.02863287e-03  9.47382207e-02  1.70526178e+00 
 5.28177934e-07  5.97047082e-03  9.47182207e-02  1.70528178e+00 
 5.30177934e-07 -5.88425225e-03  9.46982207e-02  1.70530178e+00 
 5.32177934e-07  5.82675796e-03  9.46782207e-02  1.70532178e+00 
 5.34177934e-07 -5.74152637e-03  9.46582207e-02  1.70534178e+00 
 5.36177934e-07  5.68470546e-03  9.46382207e-02  1.70536178e+00 
 5.38177934e-07 -5.60055214e-03  9.46182207e-02  1.70538178e+00 
 5.40177934e-07  5.54441093e-03  9.45982207e-02  1.70540178e+00 
 5.42177934e-07 -5.46141581e-03  9.45782207e-02  1.70542178e+00 
 5.44177934e-07  5.40596109e-03  9.45582207e-02  1.70544178e+00 
 5.46177934e-07 -5.32419364e-03  9.45382207e-02  1.70546178e+00 
 5.48177934e-07  5.26943256e-03  9.45182207e-02  1.70548178e+00 
 5.50177934e-07 -5.18895265e-03  9.44982207e-02  1.70550178e+00 
