 time            v(Q)            v(A)-v(B)       v(B)           
 0.00000000e+00  1.79999999e+00  9.00000000e-01  0.00000000e+00 
 1.00000000e-09  1.79999999e+00  9.00000008e-01  0.00000000e+00 
 2.00000000e-09  1.79999999e+00  9.00000016e-01  0.00000000e+00 
 4.00000000e-09  1.79999999e+00  9.00000032e-01  0.00000000e+00 
 8.00000000e-09  1.79999999e+00  9.00000064e-01  0.00000000e+00 
 1.60000000e-08  1.79999999e+00  9.00000128e-01  0.00000000e+00 
 3.20000000e-08  1.79999999e+00  9.00000256e-01  0.00000000e+00 
 6.40000000e-08  1.79999999e+00  9.00000512e-01  0.00000000e+00 
 1.00000000e-07  1.79999999e+00  9.00000800e-01  0.00000000e+00 
 1.00010000e-07  1.80001125e+00  9.00000800e-01  0.00000000e+00 
 1.00030000e-07  1.79998832e+00  9.00000800e-01  0.00000000e+00 
 1.00070000e-07  1.79993738e+00  9.00000801e-01  0.00000000e+00 
 1.00100000e-07  1.80005236e+00  9.00000801e-01  0.00000000e+00 
 1.00107623e-07  1.80028127e+00  9.00000801e-01  0.00000000e+00 
 1.00122868e-07  1.80017600e+00  9.00000801e-01  0.00000000e+00 
 1.00153359e-07  1.80015928e+00  9.00000801e-01  0.00000000e+00 
 1.00214340e-07  1.79752946e+00  9.00000802e-01  0.00000000e+00 
 1.00292262e-07  1.77128067e+00  9.00000802e-01  0.00000000e+00 
 1.00379404e-07  1.81524757e+00  9.00000803e-01  0.00000000e+00 
 1.00475303e-07  1.78924806e+00  9.00000804e-01  0.00000000e+00 
 1.00637677e-07  1.80753328e+00  9.00000805e-01  0.00000000e+00 
 1.00865415e-07  1.79355976e+00  9.00000807e-01  0.00000000e+00 
 1.01233047e-07  1.80529250e+00  9.00000810e-01  0.00000000e+00 
 1.01819708e-07  1.79496531e+00  9.00000815e-01  0.00000000e+00 
 1.02872632e-07  1.80457903e+00  9.00000823e-01  0.00000000e+00 
 1.04978479e-07  1.79538018e+00  9.00000840e-01  0.00000000e+00 
 1.09190174e-07  1.80440199e+00  9.00000874e-01  0.00000000e+00 
 1.17613564e-07  1.79548198e+00  9.00000941e-01  0.00000000e+00 
 1.34460343e-07  1.80435859e+00  9.00001076e-01  0.00000000e+00 
 1.68153902e-07  1.79550729e+00  9.00001345e-01  0.00000000e+00 
 2.35541019e-07  1.80434773e+00  9.00001884e-01  0.00000000e+00 
 3.70315253e-07  1.79551360e+00  9.00002963e-01  0.00000000e+00 
 6.39863722e-07  1.80434500e+00  9.00005119e-01  0.00000000e+00 
 1.17896066e-06  1.79551518e+00  9.00009432e-01  0.00000000e+00 
 2.25715453e-06  1.80434431e+00  9.00018057e-01  0.00000000e+00 
 4.25715453e-06  1.79551558e+00  9.00034057e-01  0.00000000e+00 
 6.25715453e-06  1.80434406e+00  9.00050057e-01  0.00000000e+00 
 8.25715453e-06  1.79551540e+00  9.00066057e-01  0.00000000e+00 
 1.02571545e-05  1.80434380e+00  9.00082057e-01  0.00000000e+00 
 1.22571545e-05  1.79551568e+00  9.00098057e-01  0.00000000e+00 
 1.42571545e-05  1.80434354e+00  9.00114057e-01  0.00000000e+00 
 1.62571545e-05  1.79551595e+00  9.00130057e-01  0.00000000e+00 
 1.82571545e-05  1.80434327e+00  9.00146057e-01  0.00000000e+00 
 2.02571545e-05  1.79551623e+00  9.00162057e-01  0.00000000e+00 
 2.22571545e-05  1.80434301e+00  9.00178057e-01  0.00000000e+00 
 2.42571545e-05  1.79551650e+00  9.00194057e-01  0.00000000e+00 
 2.62571545e-05  1.80434274e+00  9.00210057e-01  0.00000000e+00 
 2.82571545e-05  1.79551678e+00  9.00226057e-01  0.00000000e+00 
 3.02571545e-05  1.80434248e+00  9.00242057e-01  0.00000000e+00 
 3.22571545e-05  1.79551705e+00  9.00258057e-01  0.00000000e+00 
 3.42571545e-05  1.80434222e+00  9.00274057e-01  0.00000000e+00 
 3.62571545e-05  1.79551733e+00  9.00290057e-01  0.00000000e+00 
 3.82571545e-05  1.80434195e+00  9.00306057e-01  0.00000000e+00 
 4.02571545e-05  1.79551760e+00  9.00322057e-01  0.00000000e+00 
 4.22571545e-05  1.80434169e+00  9.00338057e-01  0.00000000e+00 
 4.42571545e-05  1.79551788e+00  9.00354057e-01  0.00000000e+00 
 4.62571545e-05  1.80434142e+00  9.00370057e-01  0.00000000e+00 
 4.82571545e-05  1.79551815e+00  9.00386057e-01  0.00000000e+00 
 5.02571545e-05  1.80434116e+00  9.00402057e-01  0.00000000e+00 
 5.22571545e-05  1.79551843e+00  9.00418057e-01  0.00000000e+00 
 5.42571545e-05  1.80434090e+00  9.00434057e-01  0.00000000e+00 
 5.62571545e-05  1.79551870e+00  9.00450057e-01  0.00000000e+00 
 5.82571545e-05  1.80434063e+00  9.00466057e-01  0.00000000e+00 
 6.02571545e-05  1.79551898e+00  9.00482057e-01  0.00000000e+00 
 6.22571545e-05  1.80434037e+00  9.00498057e-01  0.00000000e+00 
 6.42571545e-05  1.79551925e+00  9.00514057e-01  0.00000000e+00 
 6.62571545e-05  1.80434010e+00  9.00530057e-01  0.00000000e+00 
 6.82571545e-05  1.79551953e+00  9.00546057e-01  0.00000000e+00 
 7.02571545e-05  1.80433984e+00  9.00562057e-01  0.00000000e+00 
 7.22571545e-05  1.79551980e+00  9.00578057e-01  0.00000000e+00 
 7.42571545e-05  1.80433958e+00  9.00594057e-01  0.00000000e+00 
 7.62571545e-05  1.79552008e+00  9.00610057e-01  0.00000000e+00 
 7.82571545e-05  1.80433931e+00  9.00626057e-01  0.00000000e+00 
 8.02571545e-05  1.79552036e+00  9.00642057e-01  0.00000000e+00 
 8.22571545e-05  1.80433905e+00  9.00658057e-01  0.00000000e+00 
 8.42571545e-05  1.79552063e+00  9.00674057e-01  0.00000000e+00 
 8.62571545e-05  1.80433878e+00  9.00690057e-01  0.00000000e+00 
 8.82571545e-05  1.79552137e+00  9.00706057e-01  0.00000000e+00 
 9.02571545e-05  1.80433852e+00  9.00722057e-01  0.00000000e+00 
 9.22571545e-05  1.79552164e+00  9.00738057e-01  0.00000000e+00 
 9.42571545e-05  1.80433826e+00  9.00754057e-01  0.00000000e+00 
 9.62571545e-05  1.79552146e+00  9.00770057e-01  0.00000000e+00 
 9.82571545e-05  1.80433799e+00  9.00786057e-01  0.00000000e+00 
 1.00257155e-04  1.79552173e+00  9.00802057e-01  0.00000000e+00 
 1.02257155e-04  1.80433773e+00  9.00818057e-01  0.00000000e+00 
 1.04257155e-04  1.79552201e+00  9.00834057e-01  0.00000000e+00 
 1.06257155e-04  1.80433746e+00  9.00850057e-01  0.00000000e+00 
 1.08257155e-04  1.79552228e+00  9.00866057e-01  0.00000000e+00 
 1.10257155e-04  1.80433720e+00  9.00882057e-01  0.00000000e+00 
 1.12257155e-04  1.79552256e+00  9.00898057e-01  0.00000000e+00 
 1.14257155e-04  1.80433694e+00  9.00914057e-01  0.00000000e+00 
 1.16257155e-04  1.79552283e+00  9.00930057e-01  0.00000000e+00 
 1.18257155e-04  1.80433667e+00  9.00946057e-01  0.00000000e+00 
 1.20257155e-04  1.79552311e+00  9.00962057e-01  0.00000000e+00 
 1.22257155e-04  1.80433641e+00  9.00978057e-01  0.00000000e+00 
 1.24257155e-04  1.79552338e+00  9.00994057e-01  0.00000000e+00 
 1.26257155e-04  1.80433615e+00  9.01010057e-01  0.00000000e+00 
 1.28257155e-04  1.79552366e+00  9.01026057e-01  0.00000000e+00 
 1.30257155e-04  1.80433588e+00  9.01042057e-01  0.00000000e+00 
 1.32257155e-04  1.79552393e+00  9.01058057e-01  0.00000000e+00 
 1.34257155e-04  1.80433562e+00  9.01074057e-01  0.00000000e+00 
 1.36257155e-04  1.79552421e+00  9.01090057e-01  0.00000000e+00 
 1.38257155e-04  1.80433535e+00  9.01106057e-01  0.00000000e+00 
 1.40257155e-04  1.79552448e+00  9.01122057e-01  0.00000000e+00 
 1.42257155e-04  1.80433509e+00  9.01138057e-01  0.00000000e+00 
 1.44257155e-04  1.79552476e+00  9.01154057e-01  0.00000000e+00 
 1.46257155e-04  1.80433483e+00  9.01170057e-01  0.00000000e+00 
 1.48257155e-04  1.79552503e+00  9.01186057e-01  0.00000000e+00 
 1.50257155e-04  1.80433456e+00  9.01202057e-01  0.00000000e+00 
 1.52257155e-04  1.79552531e+00  9.01218057e-01  0.00000000e+00 
 1.54257155e-04  1.80433430e+00  9.01234057e-01  0.00000000e+00 
 1.56257155e-04  1.79552558e+00  9.01250057e-01  0.00000000e+00 
 1.58257155e-04  1.80433403e+00  9.01266057e-01  0.00000000e+00 
 1.60257155e-04  1.79552586e+00  9.01282057e-01  0.00000000e+00 
 1.62257155e-04  1.80433377e+00  9.01298057e-01  0.00000000e+00 
 1.64257155e-04  1.79552613e+00  9.01314057e-01  0.00000000e+00 
 1.66257155e-04  1.80433351e+00  9.01330057e-01  0.00000000e+00 
 1.68257155e-04  1.79552641e+00  9.01346057e-01  0.00000000e+00 
 1.70257155e-04  1.80433324e+00  9.01362057e-01  0.00000000e+00 
 1.72257155e-04  1.79552668e+00  9.01378057e-01  0.00000000e+00 
 1.74257155e-04  1.80433298e+00  9.01394057e-01  0.00000000e+00 
 1.76257155e-04  1.79552696e+00  9.01410057e-01  0.00000000e+00 
 1.78257155e-04  1.80433271e+00  9.01426057e-01  0.00000000e+00 
 1.80257155e-04  1.79552723e+00  9.01442057e-01  0.00000000e+00 
 1.82257155e-04  1.80433245e+00  9.01458057e-01  0.00000000e+00 
 1.84257155e-04  1.79552751e+00  9.01474057e-01  0.00000000e+00 
 1.86257155e-04  1.80433219e+00  9.01490057e-01  0.00000000e+00 
 1.88257155e-04  1.79552778e+00  9.01506057e-01  0.00000000e+00 
 1.90257155e-04  1.80433192e+00  9.01522057e-01  0.00000000e+00 
 1.92257155e-04  1.79552806e+00  9.01538057e-01  0.00000000e+00 
 1.94257155e-04  1.80433166e+00  9.01554057e-01  0.00000000e+00 
 1.96257155e-04  1.79552833e+00  9.01570057e-01  0.00000000e+00 
 1.98257155e-04  1.80433140e+00  9.01586057e-01  0.00000000e+00 
 2.00000000e-04  1.79552879e+00  9.01600000e-01  0.00000000e+00 
 2.00200000e-04  1.80001397e+00 -9.83984000e-02  1.00000000e+00 
 2.00600000e-04  6.02485684e-05 -9.83952000e-02  1.00000000e+00 
 2.00929564e-04 -5.38757850e-05 -9.83925635e-02  1.00000000e+00 
 2.01293944e-04  5.38678290e-05 -9.83896484e-02  1.00000000e+00 
 2.01878069e-04 -5.38547933e-05 -9.83849754e-02  1.00000000e+00 
 2.02653459e-04  5.38602167e-05 -9.83787723e-02  1.00000000e+00 
 2.04204240e-04 -5.38496556e-05 -9.83663661e-02  1.00000000e+00 
 2.06204240e-04  5.38574420e-05 -9.83503661e-02  1.00000000e+00 
 2.08204240e-04 -5.38468548e-05 -9.83343661e-02  1.00000000e+00 
 2.10204240e-04  5.38550580e-05 -9.83183661e-02  1.00000000e+00 
 2.12204240e-04 -5.38440628e-05 -9.83023661e-02  1.00000000e+00 
 2.14204240e-04  5.38526656e-05 -9.82863661e-02  1.00000000e+00 
 2.16204240e-04 -5.38412790e-05 -9.82703661e-02  1.00000000e+00 
 2.18204240e-04  5.38502654e-05 -9.82543661e-02  1.00000000e+00 
 2.20204240e-04 -5.38385027e-05 -9.82383661e-02  1.00000000e+00 
 2.22204240e-04  5.38478579e-05 -9.82223661e-02  1.00000000e+00 
 2.24204240e-04 -5.38357335e-05 -9.82063661e-02  1.00000000e+00 
 2.26204240e-04  5.38454436e-05 -9.81903661e-02  1.00000000e+00 
 2.28204240e-04 -5.38329709e-05 -9.81743661e-02  1.00000000e+00 
 2.30204240e-04  5.38430229e-05 -9.81583661e-02  1.00000000e+00 
 2.32204240e-04 -5.38302146e-05 -9.81423661e-02  1.00000000e+00 
 2.34204240e-04  5.38405962e-05 -9.81263661e-02  1.00000000e+00 
 2.36204240e-04 -5.38274640e-05 -9.81103661e-02  1.00000000e+00 
 2.38204240e-04  5.38381639e-05 -9.80943661e-02  1.00000000e+00 
 2.40204240e-04 -5.38247191e-05 -9.80783661e-02  1.00000000e+00 
 2.42204240e-04  5.38357263e-05 -9.80623661e-02  1.00000000e+00 
 2.44204240e-04 -5.38219793e-05 -9.80463661e-02  1.00000000e+00 
 2.46204240e-04  5.38332836e-05 -9.80303661e-02  1.00000000e+00 
 2.48204240e-04 -5.38192445e-05 -9.80143661e-02  1.00000000e+00 
 2.50204240e-04  5.38308362e-05 -9.79983661e-02  1.00000000e+00 
 2.52204240e-04 -5.38165144e-05 -9.79823661e-02  1.00000000e+00 
 2.54204240e-04  5.38283842e-05 -9.79663661e-02  1.00000000e+00 
 2.56204240e-04 -5.38137887e-05 -9.79503661e-02  1.00000000e+00 
 2.58204240e-04  5.38259279e-05 -9.79343661e-02  1.00000000e+00 
 2.60204240e-04 -5.38110673e-05 -9.79183661e-02  1.00000000e+00 
 2.62204240e-04  5.38234675e-05 -9.79023661e-02  1.00000000e+00 
 2.64204240e-04 -5.38083500e-05 -9.78863661e-02  1.00000000e+00 
 2.66204240e-04  5.38210031e-05 -9.78703661e-02  1.00000000e+00 
 2.68204240e-04 -5.38056366e-05 -9.78543661e-02  1.00000000e+00 
 2.70204240e-04  5.38185350e-05 -9.78383661e-02  1.00000000e+00 
 2.72204240e-04 -5.38029268e-05 -9.78223661e-02  1.00000000e+00 
 2.74204240e-04  5.38160633e-05 -9.78063661e-02  1.00000000e+00 
 2.76204240e-04 -5.38002207e-05 -9.77903661e-02  1.00000000e+00 
 2.78204240e-04  5.38135882e-05 -9.77743661e-02  1.00000000e+00 
 2.80204240e-04 -5.37975179e-05 -9.77583661e-02  1.00000000e+00 
 2.82204240e-04  5.38111098e-05 -9.77423661e-02  1.00000000e+00 
 2.84204240e-04 -5.37948185e-05 -9.77263661e-02  1.00000000e+00 
 2.86204240e-04  5.38086283e-05 -9.77103661e-02  1.00000000e+00 
 2.88204240e-04 -5.37921222e-05 -9.76943661e-02  1.00000000e+00 
 2.90204240e-04  5.38061436e-05 -9.76783661e-02  1.00000000e+00 
 2.92204240e-04 -5.37894289e-05 -9.76623661e-02  1.00000000e+00 
 2.94204240e-04  5.38036561e-05 -9.76463661e-02  1.00000000e+00 
 2.96204240e-04 -5.37867385e-05 -9.76303661e-02  1.00000000e+00 
 2.98204240e-04  5.38011658e-05 -9.76143661e-02  1.00000000e+00 
 3.00204240e-04 -5.37840510e-05 -9.75983661e-02  1.00000000e+00 
 3.02204240e-04  5.37986727e-05 -9.75823661e-02  1.00000000e+00 
 3.04204240e-04 -5.37813662e-05 -9.75663661e-02  1.00000000e+00 
 3.06204240e-04  5.37961770e-05 -9.75503661e-02  1.00000000e+00 
 3.08204240e-04 -5.37786840e-05 -9.75343661e-02  1.00000000e+00 
 3.10204240e-04  5.37936788e-05 -9.75183661e-02  1.00000000e+00 
 3.12204240e-04 -5.37760043e-05 -9.75023661e-02  1.00000000e+00 
 3.14204240e-04  5.37911782e-05 -9.74863661e-02  1.00000000e+00 
 3.16204240e-04 -5.37733271e-05 -9.74703661e-02  1.00000000e+00 
 3.18204240e-04  5.37886752e-05 -9.74543661e-02  1.00000000e+00 
 3.20204240e-04 -5.37706522e-05 -9.74383661e-02  1.00000000e+00 
 3.22204240e-04  5.37861700e-05 -9.74223661e-02  1.00000000e+00 
 3.24204240e-04 -5.37679796e-05 -9.74063661e-02  1.00000000e+00 
 3.26204240e-04  5.37836626e-05 -9.73903661e-02  1.00000000e+00 
 3.28204240e-04 -5.37653093e-05 -9.73743661e-02  1.00000000e+00 
 3.30204240e-04  5.37811530e-05 -9.73583661e-02  1.00000000e+00 
 3.32204240e-04 -5.37626411e-05 -9.73423661e-02  1.00000000e+00 
 3.34204240e-04  5.37786414e-05 -9.73263661e-02  1.00000000e+00 
 3.36204240e-04 -5.37599749e-05 -9.73103661e-02  1.00000000e+00 
 3.38204240e-04  5.37761278e-05 -9.72943661e-02  1.00000000e+00 
 3.40204240e-04 -5.37573108e-05 -9.72783661e-02  1.00000000e+00 
 3.42204240e-04  5.37736123e-05 -9.72623661e-02  1.00000000e+00 
 3.44204240e-04 -5.37546487e-05 -9.72463661e-02  1.00000000e+00 
 3.46204240e-04  5.37710949e-05 -9.72303661e-02  1.00000000e+00 
 3.48204240e-04 -5.37519884e-05 -9.72143661e-02  1.00000000e+00 
 3.50204240e-04  5.37685758e-05 -9.71983661e-02  1.00000000e+00 
 3.52204240e-04 -5.37493300e-05 -9.71823661e-02  1.00000000e+00 
 3.54204240e-04  5.37660548e-05 -9.71663661e-02  1.00000000e+00 
 3.56204240e-04 -5.37466733e-05 -9.71503661e-02  1.00000000e+00 
 3.58204240e-04  5.37635322e-05 -9.71343661e-02  1.00000000e+00 
 3.60204240e-04 -5.37440184e-05 -9.71183661e-02  1.00000000e+00 
 3.62204240e-04  5.37610080e-05 -9.71023661e-02  1.00000000e+00 
 3.64204240e-04 -5.37413652e-05 -9.70863661e-02  1.00000000e+00 
 3.66204240e-04  5.37584821e-05 -9.70703661e-02  1.00000000e+00 
 3.68204240e-04 -5.37387136e-05 -9.70543661e-02  1.00000000e+00 
 3.70204240e-04  5.37559548e-05 -9.70383661e-02  1.00000000e+00 
 3.72204240e-04 -5.37360635e-05 -9.70223661e-02  1.00000000e+00 
 3.74204240e-04  5.37534260e-05 -9.70063661e-02  1.00000000e+00 
 3.76204240e-04 -5.37334149e-05 -9.69903661e-02  1.00000000e+00 
 3.78204240e-04  5.37508960e-05 -9.69743661e-02  1.00000000e+00 
 3.80204240e-04 -5.37307668e-05 -9.69583661e-02  1.00000000e+00 
 3.82204240e-04  5.37483656e-05 -9.69423661e-02  1.00000000e+00 
 3.84204240e-04 -5.37281232e-05 -9.69263661e-02  1.00000000e+00 
 3.86204240e-04  5.37458336e-05 -9.69103661e-02  1.00000000e+00 
 3.88204240e-04 -5.37254784e-05 -9.68943661e-02  1.00000000e+00 
 3.90204240e-04  5.37432998e-05 -9.68783661e-02  1.00000000e+00 
 3.92204240e-04 -5.37228350e-05 -9.68623661e-02  1.00000000e+00 
 3.94204240e-04  5.37407647e-05 -9.68463661e-02  1.00000000e+00 
 3.96204240e-04 -5.37201927e-05 -9.68303661e-02  1.00000000e+00 
 3.98204240e-04  5.37382285e-05 -9.68143661e-02  1.00000000e+00 
 4.00204240e-04 -5.37175515e-05 -9.67983661e-02  1.00000000e+00 
 4.02204240e-04  5.37356916e-05 -9.67823661e-02  1.00000000e+00 
 4.04204240e-04 -5.37149110e-05 -9.67663661e-02  1.00000000e+00 
 4.06204240e-04  5.37331543e-05 -9.67503661e-02  1.00000000e+00 
 4.08204240e-04 -5.37122704e-05 -9.67343661e-02  1.00000000e+00 
 4.10204240e-04  5.37306177e-05 -9.67183661e-02  1.00000000e+00 
 4.12204240e-04 -5.37096280e-05 -9.67023661e-02  1.00000000e+00 
 4.14204240e-04  5.37280848e-05 -9.66863661e-02  1.00000000e+00 
 4.16204240e-04 -5.37069792e-05 -9.66703661e-02  1.00000000e+00 
 4.18204240e-04  5.37255627e-05 -9.66543661e-02  1.00000000e+00 
 4.20204240e-04 -5.37043129e-05 -9.66383661e-02  1.00000000e+00 
 4.22204240e-04  5.37230681e-05 -9.66223661e-02  1.00000000e+00 
 4.24204240e-04 -5.37016044e-05 -9.66063661e-02  1.00000000e+00 
 4.26204240e-04  5.37206355e-05 -9.65903661e-02  1.00000000e+00 
 4.28204240e-04 -5.36988092e-05 -9.65743661e-02  1.00000000e+00 
 4.30204240e-04  5.37183161e-05 -9.65583661e-02  1.00000000e+00 
 4.32204240e-04 -5.36958796e-05 -9.65423661e-02  1.00000000e+00 
 4.34204240e-04  5.37161344e-05 -9.65263661e-02  1.00000000e+00 
 4.36204240e-04 -5.36928377e-05 -9.65103661e-02  1.00000000e+00 
 4.38204240e-04  5.37140078e-05 -9.64943661e-02  1.00000000e+00 
 4.40204240e-04 -5.36898170e-05 -9.64783661e-02  1.00000000e+00 
 4.42204240e-04  5.37117885e-05 -9.64623661e-02  1.00000000e+00 
 4.44204240e-04 -5.36869351e-05 -9.64463661e-02  1.00000000e+00 
 4.46204240e-04  5.37094180e-05 -9.64303661e-02  1.00000000e+00 
 4.48204240e-04 -5.36841916e-05 -9.64143661e-02  1.00000000e+00 
 4.50204240e-04  5.37069354e-05 -9.63983661e-02  1.00000000e+00 
 4.52204240e-04 -5.36815322e-05 -9.63823661e-02  1.00000000e+00 
 4.54204240e-04  5.37043935e-05 -9.63663661e-02  1.00000000e+00 
 4.56204240e-04 -5.36789137e-05 -9.63503661e-02  1.00000000e+00 
 4.58204240e-04  5.37018247e-05 -9.63343661e-02  1.00000000e+00 
 4.60204240e-04 -5.36763129e-05 -9.63183661e-02  1.00000000e+00 
 4.62204240e-04  5.36992445e-05 -9.63023661e-02  1.00000000e+00 
 4.64204240e-04 -5.36737197e-05 -9.62863661e-02  1.00000000e+00 
 4.66204240e-04  5.36966596e-05 -9.62703661e-02  1.00000000e+00 
 4.68204240e-04 -5.36711297e-05 -9.62543661e-02  1.00000000e+00 
 4.70204240e-04  5.36940730e-05 -9.62383661e-02  1.00000000e+00 
 4.72204240e-04 -5.36685410e-05 -9.62223661e-02  1.00000000e+00 
 4.74204240e-04  5.36914857e-05 -9.62063661e-02  1.00000000e+00 
 4.76204240e-04 -5.36659529e-05 -9.61903661e-02  1.00000000e+00 
 4.78204240e-04  5.36888982e-05 -9.61743661e-02  1.00000000e+00 
 4.80204240e-04 -5.36633651e-05 -9.61583661e-02  1.00000000e+00 
 4.82204240e-04  5.36863106e-05 -9.61423661e-02  1.00000000e+00 
 4.84204240e-04 -5.36607776e-05 -9.61263661e-02  1.00000000e+00 
 4.86204240e-04  5.36837232e-05 -9.61103661e-02  1.00000000e+00 
 4.88204240e-04 -5.36581901e-05 -9.60943661e-02  1.00000000e+00 
 4.90204240e-04  5.36811358e-05 -9.60783661e-02  1.00000000e+00 
 4.92204240e-04 -5.36556029e-05 -9.60623661e-02  1.00000000e+00 
 4.94204240e-04  5.36785485e-05 -9.60463661e-02  1.00000000e+00 
 4.96204240e-04 -5.36530157e-05 -9.60303661e-02  1.00000000e+00 
 4.98204240e-04  5.36759614e-05 -9.60143661e-02  1.00000000e+00 
 5.00100100e-04 -5.36503576e-05 -9.59991992e-02  1.00000000e+00 
 5.00100110e-04 -3.24023169e-05 -9.59991991e-02  1.00000000e+00 
 5.00100130e-04 -1.04212658e-06 -9.59991990e-02  1.00000000e+00 
 5.00100170e-04  2.49539701e-05 -9.59991986e-02  1.00000000e+00 
 5.00100200e-04  9.70800377e-05 -9.59991984e-02  1.00000000e+00 
 5.00100208e-04 -3.21315849e-05 -9.59991983e-02  1.00000000e+00 
 5.00100224e-04 -2.38074163e-04 -9.59991982e-02  1.00000000e+00 
 5.00100256e-04  4.32589387e-05 -9.59991980e-02  1.00000000e+00 
 5.00100320e-04  8.19055046e-05 -9.59991974e-02  1.00000000e+00 
 5.00100405e-04 -1.06070807e-04 -9.59991968e-02  1.00000000e+00 
 5.00100549e-04  1.10097928e-04 -9.59991956e-02  1.00000000e+00 
 5.00100835e-04 -1.10248363e-04 -9.59991933e-02  1.00000000e+00 
 5.00101409e-04  1.10001327e-04 -9.59991887e-02  1.00000000e+00 
 5.00102556e-04 -1.09800103e-04 -9.59991796e-02  1.00000000e+00 
 5.00104850e-04  1.09687326e-04 -9.59991612e-02  1.00000000e+00 
 5.00109439e-04 -1.09621875e-04 -9.59991245e-02  1.00000000e+00 
 5.00118616e-04  1.09593383e-04 -9.59990511e-02  1.00000000e+00 
 5.00136970e-04 -1.09573516e-04 -9.59989042e-02  1.00000000e+00 
