 time            v(Q)            v(A)-v(B)       v(B)           
 0.00000000e+00  1.07063102e-08  1.10000000e+00  0.00000000e+00 
 1.00000000e-09  1.07063102e-08  1.10000001e+00  0.00000000e+00 
 2.00000000e-09  1.07063101e-08  1.10000002e+00  0.00000000e+00 
 4.00000000e-09  1.07063102e-08  1.10000003e+00  0.00000000e+00 
 8.00000000e-09  1.07063102e-08  1.10000006e+00  0.00000000e+00 
 1.60000000e-08  1.07063101e-08  1.10000013e+00  0.00000000e+00 
 3.20000000e-08  1.07063101e-08  1.10000026e+00  0.00000000e+00 
 6.40000000e-08  1.07063101e-08  1.10000051e+00  0.00000000e+00 
 1.00000000e-07  1.07063102e-08  1.10000080e+00  0.00000000e+00 
 1.00010000e-07  1.63352877e-05  1.10000080e+00  0.00000000e+00 
 1.00030000e-07 -1.29436945e-05  1.10000080e+00  0.00000000e+00 
 1.00070000e-07 -1.21081055e-04  1.10000080e+00  0.00000000e+00 
 1.00100000e-07 -1.09251372e-05  1.10000080e+00  0.00000000e+00 
 1.00107607e-07  2.92292073e-04  1.10000080e+00  0.00000000e+00 
 1.00122821e-07  7.29264836e-04  1.10000080e+00  0.00000000e+00 
 1.00153250e-07  5.50799207e-04  1.10000080e+00  0.00000000e+00 
 1.00214107e-07 -7.99748281e-03  1.10000080e+00  0.00000000e+00 
 1.00291743e-07  8.85658115e-01  1.10000080e+00  0.00000000e+00 
 1.00386635e-07  1.78570092e+00  1.10000080e+00  0.00000000e+00 
 1.00487559e-07  1.79789664e+00  1.10000080e+00  0.00000000e+00 
 1.00595561e-07  1.80914536e+00  1.10000080e+00  0.00000000e+00 
 1.00767644e-07  1.78895683e+00  1.10000081e+00  0.00000000e+00 
 1.00944033e-07  1.81278109e+00  1.10000081e+00  0.00000000e+00 
 1.01231677e-07  1.78707693e+00  1.10000081e+00  0.00000000e+00 
 1.01611186e-07  1.81342140e+00  1.10000081e+00  0.00000000e+00 
 1.02161465e-07  1.78673821e+00  1.10000082e+00  0.00000000e+00 
 1.02997893e-07  1.81352239e+00  1.10000082e+00  0.00000000e+00 
 1.04358867e-07  1.78667833e+00  1.10000083e+00  0.00000000e+00 
 1.06952814e-07  1.81353077e+00  1.10000086e+00  0.00000000e+00 
 1.11473525e-07  1.78666893e+00  1.10000089e+00  0.00000000e+00 
 1.19664146e-07  1.81353046e+00  1.10000096e+00  0.00000000e+00 
 1.35294748e-07  1.78666688e+00  1.10000108e+00  0.00000000e+00 
 1.66555954e-07  1.81353013e+00  1.10000133e+00  0.00000000e+00 
 2.06692819e-07  1.78666634e+00  1.10000165e+00  0.00000000e+00 
 2.86966550e-07  1.81352998e+00  1.10000230e+00  0.00000000e+00 
 4.47514011e-07  1.78666617e+00  1.10000358e+00  0.00000000e+00 
 7.68608933e-07  1.81352994e+00  1.10000615e+00  0.00000000e+00 
 1.41079878e-06  1.78666612e+00  1.10001129e+00  0.00000000e+00 
 2.69517847e-06  1.81352993e+00  1.10002156e+00  0.00000000e+00 
 4.69517847e-06  1.78666611e+00  1.10003756e+00  0.00000000e+00 
 6.69517847e-06  1.81352866e+00  1.10005356e+00  0.00000000e+00 
 8.69517847e-06  1.78666610e+00  1.10006956e+00  0.00000000e+00 
 1.06951785e-05  1.81352866e+00  1.10008556e+00  0.00000000e+00 
 1.26951785e-05  1.78666610e+00  1.10010156e+00  0.00000000e+00 
 1.46951785e-05  1.81352866e+00  1.10011756e+00  0.00000000e+00 
 1.66951785e-05  1.78666609e+00  1.10013356e+00  0.00000000e+00 
 1.86951785e-05  1.81352865e+00  1.10014956e+00  0.00000000e+00 
 2.06951785e-05  1.78666608e+00  1.10016556e+00  0.00000000e+00 
 2.26951785e-05  1.81352865e+00  1.10018156e+00  0.00000000e+00 
 2.46951785e-05  1.78666607e+00  1.10019756e+00  0.00000000e+00 
 2.66951785e-05  1.81352864e+00  1.10021356e+00  0.00000000e+00 
 2.86951785e-05  1.78666606e+00  1.10022956e+00  0.00000000e+00 
 3.06951785e-05  1.81352864e+00  1.10024556e+00  0.00000000e+00 
 3.26951785e-05  1.78666605e+00  1.10026156e+00  0.00000000e+00 
 3.46951785e-05  1.81352864e+00  1.10027756e+00  0.00000000e+00 
 3.66951785e-05  1.78666604e+00  1.10029356e+00  0.00000000e+00 
 3.86951785e-05  1.81352863e+00  1.10030956e+00  0.00000000e+00 
 4.06951785e-05  1.78666603e+00  1.10032556e+00  0.00000000e+00 
 4.26951785e-05  1.81352863e+00  1.10034156e+00  0.00000000e+00 
 4.46951785e-05  1.78666603e+00  1.10035756e+00  0.00000000e+00 
 4.66951785e-05  1.81352862e+00  1.10037356e+00  0.00000000e+00 
 4.86951785e-05  1.78666602e+00  1.10038956e+00  0.00000000e+00 
 5.06951785e-05  1.81352862e+00  1.10040556e+00  0.00000000e+00 
 5.26951785e-05  1.78666601e+00  1.10042156e+00  0.00000000e+00 
 5.46951785e-05  1.81352861e+00  1.10043756e+00  0.00000000e+00 
 5.66951785e-05  1.78666600e+00  1.10045356e+00  0.00000000e+00 
 5.86951785e-05  1.81352861e+00  1.10046956e+00  0.00000000e+00 
 6.06951785e-05  1.78666599e+00  1.10048556e+00  0.00000000e+00 
 6.26951785e-05  1.81352860e+00  1.10050156e+00  0.00000000e+00 
 6.46951785e-05  1.78666598e+00  1.10051756e+00  0.00000000e+00 
 6.66951785e-05  1.81352860e+00  1.10053356e+00  0.00000000e+00 
 6.86951785e-05  1.78666597e+00  1.10054956e+00  0.00000000e+00 
 7.06951785e-05  1.81352860e+00  1.10056556e+00  0.00000000e+00 
 7.26951785e-05  1.78666596e+00  1.10058156e+00  0.00000000e+00 
 7.46951785e-05  1.81352859e+00  1.10059756e+00  0.00000000e+00 
 7.66951785e-05  1.78666596e+00  1.10061356e+00  0.00000000e+00 
 7.86951785e-05  1.81352859e+00  1.10062956e+00  0.00000000e+00 
 8.06951785e-05  1.78666595e+00  1.10064556e+00  0.00000000e+00 
 8.26951785e-05  1.81352858e+00  1.10066156e+00  0.00000000e+00 
 8.46951785e-05  1.78666594e+00  1.10067756e+00  0.00000000e+00 
 8.66951785e-05  1.81352858e+00  1.10069356e+00  0.00000000e+00 
 8.86951785e-05  1.78666593e+00  1.10070956e+00  0.00000000e+00 
 9.06951785e-05  1.81352857e+00  1.10072556e+00  0.00000000e+00 
 9.26951785e-05  1.78666592e+00  1.10074156e+00  0.00000000e+00 
 9.46951785e-05  1.81352857e+00  1.10075756e+00  0.00000000e+00 
 9.66951785e-05  1.78666591e+00  1.10077356e+00  0.00000000e+00 
 9.86951785e-05  1.81352856e+00  1.10078956e+00  0.00000000e+00 
 1.00695178e-04  1.78666590e+00  1.10080556e+00  0.00000000e+00 
 1.02695178e-04  1.81352856e+00  1.10082156e+00  0.00000000e+00 
 1.04695178e-04  1.78666590e+00  1.10083756e+00  0.00000000e+00 
 1.06695178e-04  1.81352856e+00  1.10085356e+00  0.00000000e+00 
 1.08695178e-04  1.78666589e+00  1.10086956e+00  0.00000000e+00 
 1.10695178e-04  1.81352855e+00  1.10088556e+00  0.00000000e+00 
 1.12695178e-04  1.78666588e+00  1.10090156e+00  0.00000000e+00 
 1.14695178e-04  1.81352855e+00  1.10091756e+00  0.00000000e+00 
 1.16695178e-04  1.78666587e+00  1.10093356e+00  0.00000000e+00 
 1.18695178e-04  1.81352854e+00  1.10094956e+00  0.00000000e+00 
 1.20695178e-04  1.78666586e+00  1.10096556e+00  0.00000000e+00 
 1.22695178e-04  1.81352854e+00  1.10098156e+00  0.00000000e+00 
 1.24695178e-04  1.78666585e+00  1.10099756e+00  0.00000000e+00 
 1.26695178e-04  1.81352853e+00  1.10101356e+00  0.00000000e+00 
 1.28695178e-04  1.78666585e+00  1.10102956e+00  0.00000000e+00 
 1.30695178e-04  1.81352853e+00  1.10104556e+00  0.00000000e+00 
 1.32695178e-04  1.78666584e+00  1.10106156e+00  0.00000000e+00 
 1.34695178e-04  1.81352852e+00  1.10107756e+00  0.00000000e+00 
 1.36695178e-04  1.78666583e+00  1.10109356e+00  0.00000000e+00 
 1.38695178e-04  1.81352852e+00  1.10110956e+00  0.00000000e+00 
 1.40695178e-04  1.78666582e+00  1.10112556e+00  0.00000000e+00 
 1.42695178e-04  1.81352851e+00  1.10114156e+00  0.00000000e+00 
 1.44695178e-04  1.78666581e+00  1.10115756e+00  0.00000000e+00 
 1.46695178e-04  1.81352851e+00  1.10117356e+00  0.00000000e+00 
 1.48695178e-04  1.78666580e+00  1.10118956e+00  0.00000000e+00 
 1.50695178e-04  1.81352851e+00  1.10120556e+00  0.00000000e+00 
 1.52695178e-04  1.78666579e+00  1.10122156e+00  0.00000000e+00 
 1.54695178e-04  1.81352850e+00  1.10123756e+00  0.00000000e+00 
 1.56695178e-04  1.78666579e+00  1.10125356e+00  0.00000000e+00 
 1.58695178e-04  1.81352850e+00  1.10126956e+00  0.00000000e+00 
 1.60695178e-04  1.78666578e+00  1.10128556e+00  0.00000000e+00 
 1.62695178e-04  1.81352849e+00  1.10130156e+00  0.00000000e+00 
 1.64695178e-04  1.78666577e+00  1.10131756e+00  0.00000000e+00 
 1.66695178e-04  1.81352849e+00  1.10133356e+00  0.00000000e+00 
 1.68695178e-04  1.78666576e+00  1.10134956e+00  0.00000000e+00 
 1.70695178e-04  1.81352848e+00  1.10136556e+00  0.00000000e+00 
 1.72695178e-04  1.78666575e+00  1.10138156e+00  0.00000000e+00 
 1.74695178e-04  1.81352848e+00  1.10139756e+00  0.00000000e+00 
 1.76695178e-04  1.78666574e+00  1.10141356e+00  0.00000000e+00 
 1.78695178e-04  1.81352847e+00  1.10142956e+00  0.00000000e+00 
 1.80695178e-04  1.78666574e+00  1.10144556e+00  0.00000000e+00 
 1.82695178e-04  1.81352847e+00  1.10146156e+00  0.00000000e+00 
 1.84695178e-04  1.78666573e+00  1.10147756e+00  0.00000000e+00 
 1.86695178e-04  1.81352846e+00  1.10149356e+00  0.00000000e+00 
 1.88695178e-04  1.78666572e+00  1.10150956e+00  0.00000000e+00 
 1.90695178e-04  1.81352846e+00  1.10152556e+00  0.00000000e+00 
 1.92695178e-04  1.78666571e+00  1.10154156e+00  0.00000000e+00 
 1.94695178e-04  1.81352845e+00  1.10155756e+00  0.00000000e+00 
 1.96695178e-04  1.78666570e+00  1.10157356e+00  0.00000000e+00 
 1.98695178e-04  1.81352845e+00  1.10158956e+00  0.00000000e+00 
 2.00000000e-04  1.78665294e+00  1.10160000e+00  0.00000000e+00 
 2.00145557e-04  1.80002000e+00 -9.83988355e-02  1.20000000e+00 
 2.00436671e-04  1.79997999e+00 -9.83965066e-02  1.20000000e+00 
 2.00675099e-04  1.80001999e+00 -9.83945992e-02  1.20000000e+00 
 2.00940016e-04  1.79998000e+00 -9.83924799e-02  1.20000000e+00 
 2.01469848e-04  7.40658021e-05 -9.83882412e-02  1.20000000e+00 
 2.01947912e-04 -6.90719476e-05 -9.83844167e-02  1.20000000e+00 
 2.02441934e-04  6.90831837e-05 -9.83804645e-02  1.20000000e+00 
 2.03237062e-04 -6.90605287e-05 -9.83741035e-02  1.20000000e+00 
 2.04289966e-04  6.90756838e-05 -9.83656803e-02  1.20000000e+00 
 2.06289966e-04 -6.90553218e-05 -9.83496803e-02  1.20000000e+00 
 2.08289966e-04  6.90724897e-05 -9.83336803e-02  1.20000000e+00 
 2.10289966e-04 -6.90516168e-05 -9.83176803e-02  1.20000000e+00 
 2.12289966e-04  6.90692828e-05 -9.83016803e-02  1.20000000e+00 
 2.14289966e-04 -6.90479241e-05 -9.82856803e-02  1.20000000e+00 
 2.16289966e-04  6.90660644e-05 -9.82696803e-02  1.20000000e+00 
 2.18289966e-04 -6.90442426e-05 -9.82536803e-02  1.20000000e+00 
 2.20289966e-04  6.90628353e-05 -9.82376803e-02  1.20000000e+00 
 2.22289966e-04 -6.90405715e-05 -9.82216803e-02  1.20000000e+00 
 2.24289966e-04  6.90595965e-05 -9.82056803e-02  1.20000000e+00 
 2.26289966e-04 -6.90369098e-05 -9.81896803e-02  1.20000000e+00 
 2.28289966e-04  6.90563487e-05 -9.81736803e-02  1.20000000e+00 
 2.30289966e-04 -6.90332569e-05 -9.81576803e-02  1.20000000e+00 
 2.32289966e-04  6.90530926e-05 -9.81416803e-02  1.20000000e+00 
 2.34289966e-04 -6.90296122e-05 -9.81256803e-02  1.20000000e+00 
 2.36289966e-04  6.90498288e-05 -9.81096803e-02  1.20000000e+00 
 2.38289966e-04 -6.90259751e-05 -9.80936803e-02  1.20000000e+00 
 2.40289966e-04  6.90465578e-05 -9.80776803e-02  1.20000000e+00 
 2.42289966e-04 -6.90223451e-05 -9.80616803e-02  1.20000000e+00 
 2.44289966e-04  6.90432800e-05 -9.80456803e-02  1.20000000e+00 
 2.46289966e-04 -6.90187217e-05 -9.80296803e-02  1.20000000e+00 
 2.48289966e-04  6.90399961e-05 -9.80136803e-02  1.20000000e+00 
 2.50289966e-04 -6.90151046e-05 -9.79976803e-02  1.20000000e+00 
 2.52289966e-04  6.90367062e-05 -9.79816803e-02  1.20000000e+00 
 2.54289966e-04 -6.90114934e-05 -9.79656803e-02  1.20000000e+00 
 2.56289966e-04  6.90334107e-05 -9.79496803e-02  1.20000000e+00 
 2.58289966e-04 -6.90078877e-05 -9.79336803e-02  1.20000000e+00 
 2.60289966e-04  6.90301100e-05 -9.79176803e-02  1.20000000e+00 
 2.62289966e-04 -6.90042873e-05 -9.79016803e-02  1.20000000e+00 
 2.64289966e-04  6.90268044e-05 -9.78856803e-02  1.20000000e+00 
 2.66289966e-04 -6.90006919e-05 -9.78696803e-02  1.20000000e+00 
 2.68289966e-04  6.90234940e-05 -9.78536803e-02  1.20000000e+00 
 2.70289966e-04 -6.89971012e-05 -9.78376803e-02  1.20000000e+00 
 2.72289966e-04  6.90201792e-05 -9.78216803e-02  1.20000000e+00 
 2.74289966e-04 -6.89935151e-05 -9.78056803e-02  1.20000000e+00 
 2.76289966e-04  6.90168602e-05 -9.77896803e-02  1.20000000e+00 
 2.78289966e-04 -6.89899332e-05 -9.77736803e-02  1.20000000e+00 
 2.80289966e-04  6.90135371e-05 -9.77576803e-02  1.20000000e+00 
 2.82289966e-04 -6.89863555e-05 -9.77416803e-02  1.20000000e+00 
 2.84289966e-04  6.90102102e-05 -9.77256803e-02  1.20000000e+00 
 2.86289966e-04 -6.89827817e-05 -9.77096803e-02  1.20000000e+00 
 2.88289966e-04  6.90068796e-05 -9.76936803e-02  1.20000000e+00 
 2.90289966e-04 -6.89792116e-05 -9.76776803e-02  1.20000000e+00 
 2.92289966e-04  6.90035454e-05 -9.76616803e-02  1.20000000e+00 
 2.94289966e-04 -6.89756452e-05 -9.76456803e-02  1.20000000e+00 
 2.96289966e-04  6.90002080e-05 -9.76296803e-02  1.20000000e+00 
 2.98289966e-04 -6.89720823e-05 -9.76136803e-02  1.20000000e+00 
 3.00289966e-04  6.89968673e-05 -9.75976803e-02  1.20000000e+00 
 3.02289966e-04 -6.89685226e-05 -9.75816803e-02  1.20000000e+00 
 3.04289966e-04  6.89935235e-05 -9.75656803e-02  1.20000000e+00 
 3.06289966e-04 -6.89649662e-05 -9.75496803e-02  1.20000000e+00 
 3.08289966e-04  6.89901767e-05 -9.75336803e-02  1.20000000e+00 
 3.10289966e-04 -6.89614128e-05 -9.75176803e-02  1.20000000e+00 
 3.12289966e-04  6.89868271e-05 -9.75016803e-02  1.20000000e+00 
 3.14289966e-04 -6.89578625e-05 -9.74856803e-02  1.20000000e+00 
 3.16289966e-04  6.89834747e-05 -9.74696803e-02  1.20000000e+00 
 3.18289966e-04 -6.89543150e-05 -9.74536803e-02  1.20000000e+00 
 3.20289966e-04  6.89801197e-05 -9.74376803e-02  1.20000000e+00 
 3.22289966e-04 -6.89507702e-05 -9.74216803e-02  1.20000000e+00 
 3.24289966e-04  6.89767621e-05 -9.74056803e-02  1.20000000e+00 
 3.26289966e-04 -6.89472282e-05 -9.73896803e-02  1.20000000e+00 
 3.28289966e-04  6.89734021e-05 -9.73736803e-02  1.20000000e+00 
 3.30289966e-04 -6.89436887e-05 -9.73576803e-02  1.20000000e+00 
 3.32289966e-04  6.89700398e-05 -9.73416803e-02  1.20000000e+00 
 3.34289966e-04 -6.89401518e-05 -9.73256803e-02  1.20000000e+00 
 3.36289966e-04  6.89666751e-05 -9.73096803e-02  1.20000000e+00 
 3.38289966e-04 -6.89366172e-05 -9.72936803e-02  1.20000000e+00 
 3.40289966e-04  6.89633083e-05 -9.72776803e-02  1.20000000e+00 
 3.42289966e-04 -6.89330850e-05 -9.72616803e-02  1.20000000e+00 
 3.44289966e-04  6.89599393e-05 -9.72456803e-02  1.20000000e+00 
 3.46289966e-04 -6.89295551e-05 -9.72296803e-02  1.20000000e+00 
 3.48289966e-04  6.89565683e-05 -9.72136803e-02  1.20000000e+00 
 3.50289966e-04 -6.89260274e-05 -9.71976803e-02  1.20000000e+00 
 3.52289966e-04  6.89531953e-05 -9.71816803e-02  1.20000000e+00 
 3.54289966e-04 -6.89225018e-05 -9.71656803e-02  1.20000000e+00 
 3.56289966e-04  6.89498203e-05 -9.71496803e-02  1.20000000e+00 
 3.58289966e-04 -6.89189782e-05 -9.71336803e-02  1.20000000e+00 
 3.60289966e-04  6.89464435e-05 -9.71176803e-02  1.20000000e+00 
 3.62289966e-04 -6.89154567e-05 -9.71016803e-02  1.20000000e+00 
 3.64289966e-04  6.89430650e-05 -9.70856803e-02  1.20000000e+00 
 3.66289966e-04 -6.89119372e-05 -9.70696803e-02  1.20000000e+00 
 3.68289966e-04  6.89396846e-05 -9.70536803e-02  1.20000000e+00 
 3.70289966e-04 -6.89084195e-05 -9.70376803e-02  1.20000000e+00 
 3.72289966e-04  6.89363026e-05 -9.70216803e-02  1.20000000e+00 
 3.74289966e-04 -6.89049037e-05 -9.70056803e-02  1.20000000e+00 
 3.76289966e-04  6.89329190e-05 -9.69896803e-02  1.20000000e+00 
 3.78289966e-04 -6.89013896e-05 -9.69736803e-02  1.20000000e+00 
 3.80289966e-04  6.89295338e-05 -9.69576803e-02  1.20000000e+00 
 3.82289966e-04 -6.88978773e-05 -9.69416803e-02  1.20000000e+00 
 3.84289966e-04  6.89261471e-05 -9.69256803e-02  1.20000000e+00 
 3.86289966e-04 -6.88943667e-05 -9.69096803e-02  1.20000000e+00 
 3.88289966e-04  6.89227589e-05 -9.68936803e-02  1.20000000e+00 
 3.90289966e-04 -6.88908577e-05 -9.68776803e-02  1.20000000e+00 
 3.92289966e-04  6.89193693e-05 -9.68616803e-02  1.20000000e+00 
 3.94289966e-04 -6.88873502e-05 -9.68456803e-02  1.20000000e+00 
 3.96289966e-04  6.89159787e-05 -9.68296803e-02  1.20000000e+00 
 3.98289966e-04 -6.88838430e-05 -9.68136803e-02  1.20000000e+00 
 4.00289966e-04  6.89125870e-05 -9.67976803e-02  1.20000000e+00 
 4.02289966e-04 -6.88803399e-05 -9.67816803e-02  1.20000000e+00 
 4.04289966e-04  6.89091943e-05 -9.67656803e-02  1.20000000e+00 
 4.06289966e-04 -6.88768364e-05 -9.67496803e-02  1.20000000e+00 
 4.08289966e-04  6.89057999e-05 -9.67336803e-02  1.20000000e+00 
 4.10289966e-04 -6.88733343e-05 -9.67176803e-02  1.20000000e+00 
 4.12289966e-04  6.89024044e-05 -9.67016803e-02  1.20000000e+00 
 4.14289966e-04 -6.88698334e-05 -9.66856803e-02  1.20000000e+00 
 4.16289966e-04  6.88990079e-05 -9.66696803e-02  1.20000000e+00 
 4.18289966e-04 -6.88663336e-05 -9.66536803e-02  1.20000000e+00 
 4.20289966e-04  6.88956107e-05 -9.66376803e-02  1.20000000e+00 
 4.22289966e-04 -6.88628345e-05 -9.66216803e-02  1.20000000e+00 
 4.24289966e-04  6.88922132e-05 -9.66056803e-02  1.20000000e+00 
 4.26289966e-04 -6.88593354e-05 -9.65896803e-02  1.20000000e+00 
 4.28289966e-04  6.88888167e-05 -9.65736803e-02  1.20000000e+00 
 4.30289966e-04 -6.88558342e-05 -9.65576803e-02  1.20000000e+00 
 4.32289966e-04  6.88854242e-05 -9.65416803e-02  1.20000000e+00 
 4.34289966e-04 -6.88523262e-05 -9.65256803e-02  1.20000000e+00 
 4.36289966e-04  6.88820434e-05 -9.65096803e-02  1.20000000e+00 
 4.38289966e-04 -6.88487995e-05 -9.64936803e-02  1.20000000e+00 
 4.40289966e-04  6.88786920e-05 -9.64776803e-02  1.20000000e+00 
 4.42289966e-04 -6.88452281e-05 -9.64616803e-02  1.20000000e+00 
 4.44289966e-04  6.88754059e-05 -9.64456803e-02  1.20000000e+00 
 4.46289966e-04 -6.88415661e-05 -9.64296803e-02  1.20000000e+00 
 4.48289966e-04  6.88722368e-05 -9.64136803e-02  1.20000000e+00 
 4.50289966e-04 -6.88377678e-05 -9.63976803e-02  1.20000000e+00 
 4.52289966e-04  6.88692037e-05 -9.63816803e-02  1.20000000e+00 
 4.54289966e-04 -6.88338637e-05 -9.63656803e-02  1.20000000e+00 
 4.56289966e-04  6.88662153e-05 -9.63496803e-02  1.20000000e+00 
 4.58289966e-04 -6.88299924e-05 -9.63336803e-02  1.20000000e+00 
 4.60289966e-04  6.88631255e-05 -9.63176803e-02  1.20000000e+00 
 4.62289966e-04 -6.88262638e-05 -9.63016803e-02  1.20000000e+00 
 4.64289966e-04  6.88598853e-05 -9.62856803e-02  1.20000000e+00 
 4.66289966e-04 -6.88226704e-05 -9.62696803e-02  1.20000000e+00 
 4.68289966e-04  6.88565372e-05 -9.62536803e-02  1.20000000e+00 
 4.70289966e-04 -6.88191574e-05 -9.62376803e-02  1.20000000e+00 
 4.72289966e-04  6.88531330e-05 -9.62216803e-02  1.20000000e+00 
 4.74289966e-04 -6.88156829e-05 -9.62056803e-02  1.20000000e+00 
 4.76289966e-04  6.88497036e-05 -9.61896803e-02  1.20000000e+00 
 4.78289966e-04 -6.88122252e-05 -9.61736803e-02  1.20000000e+00 
 4.80289966e-04  6.88462636e-05 -9.61576803e-02  1.20000000e+00 
 4.82289966e-04 -6.88087746e-05 -9.61416803e-02  1.20000000e+00 
 4.84289966e-04  6.88428193e-05 -9.61256803e-02  1.20000000e+00 
 4.86289966e-04 -6.88053271e-05 -9.61096803e-02  1.20000000e+00 
 4.88289966e-04  6.88393735e-05 -9.60936803e-02  1.20000000e+00 
 4.90289966e-04 -6.88018810e-05 -9.60776803e-02  1.20000000e+00 
 4.92289966e-04  6.88359270e-05 -9.60616803e-02  1.20000000e+00 
 4.94289966e-04 -6.87984355e-05 -9.60456803e-02  1.20000000e+00 
 4.96289966e-04  6.88324805e-05 -9.60296803e-02  1.20000000e+00 
 4.98289966e-04 -6.87949903e-05 -9.60136803e-02  1.20000000e+00 
 5.00100100e-04  6.88288533e-05 -9.59991992e-02  1.20000000e+00 
 5.00100110e-04  3.50738717e-05 -9.59991991e-02  1.20000000e+00 
 5.00100130e-04  6.66481760e-06 -9.59991990e-02  1.20000000e+00 
 5.00100170e-04  1.41406326e-05 -9.59991986e-02  1.20000000e+00 
 5.00100200e-04  8.21526198e-05 -9.59991984e-02  1.20000000e+00 
 5.00100208e-04  3.45367291e-05 -9.59991983e-02  1.20000000e+00 
 5.00100224e-04 -2.06038745e-04 -9.59991982e-02  1.20000000e+00 
 5.00100256e-04  1.55612732e-05 -9.59991980e-02  1.20000000e+00 
 5.00100320e-04  7.54893419e-05 -9.59991974e-02  1.20000000e+00 
 5.00100405e-04 -9.00412817e-05 -9.59991968e-02  1.20000000e+00 
 5.00100557e-04  9.02310024e-05 -9.59991955e-02  1.20000000e+00 
 5.00100859e-04 -8.91076370e-05 -9.59991931e-02  1.20000000e+00 
