 time            v(Q)            v(A)-v(B)       v(B)           
 0.00000000e+00  1.79999999e+00  0.00000000e+00  0.00000000e+00 
 2.00000000e-11  1.79999999e+00 -2.00000000e-07  2.00000000e-07 
 4.00000000e-11  1.79999999e+00 -4.00000000e-07  4.00000000e-07 
 8.00000000e-11  1.79999999e+00 -8.00000000e-07  8.00000000e-07 
 1.60000000e-10  1.79999999e+00 -1.60000000e-06  1.60000000e-06 
 3.20000000e-10  1.79999999e+00 -3.20000000e-06  3.20000000e-06 
 6.40000000e-10  1.79999999e+00 -6.40000000e-06  6.40000000e-06 
 1.28000000e-09  1.79999999e+00 -1.28000000e-05  1.28000000e-05 
 2.56000000e-09  1.79999999e+00 -2.56000000e-05  2.56000000e-05 
 4.56000000e-09  1.79999999e+00 -4.56000000e-05  4.56000000e-05 
 6.56000000e-09  1.79999999e+00 -6.56000000e-05  6.56000000e-05 
 8.56000000e-09  1.79999999e+00 -8.56000000e-05  8.56000000e-05 
 1.05600000e-08  1.79999999e+00 -1.05600000e-04  1.05600000e-04 
 1.25600000e-08  1.79999999e+00 -1.25600000e-04  1.25600000e-04 
 1.45600000e-08  1.79999999e+00 -1.45600000e-04  1.45600000e-04 
 1.65600000e-08  1.79999999e+00 -1.65600000e-04  1.65600000e-04 
 1.85600000e-08  1.79999999e+00 -1.85600000e-04  1.85600000e-04 
 2.05600000e-08  1.79999999e+00 -2.05600000e-04  2.05600000e-04 
 2.25600000e-08  1.79999999e+00 -2.25600000e-04  2.25600000e-04 
 2.45600000e-08  1.79999999e+00 -2.45600000e-04  2.45600000e-04 
 2.65600000e-08  1.79999999e+00 -2.65600000e-04  2.65600000e-04 
 2.85600000e-08  1.79999999e+00 -2.85600000e-04  2.85600000e-04 
 3.05600000e-08  1.79999999e+00 -3.05600000e-04  3.05600000e-04 
 3.25600000e-08  1.79999999e+00 -3.25600000e-04  3.25600000e-04 
 3.45600000e-08  1.79999999e+00 -3.45600000e-04  3.45600000e-04 
 3.65600000e-08  1.79999999e+00 -3.65600000e-04  3.65600000e-04 
 3.85600000e-08  1.79999999e+00 -3.85600000e-04  3.85600000e-04 
 4.05600000e-08  1.79999999e+00 -4.05600000e-04  4.05600000e-04 
 4.25600000e-08  1.79999999e+00 -4.25600000e-04  4.25600000e-04 
 4.45600000e-08  1.79999999e+00 -4.45600000e-04  4.45600000e-04 
 4.65600000e-08  1.79999999e+00 -4.65600000e-04  4.65600000e-04 
 4.85600000e-08  1.79999999e+00 -4.85600000e-04  4.85600000e-04 
 5.05600000e-08  1.79999999e+00 -5.05600000e-04  5.05600000e-04 
 5.25600000e-08  1.79999999e+00 -5.25600000e-04  5.25600000e-04 
 5.45600000e-08  1.79999999e+00 -5.45600000e-04  5.45600000e-04 
 5.65600000e-08  1.79999999e+00 -5.65600000e-04  5.65600000e-04 
 5.85600000e-08  1.79999999e+00 -5.85600000e-04  5.85600000e-04 
 6.05600000e-08  1.79999999e+00 -6.05600000e-04  6.05600000e-04 
 6.25600000e-08  1.79999999e+00 -6.25600000e-04  6.25600000e-04 
 6.45600000e-08  1.79999999e+00 -6.45600000e-04  6.45600000e-04 
 6.65600000e-08  1.79999999e+00 -6.65600000e-04  6.65600000e-04 
 6.85600000e-08  1.79999999e+00 -6.85600000e-04  6.85600000e-04 
 7.05600000e-08  1.79999999e+00 -7.05600000e-04  7.05600000e-04 
 7.25600000e-08  1.79999999e+00 -7.25600000e-04  7.25600000e-04 
 7.45600000e-08  1.79999999e+00 -7.45600000e-04  7.45600000e-04 
 7.65600000e-08  1.79999999e+00 -7.65600000e-04  7.65600000e-04 
 7.85600000e-08  1.79999999e+00 -7.85600000e-04  7.85600000e-04 
 8.05600000e-08  1.79999999e+00 -8.05600000e-04  8.05600000e-04 
 8.25600000e-08  1.79999999e+00 -8.25600000e-04  8.25600000e-04 
 8.45600000e-08  1.79999999e+00 -8.45600000e-04  8.45600000e-04 
 8.65600000e-08  1.79999999e+00 -8.65600000e-04  8.65600000e-04 
 8.85600000e-08  1.79999999e+00 -8.85600000e-04  8.85600000e-04 
 9.05600000e-08  1.79999999e+00 -9.05600000e-04  9.05600000e-04 
 9.25600000e-08  1.79999999e+00 -9.25600000e-04  9.25600000e-04 
 9.45600000e-08  1.79999999e+00 -9.45600000e-04  9.45600000e-04 
 9.65600000e-08  1.79999999e+00 -9.65600000e-04  9.65600000e-04 
 9.85600000e-08  1.79999999e+00 -9.85600000e-04  9.85600000e-04 
 1.00000000e-07  1.79999999e+00 -1.00000000e-03  1.00000000e-03 
 1.00010000e-07  1.80001220e+00 -1.00010000e-03  1.00010000e-03 
 1.00030000e-07  1.79998707e+00 -1.00030000e-03  1.00030000e-03 
 1.00070000e-07  1.79993236e+00 -1.00070000e-03  1.00070000e-03 
 1.00100000e-07  1.80006905e+00 -1.00100000e-03  1.00100000e-03 
 1.00107643e-07  1.80047592e+00 -1.00107643e-03  1.00107643e-03 
 1.00122929e-07  1.80055280e+00 -1.00122929e-03  1.00122929e-03 
 1.00153501e-07  1.79971480e+00 -1.00153501e-03  1.00153501e-03 
 1.00214645e-07  1.79994341e+00 -1.00214645e-03  1.00214645e-03 
 1.00287500e-07  1.79936454e+00 -1.00287500e-03  1.00287500e-03 
 1.00433210e-07  1.79861439e+00 -1.00433210e-03  1.00433210e-03 
 1.00698191e-07  1.79967547e+00 -1.00698191e-03  1.00698191e-03 
 1.01073172e-07  1.79743201e+00 -1.01073172e-03  1.01073172e-03 
 1.01711592e-07  2.15297326e-01 -1.01711592e-03  1.01711592e-03 
 1.02240709e-07  1.68325892e+00 -1.02240709e-03  1.02240709e-03 
 1.02771981e-07  1.85797886e-01 -1.02771981e-03  1.02771981e-03 
 1.03260052e-07 -1.06062008e-01 -1.03260052e-03  1.03260052e-03 
 1.03817028e-07  1.19886110e-01 -1.03817028e-03  1.03817028e-03 
 1.04648454e-07 -9.42802335e-02 -1.04648454e-03  1.04648454e-03 
 1.05529768e-07  1.07089087e-01 -1.05529768e-03  1.05529768e-03 
 1.06818215e-07 -8.75001376e-02 -1.06818215e-03  1.06818215e-03 
 1.08660135e-07  1.00636237e-01 -1.08660135e-03  1.08660135e-03 
 1.10660135e-07 -8.40156420e-02 -1.10660135e-03  1.10660135e-03 
 1.12660135e-07  9.60959698e-02 -1.12660135e-03  1.12660135e-03 
 1.14660135e-07 -8.08764884e-02 -1.14660135e-03  1.14660135e-03 
 1.16660135e-07  9.17873585e-02 -1.16660135e-03  1.16660135e-03 
 1.18660135e-07 -7.77808699e-02 -1.18660135e-03  1.18660135e-03 
 1.20660135e-07  8.77130240e-02 -1.20660135e-03  1.20660135e-03 
 1.22660135e-07 -7.48139427e-02 -1.22660135e-03  1.22660135e-03 
 1.24660135e-07  8.38561666e-02 -1.24660135e-03  1.24660135e-03 
 1.26660135e-07 -7.19684295e-02 -1.26660135e-03  1.26660135e-03 
 1.28660135e-07  8.02016964e-02 -1.28660135e-03  1.28660135e-03 
 1.30660135e-07 -6.92382555e-02 -1.30660135e-03  1.30660135e-03 
 1.32660135e-07  7.67359593e-02 -1.32660135e-03  1.32660135e-03 
 1.34660135e-07 -6.66179591e-02 -1.34660135e-03  1.34660135e-03 
 1.36660135e-07  7.34465542e-02 -1.36660135e-03  1.36660135e-03 
 1.38660135e-07 -6.41024921e-02 -1.38660135e-03  1.38660135e-03 
 1.40660135e-07  7.03221807e-02 -1.40660135e-03  1.40660135e-03 
 1.42660135e-07 -6.16871501e-02 -1.42660135e-03  1.42660135e-03 
 1.44660135e-07  6.73525099e-02 -1.44660135e-03  1.44660135e-03 
 1.46660135e-07 -5.93675322e-02 -1.46660135e-03  1.46660135e-03 
 1.48660135e-07  6.45280741e-02 -1.48660135e-03  1.48660135e-03 
 1.50660135e-07 -5.71395076e-02 -1.50660135e-03  1.50660135e-03 
 1.52660135e-07  6.18401714e-02 -1.52660135e-03  1.52660135e-03 
 1.54660135e-07 -5.49991870e-02 -1.54660135e-03  1.54660135e-03 
 1.56660135e-07  5.92807842e-02 -1.56660135e-03  1.56660135e-03 
 1.58660135e-07 -5.29428973e-02 -1.58660135e-03  1.58660135e-03 
 1.60660135e-07  5.68425080e-02 -1.60660135e-03  1.60660135e-03 
 1.62660135e-07 -5.09671599e-02 -1.62660135e-03  1.62660135e-03 
 1.64660135e-07  5.45184895e-02 -1.64660135e-03  1.64660135e-03 
 1.66660135e-07 -4.90686725e-02 -1.66660135e-03  1.66660135e-03 
 1.68660135e-07  5.23023729e-02 -1.68660135e-03  1.68660135e-03 
 1.70660135e-07 -4.72442935e-02 -1.70660135e-03  1.70660135e-03 
 1.72660135e-07  5.01882524e-02 -1.72660135e-03  1.72660135e-03 
 1.74660135e-07 -4.54910294e-02 -1.74660135e-03  1.74660135e-03 
 1.76660135e-07  4.81706311e-02 -1.76660135e-03  1.76660135e-03 
 1.78660135e-07 -4.38060235e-02 -1.78660135e-03  1.78660135e-03 
 1.80660135e-07  4.62443836e-02 -1.80660135e-03  1.80660135e-03 
 1.82660135e-07 -4.21865463e-02 -1.82660135e-03  1.82660135e-03 
 1.84660135e-07  4.44047237e-02 -1.84660135e-03  1.84660135e-03 
 1.86660135e-07 -4.06299880e-02 -1.86660135e-03  1.86660135e-03 
 1.88660135e-07  4.26471757e-02 -1.88660135e-03  1.88660135e-03 
 1.90660135e-07 -3.91338506e-02 -1.90660135e-03  1.90660135e-03 
 1.92660135e-07  4.09675479e-02 -1.92660135e-03  1.92660135e-03 
 1.94660135e-07 -3.76957423e-02 -1.94660135e-03  1.94660135e-03 
 1.96660135e-07  3.93619102e-02 -1.96660135e-03  1.96660135e-03 
 1.98660135e-07 -3.63133712e-02 -1.98660135e-03  1.98660135e-03 
 2.00660135e-07  3.78265728e-02 -2.00660135e-03  2.00660135e-03 
 2.02660135e-07 -3.49845404e-02 -2.02660135e-03  2.02660135e-03 
 2.04660135e-07  3.63580677e-02 -2.04660135e-03  2.04660135e-03 
 2.06660135e-07 -3.37071435e-02 -2.06660135e-03  2.06660135e-03 
 2.08660135e-07  3.49531319e-02 -2.08660135e-03  2.08660135e-03 
 2.10660135e-07 -3.24791599e-02 -2.10660135e-03  2.10660135e-03 
 2.12660135e-07  3.36086920e-02 -2.12660135e-03  2.12660135e-03 
 2.14660135e-07 -3.12986510e-02 -2.14660135e-03  2.14660135e-03 
 2.16660135e-07  3.23218507e-02 -2.16660135e-03  2.16660135e-03 
 2.18660135e-07 -3.01637563e-02 -2.18660135e-03  2.18660135e-03 
 2.20660135e-07  3.10898737e-02 -2.20660135e-03  2.20660135e-03 
 2.22660135e-07 -2.90726903e-02 -2.22660135e-03  2.22660135e-03 
 2.24660135e-07  2.99101790e-02 -2.24660135e-03  2.24660135e-03 
 2.26660135e-07 -2.80237386e-02 -2.26660135e-03  2.26660135e-03 
 2.28660135e-07  2.87803257e-02 -2.28660135e-03  2.28660135e-03 
 2.30660135e-07 -2.70152554e-02 -2.30660135e-03  2.30660135e-03 
 2.32660135e-07  2.76980050e-02 -2.32660135e-03  2.32660135e-03 
 2.34660135e-07 -2.60456602e-02 -2.34660135e-03  2.34660135e-03 
 2.36660135e-07  2.66610314e-02 -2.36660135e-03  2.36660135e-03 
 2.38660135e-07 -2.51134352e-02 -2.38660135e-03  2.38660135e-03 
 2.40660135e-07  2.56673345e-02 -2.40660135e-03  2.40660135e-03 
 2.42660135e-07 -2.42171225e-02 -2.42660135e-03  2.42660135e-03 
 2.44660135e-07  2.46906477e-02 -2.44660135e-03  2.44660135e-03 
 2.46660135e-07 -2.33557792e-02 -2.46660135e-03  2.46660135e-03 
 2.48660135e-07  2.37815673e-02 -2.48660135e-03  2.48660135e-03 
 2.50660135e-07 -2.25275219e-02 -2.50660135e-03  2.50660135e-03 
 2.52660135e-07  2.29096166e-02 -2.52660135e-03  2.52660135e-03 
 2.54660135e-07 -2.17310702e-02 -2.54660135e-03  2.54660135e-03 
 2.56660135e-07  2.20732127e-02 -2.56660135e-03  2.56660135e-03 
 2.58660135e-07 -2.09651927e-02 -2.58660135e-03  2.58660135e-03 
 2.60660135e-07  2.12708235e-02 -2.60660135e-03  2.60660135e-03 
 2.62660135e-07 -2.02483549e-02 -2.62660135e-03  2.62660135e-03 
 2.64660135e-07  2.05005358e-02 -2.64660135e-03  2.64660135e-03 
 2.66660135e-07 -1.95366293e-02 -2.66660135e-03  2.66660135e-03 
 2.68660135e-07  1.97615231e-02 -2.68660135e-03  2.68660135e-03 
 2.70660135e-07 -1.88525913e-02 -2.70660135e-03  2.70660135e-03 
 2.72660135e-07  1.90524075e-02 -2.72660135e-03  2.72660135e-03 
 2.74660135e-07 -1.81951354e-02 -2.74660135e-03  2.74660135e-03 
 2.76660135e-07  1.83719075e-02 -2.76660135e-03  2.76660135e-03 
 2.78660135e-07 -1.75631745e-02 -2.78660135e-03  2.78660135e-03 
 2.80660135e-07  1.77188014e-02 -2.80660135e-03  2.80660135e-03 
 2.82660135e-07 -1.69556727e-02 -2.82660135e-03  2.82660135e-03 
 2.84660135e-07  1.70919236e-02 -2.84660135e-03  2.84660135e-03 
 2.86660135e-07 -1.63716412e-02 -2.86660135e-03  2.86660135e-03 
 2.88660135e-07  1.64901619e-02 -2.88660135e-03  2.88660135e-03 
 2.90660135e-07 -1.58101360e-02 -2.90660135e-03  2.90660135e-03 
 2.92660135e-07  1.59124549e-02 -2.92660135e-03  2.92660135e-03 
 2.94660135e-07 -1.52702548e-02 -2.94660135e-03  2.94660135e-03 
 2.96660135e-07  1.53577890e-02 -2.96660135e-03  2.96660135e-03 
 2.98660135e-07 -1.47511348e-02 -2.98660135e-03  2.98660135e-03 
 3.00660135e-07  1.48251964e-02 -3.00660135e-03  3.00660135e-03 
 3.02660135e-07 -1.42519501e-02 -3.02660135e-03  3.02660135e-03 
 3.04660135e-07  1.43137527e-02 -3.04660135e-03  3.04660135e-03 
 3.06660135e-07 -1.37719101e-02 -3.06660135e-03  3.06660135e-03 
 3.08660135e-07  1.38225747e-02 -3.08660135e-03  3.08660135e-03 
 3.10660135e-07 -1.33102576e-02 -3.10660135e-03  3.10660135e-03 
 3.12660135e-07  1.33508183e-02 -3.12660135e-03  3.12660135e-03 
 3.14660135e-07 -1.28662668e-02 -3.14660135e-03  3.14660135e-03 
 3.16660135e-07  1.28976767e-02 -3.16660135e-03  3.16660135e-03 
 3.18660135e-07 -1.24392421e-02 -3.18660135e-03  3.18660135e-03 
 3.20660135e-07  1.24623788e-02 -3.20660135e-03  3.20660135e-03 
 3.22660135e-07 -1.20285163e-02 -3.22660135e-03  3.22660135e-03 
 3.24660135e-07  1.20441873e-02 -3.24660135e-03  3.24660135e-03 
 3.26660135e-07 -1.16334497e-02 -3.26660135e-03  3.26660135e-03 
 3.28660135e-07  1.16423966e-02 -3.28660135e-03  3.28660135e-03 
 3.30660135e-07 -1.12534283e-02 -3.30660135e-03  3.30660135e-03 
 3.32660135e-07  1.12563324e-02 -3.32660135e-03  3.32660135e-03 
 3.34660135e-07 -1.08878630e-02 -3.34660135e-03  3.34660135e-03 
 3.36660135e-07  1.08853491e-02 -3.36660135e-03  3.36660135e-03 
 3.38660135e-07 -1.05361886e-02 -3.38660135e-03  3.38660135e-03 
 3.40660135e-07  1.05288291e-02 -3.40660135e-03  3.40660135e-03 
 3.42660135e-07 -1.01978622e-02 -3.42660135e-03  3.42660135e-03 
 3.44660135e-07  1.01861814e-02 -3.44660135e-03  3.44660135e-03 
 3.46660135e-07 -9.87236290e-03 -3.46660135e-03  3.46660135e-03 
 3.48660135e-07  9.85684024e-03 -3.48660135e-03  3.48660135e-03 
 3.50660135e-07 -9.55919125e-03 -3.50660135e-03  3.50660135e-03 
 3.52660135e-07  9.54025297e-03 -3.52660135e-03  3.52660135e-03 
 3.54660135e-07 -9.25786677e-03 -3.54660135e-03  3.54660135e-03 
 3.56660135e-07  9.23588412e-03 -3.56660135e-03  3.56660135e-03 
 3.58660135e-07 -8.96785821e-03 -3.58660135e-03  3.58660135e-03 
 3.60660135e-07  8.94321208e-03 -3.60660135e-03  3.60660135e-03 
 3.62660135e-07 -8.68874280e-03 -3.62660135e-03  3.62660135e-03 
 3.64660135e-07  8.66176974e-03 -3.64660135e-03  3.64660135e-03 
 3.66660135e-07 -8.42010276e-03 -3.66660135e-03  3.66660135e-03 
 3.68660135e-07  8.39110919e-03 -3.68660135e-03  3.68660135e-03 
 3.70660135e-07 -8.16153630e-03 -3.70660135e-03  3.70660135e-03 
 3.72660135e-07  8.13080080e-03 -3.72660135e-03  3.72660135e-03 
 3.74660135e-07 -7.91265692e-03 -3.74660135e-03  3.74660135e-03 
 3.76660135e-07  7.88043251e-03 -3.76660135e-03  3.76660135e-03 
 3.78660135e-07 -7.67309288e-03 -3.78660135e-03  3.78660135e-03 
 3.80660135e-07  7.63960905e-03 -3.80660135e-03  3.80660135e-03 
 3.82660135e-07 -7.44248662e-03 -3.82660135e-03  3.82660135e-03 
 3.84660135e-07  7.40795125e-03 -3.84660135e-03  3.84660135e-03 
 3.86660135e-07 -7.22049421e-03 -3.86660135e-03  3.86660135e-03 
 3.88660135e-07  7.18509536e-03 -3.88660135e-03  3.88660135e-03 
 3.90660135e-07 -7.00678488e-03 -3.90660135e-03  3.90660135e-03 
 3.92660135e-07  6.97069240e-03 -3.92660135e-03  3.92660135e-03 
 3.94660135e-07 -6.80104047e-03 -3.94660135e-03  3.94660135e-03 
 3.96660135e-07  6.76440754e-03 -3.96660135e-03  3.96660135e-03 
 3.98660135e-07 -6.60295502e-03 -3.98660135e-03  3.98660135e-03 
 4.00660135e-07  6.56591953e-03 -4.00660135e-03  4.00660135e-03 
 4.02660135e-07 -6.41223425e-03 -4.02660135e-03  4.02660135e-03 
 4.04660135e-07  6.37492008e-03 -4.04660135e-03  4.04660135e-03 
 4.06660135e-07 -6.22859515e-03 -4.06660135e-03  4.06660135e-03 
 4.08660135e-07  6.19111339e-03 -4.08660135e-03  4.08660135e-03 
 4.10660135e-07 -6.05176556e-03 -4.10660135e-03  4.10660135e-03 
 4.12660135e-07  6.01421558e-03 -4.12660135e-03  4.12660135e-03 
 4.14660135e-07 -5.88148376e-03 -4.14660135e-03  4.14660135e-03 
 4.16660135e-07  5.84395421e-03 -4.16660135e-03  4.16660135e-03 
 4.18660135e-07 -5.71749804e-03 -4.18660135e-03  4.18660135e-03 
 4.20660135e-07  5.68006783e-03 -4.20660135e-03  4.20660135e-03 
 4.22660135e-07 -5.55956637e-03 -4.22660135e-03  4.22660135e-03 
 4.24660135e-07  5.52230547e-03 -4.24660135e-03  4.24660135e-03 
 4.26660135e-07 -5.40745602e-03 -4.26660135e-03  4.26660135e-03 
 4.28660135e-07  5.37042627e-03 -4.28660135e-03  4.28660135e-03 
 4.30660135e-07 -5.26094319e-03 -4.30660135e-03  4.30660135e-03 
 4.32660135e-07  5.22419903e-03 -4.32660135e-03  4.32660135e-03 
 4.34660135e-07 -5.11981269e-03 -4.34660135e-03  4.34660135e-03 
 4.36660135e-07  5.08340183e-03 -4.36660135e-03  4.36660135e-03 
 4.38660135e-07 -4.98385759e-03 -4.38660135e-03  4.38660135e-03 
 4.40660135e-07  4.94782161e-03 -4.40660135e-03  4.40660135e-03 
 4.42660135e-07 -4.85287896e-03 -4.42660135e-03  4.42660135e-03 
 4.44660135e-07  4.81725386e-03 -4.44660135e-03  4.44660135e-03 
 4.46660135e-07 -4.72668550e-03 -4.46660135e-03  4.46660135e-03 
 4.48660135e-07  4.69150225e-03 -4.48660135e-03  4.48660135e-03 
 4.50660135e-07 -4.60509328e-03 -4.50660135e-03  4.50660135e-03 
 4.52660135e-07  4.57037827e-03 -4.52660135e-03  4.52660135e-03 
 4.54660135e-07 -4.48792549e-03 -4.54660135e-03  4.54660135e-03 
 4.56660135e-07  4.45370095e-03 -4.56660135e-03  4.56660135e-03 
 4.58660135e-07 -4.37501210e-03 -4.58660135e-03  4.58660135e-03 
 4.60660135e-07  4.34129654e-03 -4.60660135e-03  4.60660135e-03 
 4.62660135e-07 -4.26618966e-03 -4.62660135e-03  4.62660135e-03 
 4.64660135e-07  4.23299820e-03 -4.64660135e-03  4.64660135e-03 
 4.66660135e-07 -4.16130102e-03 -4.66660135e-03  4.66660135e-03 
 4.68660135e-07  4.12864573e-03 -4.68660135e-03  4.68660135e-03 
 4.70660135e-07 -4.06019511e-03 -4.70660135e-03  4.70660135e-03 
 4.72660135e-07  4.02808532e-03 -4.72660135e-03  4.72660135e-03 
 4.74660135e-07 -3.96272668e-03 -4.74660135e-03  4.74660135e-03 
 4.76660135e-07  3.93116926e-03 -4.76660135e-03  4.76660135e-03 
 4.78660135e-07 -3.86875611e-03 -4.78660135e-03  4.78660135e-03 
 4.80660135e-07  3.83775572e-03 -4.80660135e-03  4.80660135e-03 
 4.82660135e-07 -3.77814915e-03 -4.82660135e-03  4.82660135e-03 
 4.84660135e-07  3.74770848e-03 -4.84660135e-03  4.84660135e-03 
 4.86660135e-07 -3.69077677e-03 -4.86660135e-03  4.86660135e-03 
 4.88660135e-07  3.66089674e-03 -4.88660135e-03  4.88660135e-03 
 4.90660135e-07 -3.60651491e-03 -4.90660135e-03  4.90660135e-03 
 4.92660135e-07  3.57719487e-03 -4.92660135e-03  4.92660135e-03 
 4.94660135e-07 -3.52524431e-03 -4.94660135e-03  4.94660135e-03 
 4.96660135e-07  3.49648224e-03 -4.96660135e-03  4.96660135e-03 
 4.98660135e-07 -3.44685034e-03 -4.98660135e-03  4.98660135e-03 
 5.00000000e-07  3.39994015e-03 -5.00000000e-03  5.00000000e-03 
 5.00200000e-07  1.05514158e-04  9.49980000e-02  5.00200000e-03 
 5.00600000e-07 -9.64062810e-05  9.49940000e-02  5.00600000e-03 
 5.01400000e-07  9.25503791e-05  9.49860000e-02  5.01400000e-03 
 5.02498240e-07 -8.96618074e-05  9.49750176e-02  5.02498240e-03 
 5.04498240e-07  8.81557784e-05  9.49550176e-02  5.04498240e-03 
 5.06498240e-07 -8.66351303e-05  9.49350176e-02  5.06498240e-03 
 5.08498240e-07  8.51882021e-05  9.49150176e-02  5.08498240e-03 
 5.10498240e-07 -8.37270457e-05  9.48950176e-02  5.10498240e-03 
 5.12498240e-07  8.23368776e-05  9.48750176e-02  5.12498240e-03 
 5.14498240e-07 -8.09327875e-05  9.48550176e-02  5.14498240e-03 
 5.16498240e-07  7.95971098e-05  9.48350176e-02  5.16498240e-03 
 5.18498240e-07 -7.82477411e-05  9.48150176e-02  5.18498240e-03 
 5.20498240e-07  7.69643587e-05  9.47950176e-02  5.20498240e-03 
 5.22498240e-07 -7.56674501e-05  9.47750176e-02  5.22498240e-03 
 5.24498240e-07  7.44342444e-05  9.47550176e-02  5.24498240e-03 
 5.26498240e-07 -7.31876189e-05  9.47350176e-02  5.26498240e-03 
 5.28498240e-07  7.20025483e-05  9.47150176e-02  5.28498240e-03 
 5.30498240e-07 -7.08041134e-05  9.46950176e-02  5.30498240e-03 
 5.32498240e-07  6.96652134e-05  9.46750176e-02  5.32498240e-03 
 5.34498240e-07 -6.85129600e-05  9.46550176e-02  5.34498240e-03 
 5.36498240e-07  6.74183421e-05  9.46350176e-02  5.36498240e-03 
 5.38498240e-07 -6.63103432e-05  9.46150176e-02  5.38498240e-03 
 5.40498240e-07  6.52581933e-05  9.45950176e-02  5.40498240e-03 
 5.42498240e-07 -6.41926015e-05  9.45750176e-02  5.42498240e-03 
 5.44498240e-07  6.31811787e-05  9.45550176e-02  5.44498240e-03 
 5.46498240e-07 -6.21562239e-05  9.45350176e-02  5.46498240e-03 
 5.48498240e-07  6.11838576e-05  9.45150176e-02  5.48498240e-03 
 5.50498240e-07 -6.01978457e-05  9.44950176e-02  5.50498240e-03 
 5.52498240e-07  5.92629346e-05  9.44750176e-02  5.52498240e-03 
 5.54498240e-07 -5.83142430e-05  9.44550176e-02  5.54498240e-03 
 5.56498240e-07  5.74152520e-05  9.44350176e-02  5.56498240e-03 
