 time            v(Q)            v(A)-v(B)       v(B)           
 0.00000000e+00  1.07063102e-08 -1.40000000e+00  1.40000000e+00 
 2.00000000e-11  1.07281662e-08 -1.40000020e+00  1.40000020e+00 
 4.00000000e-11  1.07038529e-08 -1.40000040e+00  1.40000040e+00 
 8.00000000e-11  1.06933558e-08 -1.40000080e+00  1.40000080e+00 
 1.60000000e-10  1.07153437e-08 -1.40000160e+00  1.40000160e+00 
 3.20000000e-10  1.06991059e-08 -1.40000320e+00  1.40000320e+00 
 6.40000000e-10  1.07126763e-08 -1.40000640e+00  1.40000640e+00 
 1.28000000e-09  1.07003423e-08 -1.40001280e+00  1.40001280e+00 
 2.56000000e-09  1.07120841e-08 -1.40002560e+00  1.40002560e+00 
 4.56000000e-09  1.07006585e-08 -1.40004560e+00  1.40004560e+00 
 6.56000000e-09  1.07118410e-08 -1.40006560e+00  1.40006560e+00 
 8.56000000e-09  1.07008986e-08 -1.40008560e+00  1.40008560e+00 
 1.05600000e-08  1.07116038e-08 -1.40010560e+00  1.40010560e+00 
 1.25600000e-08  1.07011330e-08 -1.40012560e+00  1.40012560e+00 
 1.45600000e-08  1.07113722e-08 -1.40014560e+00  1.40014560e+00 
 1.65600000e-08  1.07013618e-08 -1.40016560e+00  1.40016560e+00 
 1.85600000e-08  1.07111463e-08 -1.40018560e+00  1.40018560e+00 
 2.05600000e-08  1.07015847e-08 -1.40020560e+00  1.40020560e+00 
 2.25600000e-08  1.07109262e-08 -1.40022560e+00  1.40022560e+00 
 2.45600000e-08  1.07018022e-08 -1.40024560e+00  1.40024560e+00 
 2.65600000e-08  1.07107116e-08 -1.40026560e+00  1.40026560e+00 
 2.85600000e-08  1.07020139e-08 -1.40028560e+00  1.40028560e+00 
 3.05600000e-08  1.07105026e-08 -1.40030560e+00  1.40030560e+00 
 3.25600000e-08  1.07022202e-08 -1.40032560e+00  1.40032560e+00 
 3.45600000e-08  1.07102992e-08 -1.40034560e+00  1.40034560e+00 
 3.65600000e-08  1.07024209e-08 -1.40036560e+00  1.40036560e+00 
 3.85600000e-08  1.07101011e-08 -1.40038560e+00  1.40038560e+00 
 4.05600000e-08  1.07026162e-08 -1.40040560e+00  1.40040560e+00 
 4.25600000e-08  1.07099085e-08 -1.40042560e+00  1.40042560e+00 
 4.45600000e-08  1.07028062e-08 -1.40044560e+00  1.40044560e+00 
 4.65600000e-08  1.07097212e-08 -1.40046560e+00  1.40046560e+00 
 4.85600000e-08  1.07029908e-08 -1.40048560e+00  1.40048560e+00 
 5.05600000e-08  1.07095392e-08 -1.40050560e+00  1.40050560e+00 
 5.25600000e-08  1.07031703e-08 -1.40052560e+00  1.40052560e+00 
 5.45600000e-08  1.07093623e-08 -1.40054560e+00  1.40054560e+00 
 5.65600000e-08  1.07033446e-08 -1.40056560e+00  1.40056560e+00 
 5.85600000e-08  1.07091906e-08 -1.40058560e+00  1.40058560e+00 
 6.05600000e-08  1.07035138e-08 -1.40060560e+00  1.40060560e+00 
 6.25600000e-08  1.07090238e-08 -1.40062560e+00  1.40062560e+00 
 6.45600000e-08  1.07036781e-08 -1.40064560e+00  1.40064560e+00 
 6.65600000e-08  1.07088620e-08 -1.40066560e+00  1.40066560e+00 
 6.85600000e-08  1.07038375e-08 -1.40068560e+00  1.40068560e+00 
 7.05600000e-08  1.07087050e-08 -1.40070560e+00  1.40070560e+00 
 7.25600000e-08  1.07039921e-08 -1.40072560e+00  1.40072560e+00 
 7.45600000e-08  1.07085527e-08 -1.40074560e+00  1.40074560e+00 
 7.65600000e-08  1.07041420e-08 -1.40076560e+00  1.40076560e+00 
 7.85600000e-08  1.07084052e-08 -1.40078560e+00  1.40078560e+00 
 8.05600000e-08  1.07042872e-08 -1.40080560e+00  1.40080560e+00 
 8.25600000e-08  1.07082622e-08 -1.40082560e+00  1.40082560e+00 
 8.45600000e-08  1.07044280e-08 -1.40084560e+00  1.40084560e+00 
 8.65600000e-08  1.07081237e-08 -1.40086560e+00  1.40086560e+00 
 8.85600000e-08  1.07045642e-08 -1.40088560e+00  1.40088560e+00 
 9.05600000e-08  1.07079896e-08 -1.40090560e+00  1.40090560e+00 
 9.25600000e-08  1.07046961e-08 -1.40092560e+00  1.40092560e+00 
 9.45600000e-08  1.07078598e-08 -1.40094560e+00  1.40094560e+00 
 9.65600000e-08  1.07048237e-08 -1.40096560e+00  1.40096560e+00 
 9.85600000e-08  1.07077344e-08 -1.40098560e+00  1.40098560e+00 
 1.00000000e-07  1.07049707e-08 -1.40100000e+00  1.40100000e+00 
 1.00010000e-07  1.38743214e-05 -1.40100010e+00  1.40100010e+00 
 1.00030000e-07 -1.34480152e-05 -1.40100030e+00  1.40100030e+00 
 1.00070000e-07 -9.12931531e-05 -1.40100070e+00  1.40100070e+00 
 1.00100000e-07  1.08994735e-04 -1.40100100e+00  1.40100100e+00 
 1.00107591e-07  3.77639983e-04 -1.40100108e+00  1.40100108e+00 
 1.00122773e-07  2.95545933e-04 -1.40100123e+00  1.40100123e+00 
 1.00153138e-07 -1.87491590e-04 -1.40100153e+00  1.40100153e+00 
 1.00213867e-07 -2.18230127e-03 -1.40100214e+00  1.40100214e+00 
 1.00291000e-07 -3.21124787e-03 -1.40100291e+00  1.40100291e+00 
 1.00380919e-07  5.26342627e-03 -1.40100381e+00  1.40100381e+00 
 1.00478438e-07 -5.70269117e-03 -1.40100478e+00  1.40100478e+00 
 1.00635866e-07  5.58380902e-03 -1.40100636e+00  1.40100636e+00 
 1.00895460e-07 -5.42794712e-03 -1.40100895e+00  1.40100895e+00 
 1.01288708e-07  5.29365917e-03 -1.40101289e+00  1.40101289e+00 
 1.01977762e-07 -5.21182140e-03 -1.40101978e+00  1.40101978e+00 
 1.03311181e-07  5.16605302e-03 -1.40103311e+00  1.40103311e+00 
 1.05311181e-07 -5.13593889e-03 -1.40105311e+00  1.40105311e+00 
 1.07311181e-07  5.10471938e-03 -1.40107311e+00  1.40107311e+00 
 1.09311181e-07 -5.07292969e-03 -1.40109311e+00  1.40109311e+00 
 1.11311181e-07  5.04131220e-03 -1.40111311e+00  1.40111311e+00 
 1.13311181e-07 -5.00804511e-03 -1.40113311e+00  1.40113311e+00 
 1.15311181e-07  4.97608667e-03 -1.40115311e+00  1.40115311e+00 
 1.17311181e-07 -4.94147089e-03 -1.40117311e+00  1.40117311e+00 
 1.19311181e-07  4.90920699e-03 -1.40119311e+00  1.40119311e+00 
 1.21311181e-07 -4.87336492e-03 -1.40121311e+00  1.40121311e+00 
 1.23311181e-07  4.84082900e-03 -1.40123311e+00  1.40123311e+00 
 1.25311181e-07 -4.80387704e-03 -1.40125311e+00  1.40125311e+00 
 1.27311181e-07  4.77110067e-03 -1.40127311e+00  1.40127311e+00 
 1.29311181e-07 -4.73314938e-03 -1.40129311e+00  1.40129311e+00 
 1.31311181e-07  4.70016244e-03 -1.40131311e+00  1.40131311e+00 
 1.33311181e-07 -4.66131676e-03 -1.40133311e+00  1.40133311e+00 
 1.35311181e-07  4.62814756e-03 -1.40135311e+00  1.40135311e+00 
 1.37311181e-07 -4.58850697e-03 -1.40137311e+00  1.40137311e+00 
 1.39311181e-07  4.55518238e-03 -1.40139311e+00  1.40139311e+00 
 1.41311181e-07 -4.51484110e-03 -1.40141311e+00  1.40141311e+00 
 1.43311181e-07  4.48138667e-03 -1.40143311e+00  1.40143311e+00 
 1.45311181e-07 -4.44043386e-03 -1.40145311e+00  1.40145311e+00 
 1.47311181e-07  4.40687392e-03 -1.40147311e+00  1.40147311e+00 
 1.49311181e-07 -4.36539383e-03 -1.40149311e+00  1.40149311e+00 
 1.51311181e-07  4.33175157e-03 -1.40151311e+00  1.40151311e+00 
 1.53311181e-07 -4.28982379e-03 -1.40153311e+00  1.40153311e+00 
 1.55311181e-07  4.25612134e-03 -1.40155311e+00  1.40155311e+00 
 1.57311181e-07 -4.21382091e-03 -1.40157311e+00  1.40157311e+00 
 1.59311181e-07  4.18007943e-03 -1.40159311e+00  1.40159311e+00 
 1.61311181e-07 -4.13747708e-03 -1.40161311e+00  1.40161311e+00 
 1.63311181e-07  4.10371679e-03 -1.40163311e+00  1.40163311e+00 
 1.65311181e-07 -4.06087908e-03 -1.40165311e+00  1.40165311e+00 
 1.67311181e-07  4.02711933e-03 -1.40167311e+00  1.40167311e+00 
 1.69311181e-07 -3.98410886e-03 -1.40169311e+00  1.40169311e+00 
 1.71311181e-07  3.95036818e-03 -1.40171311e+00  1.40171311e+00 
 1.73311181e-07 -3.90724374e-03 -1.40173311e+00  1.40173311e+00 
 1.75311181e-07  3.87353990e-03 -1.40175311e+00  1.40175311e+00 
 1.77311181e-07 -3.83035663e-03 -1.40177311e+00  1.40177311e+00 
 1.79311181e-07  3.79670663e-03 -1.40179311e+00  1.40179311e+00 
 1.81311181e-07 -3.75351619e-03 -1.40181311e+00  1.40181311e+00 
 1.83311181e-07  3.71993636e-03 -1.40183311e+00  1.40183311e+00 
 1.85311181e-07 -3.67678711e-03 -1.40185311e+00  1.40185311e+00 
 1.87311181e-07  3.64329309e-03 -1.40187311e+00  1.40187311e+00 
 1.89311181e-07 -3.60023019e-03 -1.40189311e+00  1.40189311e+00 
 1.91311181e-07  3.56683698e-03 -1.40191311e+00  1.40191311e+00 
 1.93311181e-07 -3.52390261e-03 -1.40193311e+00  1.40193311e+00 
 1.95311181e-07  3.49062459e-03 -1.40195311e+00  1.40195311e+00 
 1.97311181e-07 -3.44785803e-03 -1.40197311e+00  1.40197311e+00 
 1.99311181e-07  3.41470899e-03 -1.40199311e+00  1.40199311e+00 
 2.01311181e-07 -3.37214678e-03 -1.40201311e+00  1.40201311e+00 
 2.03311181e-07  3.33913993e-03 -1.40203311e+00  1.40203311e+00 
 2.05311181e-07 -3.29681602e-03 -1.40205311e+00  1.40205311e+00 
 2.07311181e-07  3.26396403e-03 -1.40207311e+00  1.40207311e+00 
 2.09311181e-07 -3.22190989e-03 -1.40209311e+00  1.40209311e+00 
 2.11311181e-07  3.18922487e-03 -1.40211311e+00  1.40211311e+00 
 2.13311181e-07 -3.14746963e-03 -1.40213311e+00  1.40213311e+00 
 2.15311181e-07  3.11496317e-03 -1.40215311e+00  1.40215311e+00 
 2.17311181e-07 -3.07353372e-03 -1.40217311e+00  1.40217311e+00 
 2.19311181e-07  3.04121692e-03 -1.40219311e+00  1.40219311e+00 
 2.21311181e-07 -3.00013804e-03 -1.40221311e+00  1.40221311e+00 
 2.23311181e-07  2.96802149e-03 -1.40223311e+00  1.40223311e+00 
 2.25311181e-07 -2.92731596e-03 -1.40225311e+00  1.40225311e+00 
 2.27311181e-07  2.89540977e-03 -1.40227311e+00  1.40227311e+00 
 2.29311181e-07 -2.85509847e-03 -1.40229311e+00  1.40229311e+00 
 2.31311181e-07  2.82341228e-03 -1.40231311e+00  1.40231311e+00 
 2.33311181e-07 -2.78351429e-03 -1.40233311e+00  1.40233311e+00 
 2.35311181e-07  2.75205729e-03 -1.40235311e+00  1.40235311e+00 
 2.37311181e-07 -2.71258999e-03 -1.40237311e+00  1.40237311e+00 
 2.39311181e-07  2.68137093e-03 -1.40239311e+00  1.40239311e+00 
 2.41311181e-07 -2.64235009e-03 -1.40241311e+00  1.40241311e+00 
 2.43311181e-07  2.61137728e-03 -1.40243311e+00  1.40243311e+00 
 2.45311181e-07 -2.57281716e-03 -1.40245311e+00  1.40245311e+00 
 2.47311181e-07  2.54209847e-03 -1.40247311e+00  1.40247311e+00 
 2.49311181e-07 -2.50401189e-03 -1.40249311e+00  1.40249311e+00 
 2.51311181e-07  2.47355479e-03 -1.40251311e+00  1.40251311e+00 
 2.53311181e-07 -2.43595322e-03 -1.40253311e+00  1.40253311e+00 
 2.55311181e-07  2.40576478e-03 -1.40255311e+00  1.40255311e+00 
 2.57311181e-07 -2.36865842e-03 -1.40257311e+00  1.40257311e+00 
 2.59311181e-07  2.33874529e-03 -1.40259311e+00  1.40259311e+00 
 2.61311181e-07 -2.30214314e-03 -1.40261311e+00  1.40261311e+00 
 2.63311181e-07  2.27251161e-03 -1.40263311e+00  1.40263311e+00 
 2.65311181e-07 -2.23642153e-03 -1.40265311e+00  1.40265311e+00 
 2.67311181e-07  2.20707750e-03 -1.40267311e+00  1.40267311e+00 
 2.69311181e-07 -2.17150629e-03 -1.40269311e+00  1.40269311e+00 
 2.71311181e-07  2.14245530e-03 -1.40271311e+00  1.40271311e+00 
 2.73311181e-07 -2.10740875e-03 -1.40273311e+00  1.40273311e+00 
 2.75311181e-07  2.07865598e-03 -1.40275311e+00  1.40275311e+00 
 2.77311181e-07 -2.04413897e-03 -1.40277311e+00  1.40277311e+00 
 2.79311181e-07  2.01568924e-03 -1.40279311e+00  1.40279311e+00 
 2.81311181e-07 -1.98170574e-03 -1.40281311e+00  1.40281311e+00 
 2.83311181e-07  1.95356354e-03 -1.40283311e+00  1.40283311e+00 
 2.85311181e-07 -1.92011671e-03 -1.40285311e+00  1.40285311e+00 
 2.87311181e-07  1.89228446e-03 -1.40287311e+00  1.40287311e+00 
 2.89311181e-07 -1.85938464e-03 -1.40289311e+00  1.40289311e+00 
 2.91311181e-07  1.83186176e-03 -1.40291311e+00  1.40291311e+00 
 2.93311181e-07 -1.79950253e-03 -1.40293311e+00  1.40293311e+00 
 2.95311181e-07  1.77229907e-03 -1.40295311e+00  1.40295311e+00 
 2.97311181e-07 -1.74048136e-03 -1.40297311e+00  1.40297311e+00 
 2.99311181e-07  1.71360048e-03 -1.40299311e+00  1.40299311e+00 
 3.01311181e-07 -1.68232459e-03 -1.40301311e+00  1.40301311e+00 
 3.03311181e-07  1.65576916e-03 -1.40303311e+00  1.40303311e+00 
 3.05311181e-07 -1.62503482e-03 -1.40305311e+00  1.40305311e+00 
 3.07311181e-07  1.59880741e-03 -1.40307311e+00  1.40307311e+00 
 3.09311181e-07 -1.56861380e-03 -1.40309311e+00  1.40309311e+00 
 3.11311181e-07  1.54271671e-03 -1.40311311e+00  1.40311311e+00 
 3.13311181e-07 -1.51306250e-03 -1.40313311e+00  1.40313311e+00 
 3.15311181e-07  1.48749777e-03 -1.40315311e+00  1.40315311e+00 
 3.17311181e-07 -1.45838116e-03 -1.40317311e+00  1.40317311e+00 
 3.19311181e-07  1.43315057e-03 -1.40319311e+00  1.40319311e+00 
 3.21311181e-07 -1.40456931e-03 -1.40321311e+00  1.40321311e+00 
 3.23311181e-07  1.37967439e-03 -1.40323311e+00  1.40323311e+00 
 3.25311181e-07 -1.35162584e-03 -1.40325311e+00  1.40325311e+00 
 3.27311181e-07  1.32706786e-03 -1.40327311e+00  1.40327311e+00 
 3.29311181e-07 -1.29954900e-03 -1.40329311e+00  1.40329311e+00 
 3.31311181e-07  1.27532901e-03 -1.40331311e+00  1.40331311e+00 
 3.33311181e-07 -1.24833648e-03 -1.40333311e+00  1.40333311e+00 
 3.35311181e-07  1.22445528e-03 -1.40335311e+00  1.40335311e+00 
 3.37311181e-07 -1.19798538e-03 -1.40337311e+00  1.40337311e+00 
 3.39311181e-07  1.17444358e-03 -1.40339311e+00  1.40339311e+00 
 3.41311181e-07 -1.14849233e-03 -1.40341311e+00  1.40341311e+00 
 3.43311181e-07  1.12529030e-03 -1.40343311e+00  1.40343311e+00 
 3.45311181e-07 -1.09985345e-03 -1.40345311e+00  1.40345311e+00 
 3.47311181e-07  1.07699136e-03 -1.40347311e+00  1.40347311e+00 
 3.49311181e-07 -1.05206441e-03 -1.40349311e+00  1.40349311e+00 
 3.51311181e-07  1.02954225e-03 -1.40351311e+00  1.40351311e+00 
 3.53311181e-07 -1.00512046e-03 -1.40353311e+00  1.40353311e+00 
 3.55311181e-07  9.82938003e-04 -1.40355311e+00  1.40355311e+00 
 3.57311181e-07 -9.59016441e-04 -1.40357311e+00  1.40357311e+00 
 3.59311181e-07  9.37173298e-04 -1.40359311e+00  1.40359311e+00 
 3.61311181e-07 -9.13746841e-04 -1.40361311e+00  1.40361311e+00 
 3.63311181e-07  8.92242433e-04 -1.40363311e+00  1.40363311e+00 
 3.65311181e-07 -8.69305787e-04 -1.40365311e+00  1.40365311e+00 
 3.67311181e-07  8.48139368e-04 -1.40367311e+00  1.40367311e+00 
 3.69311181e-07 -8.25687089e-04 -1.40369311e+00  1.40369311e+00 
 3.71311181e-07  8.04857751e-04 -1.40371311e+00  1.40371311e+00 
 3.73311181e-07 -7.82884256e-04 -1.40373311e+00  1.40373311e+00 
 3.75311181e-07  7.62390936e-04 -1.40375311e+00  1.40375311e+00 
 3.77311181e-07 -7.40890521e-04 -1.40377311e+00  1.40377311e+00 
 3.79311181e-07  7.20732004e-04 -1.40379311e+00  1.40379311e+00 
 3.81311181e-07 -6.99698857e-04 -1.40381311e+00  1.40381311e+00 
 3.83311181e-07  6.79873787e-04 -1.40383311e+00  1.40383311e+00 
 3.85311181e-07 -6.59302003e-04 -1.40385311e+00  1.40385311e+00 
 3.87311181e-07  6.39808886e-04 -1.40387311e+00  1.40387311e+00 
 3.89311181e-07 -6.19692477e-04 -1.40389311e+00  1.40389311e+00 
 3.91311181e-07  6.00529689e-04 -1.40391311e+00  1.40391311e+00 
 3.93311181e-07 -5.80862596e-04 -1.40393311e+00  1.40393311e+00 
 3.95311181e-07  5.62028390e-04 -1.40395311e+00  1.40395311e+00 
 3.97311181e-07 -5.42804496e-04 -1.40397311e+00  1.40397311e+00 
 3.99311181e-07  5.24297005e-04 -1.40399311e+00  1.40399311e+00 
 4.01311181e-07 -5.05510142e-04 -1.40401311e+00  1.40401311e+00 
 4.03311181e-07  4.87324048e-04 -1.40403311e+00  1.40403311e+00 
 4.05311181e-07 -4.68974314e-04 -1.40405311e+00  1.40405311e+00 
 4.07311181e-07  4.51107531e-04 -1.40407311e+00  1.40407311e+00 
 4.09311181e-07 -4.33181953e-04 -1.40409311e+00  1.40409311e+00 
 4.11311181e-07  4.15635492e-04 -1.40411311e+00  1.40411311e+00 
 4.13311181e-07 -3.98127841e-04 -1.40413311e+00  1.40413311e+00 
 4.15311181e-07  3.80899441e-04 -1.40415311e+00  1.40415311e+00 
 4.17311181e-07 -3.63803473e-04 -1.40417311e+00  1.40417311e+00 
 4.19311181e-07  3.46890779e-04 -1.40419311e+00  1.40419311e+00 
 4.21311181e-07 -3.30200241e-04 -1.40421311e+00  1.40421311e+00 
 4.23311181e-07  3.13600813e-04 -1.40423311e+00  1.40423311e+00 
 4.25311181e-07 -2.97309450e-04 -1.40425311e+00  1.40425311e+00 
 4.27311181e-07  2.81020766e-04 -1.40427311e+00  1.40427311e+00 
 4.29311181e-07 -2.65122327e-04 -1.40429311e+00  1.40429311e+00 
 4.31311181e-07  2.49141789e-04 -1.40431311e+00  1.40431311e+00 
 4.33311181e-07 -2.33630033e-04 -1.40433311e+00  1.40433311e+00 
 4.35311181e-07  2.17954969e-04 -1.40435311e+00  1.40435311e+00 
 4.37311181e-07 -2.02823674e-04 -1.40437311e+00  1.40437311e+00 
 4.39311181e-07  1.87451347e-04 -1.40439311e+00  1.40439311e+00 
 4.41311181e-07 -1.72694308e-04 -1.40441311e+00  1.40441311e+00 
 4.43311181e-07  1.57621917e-04 -1.40443311e+00  1.40443311e+00 
 4.45311181e-07 -1.43232958e-04 -1.40445311e+00  1.40445311e+00 
 4.47311181e-07  1.28457643e-04 -1.40447311e+00  1.40447311e+00 
 4.49311181e-07 -1.14430618e-04 -1.40449311e+00  1.40449311e+00 
 4.51311181e-07  9.99494657e-05 -1.40451311e+00  1.40451311e+00 
 4.53311181e-07 -8.62782646e-05 -1.40453311e+00  1.40453311e+00 
 4.55311181e-07  7.20883092e-05 -1.40455311e+00  1.40455311e+00 
 4.57311181e-07 -5.87668572e-05 -1.40457311e+00  1.40457311e+00 
 4.59311181e-07  4.48650884e-05 -1.40459311e+00  1.40459311e+00 
 4.61311181e-07 -3.18873537e-05 -1.40461311e+00  1.40461311e+00 
 4.63311181e-07  1.82707182e-05 -1.40463311e+00  1.40463311e+00 
 4.65311181e-07 -5.63097405e-06 -1.40465311e+00  1.40465311e+00 
 4.67311181e-07 -7.70426692e-06 -1.40467311e+00  1.40467311e+00 
 4.69311181e-07  2.00118807e-05 -1.40469311e+00  1.40469311e+00 
 4.71311181e-07 -3.30681948e-05 -1.40471311e+00  1.40471311e+00 
 4.73311181e-07  4.50499200e-05 -1.40473311e+00  1.40473311e+00 
 4.75311181e-07 -5.78304672e-05 -1.40475311e+00  1.40475311e+00 
 4.77311181e-07  6.94921389e-05 -1.40477311e+00  1.40477311e+00 
 4.79311181e-07 -8.20001079e-05 -1.40479311e+00  1.40479311e+00 
 4.81311181e-07  9.33475057e-05 -1.40481311e+00  1.40481311e+00 
 4.83311181e-07 -1.05586111e-04 -1.40483311e+00  1.40483311e+00 
 4.85311181e-07  1.16624957e-04 -1.40485311e+00  1.40485311e+00 
 4.87311181e-07 -1.28597435e-04 -1.40487311e+00  1.40487311e+00 
 4.89311181e-07  1.39333393e-04 -1.40489311e+00  1.40489311e+00 
 4.91311181e-07 -1.51042999e-04 -1.40491311e+00  1.40491311e+00 
 4.93311181e-07  1.61481672e-04 -1.40493311e+00  1.40493311e+00 
 4.95311181e-07 -1.72931680e-04 -1.40495311e+00  1.40495311e+00 
 4.97311181e-07  1.83078608e-04 -1.40497311e+00  1.40497311e+00 
 4.99311181e-07 -1.94272305e-04 -1.40499311e+00  1.40499311e+00 
 5.00000000e-07  2.23667737e-04 -1.40500000e+00  1.40500000e+00 
 5.00057626e-07 -1.16785218e-04  9.49994237e-02  1.40500058e+00 
 5.00172879e-07  4.89930835e-03  9.49982712e-02  1.40500173e+00 
 5.00271322e-07 -7.26431730e-03  9.49972868e-02  1.40500271e+00 
 5.00386503e-07  7.40173168e-03  9.49961350e-02  1.40500387e+00 
 5.00591764e-07 -7.09767546e-03  9.49940824e-02  1.40500592e+00 
 5.00800914e-07  6.66669362e-03  9.49919909e-02  1.40500801e+00 
 5.01219212e-07 -6.41650970e-03  9.49878079e-02  1.40501219e+00 
 5.01838025e-07  6.24739841e-03  9.49816197e-02  1.40501838e+00 
 5.02909256e-07 -6.14033622e-03  9.49709074e-02  1.40502909e+00 
 5.04843358e-07  6.08885561e-03  9.49515664e-02  1.40504843e+00 
 5.06843358e-07 -6.02775602e-03  9.49315664e-02  1.40506843e+00 
 5.08843358e-07  5.97813400e-03  9.49115664e-02  1.40508843e+00 
 5.10843358e-07 -5.91600308e-03  9.48915664e-02  1.40510843e+00 
 5.12843358e-07  5.86655684e-03  9.48715664e-02  1.40512843e+00 
 5.14843358e-07 -5.80371648e-03  9.48515664e-02  1.40514843e+00 
 5.16843358e-07  5.75447101e-03  9.48315664e-02  1.40516843e+00 
 5.18843358e-07 -5.69111547e-03  9.48115664e-02  1.40518843e+00 
 5.20843358e-07  5.64210035e-03  9.47915664e-02  1.40520843e+00 
 5.22843358e-07 -5.57840698e-03  9.47715664e-02  1.40522843e+00 
 5.24843358e-07  5.52965090e-03  9.47515664e-02  1.40524843e+00 
 5.26843358e-07 -5.46578114e-03  9.47315664e-02  1.40526843e+00 
 5.28843358e-07  5.41731180e-03  9.47115664e-02  1.40528843e+00 
 5.30843358e-07 -5.35341227e-03  9.46915664e-02  1.40530843e+00 
 5.32843358e-07  5.30525634e-03  9.46715664e-02  1.40532843e+00 
 5.34843358e-07 -5.24145991e-03  9.46515664e-02  1.40534843e+00 
 5.36843358e-07  5.19364302e-03  9.46315664e-02  1.40536843e+00 
 5.38843358e-07 -5.13006978e-03  9.46115664e-02  1.40538843e+00 
 5.40843358e-07  5.08261649e-03  9.45915664e-02  1.40540843e+00 
 5.42843358e-07 -5.01937469e-03  9.45715664e-02  1.40542843e+00 
 5.44843358e-07  4.97230846e-03  9.45515664e-02  1.40544843e+00 
 5.46843358e-07 -4.90949537e-03  9.45315664e-02  1.40546843e+00 
 5.48843358e-07  4.86283859e-03  9.45115664e-02  1.40548843e+00 
 5.50843358e-07 -4.80054133e-03  9.44915664e-02  1.40550843e+00 
