 time            v(Q)            v(A)-v(B)       v(B)           
 0.00000000e+00  1.79999999e+00 -1.00000000e+00  1.00000000e+00 
 2.00000000e-11  1.79999999e+00 -1.00000020e+00  1.00000020e+00 
 4.00000000e-11  1.79999999e+00 -1.00000040e+00  1.00000040e+00 
 8.00000000e-11  1.79999999e+00 -1.00000080e+00  1.00000080e+00 
 1.60000000e-10  1.79999999e+00 -1.00000160e+00  1.00000160e+00 
 3.20000000e-10  1.79999999e+00 -1.00000320e+00  1.00000320e+00 
 6.40000000e-10  1.79999999e+00 -1.00000640e+00  1.00000640e+00 
 1.28000000e-09  1.79999999e+00 -1.00001280e+00  1.00001280e+00 
 2.56000000e-09  1.79999999e+00 -1.00002560e+00  1.00002560e+00 
 4.56000000e-09  1.79999999e+00 -1.00004560e+00  1.00004560e+00 
 6.56000000e-09  1.79999999e+00 -1.00006560e+00  1.00006560e+00 
 8.56000000e-09  1.79999999e+00 -1.00008560e+00  1.00008560e+00 
 1.05600000e-08  1.79999999e+00 -1.00010560e+00  1.00010560e+00 
 1.25600000e-08  1.79999999e+00 -1.00012560e+00  1.00012560e+00 
 1.45600000e-08  1.79999999e+00 -1.00014560e+00  1.00014560e+00 
 1.65600000e-08  1.79999999e+00 -1.00016560e+00  1.00016560e+00 
 1.85600000e-08  1.79999999e+00 -1.00018560e+00  1.00018560e+00 
 2.05600000e-08  1.79999999e+00 -1.00020560e+00  1.00020560e+00 
 2.25600000e-08  1.79999999e+00 -1.00022560e+00  1.00022560e+00 
 2.45600000e-08  1.79999999e+00 -1.00024560e+00  1.00024560e+00 
 2.65600000e-08  1.79999999e+00 -1.00026560e+00  1.00026560e+00 
 2.85600000e-08  1.79999999e+00 -1.00028560e+00  1.00028560e+00 
 3.05600000e-08  1.79999999e+00 -1.00030560e+00  1.00030560e+00 
 3.25600000e-08  1.79999999e+00 -1.00032560e+00  1.00032560e+00 
 3.45600000e-08  1.79999999e+00 -1.00034560e+00  1.00034560e+00 
 3.65600000e-08  1.79999999e+00 -1.00036560e+00  1.00036560e+00 
 3.85600000e-08  1.79999999e+00 -1.00038560e+00  1.00038560e+00 
 4.05600000e-08  1.79999999e+00 -1.00040560e+00  1.00040560e+00 
 4.25600000e-08  1.79999999e+00 -1.00042560e+00  1.00042560e+00 
 4.45600000e-08  1.79999999e+00 -1.00044560e+00  1.00044560e+00 
 4.65600000e-08  1.79999999e+00 -1.00046560e+00  1.00046560e+00 
 4.85600000e-08  1.79999999e+00 -1.00048560e+00  1.00048560e+00 
 5.05600000e-08  1.79999999e+00 -1.00050560e+00  1.00050560e+00 
 5.25600000e-08  1.79999999e+00 -1.00052560e+00  1.00052560e+00 
 5.45600000e-08  1.79999999e+00 -1.00054560e+00  1.00054560e+00 
 5.65600000e-08  1.79999999e+00 -1.00056560e+00  1.00056560e+00 
 5.85600000e-08  1.79999999e+00 -1.00058560e+00  1.00058560e+00 
 6.05600000e-08  1.79999999e+00 -1.00060560e+00  1.00060560e+00 
 6.25600000e-08  1.79999999e+00 -1.00062560e+00  1.00062560e+00 
 6.45600000e-08  1.79999999e+00 -1.00064560e+00  1.00064560e+00 
 6.65600000e-08  1.79999999e+00 -1.00066560e+00  1.00066560e+00 
 6.85600000e-08  1.79999999e+00 -1.00068560e+00  1.00068560e+00 
 7.05600000e-08  1.79999999e+00 -1.00070560e+00  1.00070560e+00 
 7.25600000e-08  1.79999999e+00 -1.00072560e+00  1.00072560e+00 
 7.45600000e-08  1.79999999e+00 -1.00074560e+00  1.00074560e+00 
 7.65600000e-08  1.79999999e+00 -1.00076560e+00  1.00076560e+00 
 7.85600000e-08  1.79999999e+00 -1.00078560e+00  1.00078560e+00 
 8.05600000e-08  1.79999999e+00 -1.00080560e+00  1.00080560e+00 
 8.25600000e-08  1.79999999e+00 -1.00082560e+00  1.00082560e+00 
 8.45600000e-08  1.79999999e+00 -1.00084560e+00  1.00084560e+00 
 8.65600000e-08  1.79999999e+00 -1.00086560e+00  1.00086560e+00 
 8.85600000e-08  1.79999999e+00 -1.00088560e+00  1.00088560e+00 
 9.05600000e-08  1.79999999e+00 -1.00090560e+00  1.00090560e+00 
 9.25600000e-08  1.79999999e+00 -1.00092560e+00  1.00092560e+00 
 9.45600000e-08  1.79999999e+00 -1.00094560e+00  1.00094560e+00 
 9.65600000e-08  1.79999999e+00 -1.00096560e+00  1.00096560e+00 
 9.85600000e-08  1.79999999e+00 -1.00098560e+00  1.00098560e+00 
 1.00000000e-07  1.79999999e+00 -1.00100000e+00  1.00100000e+00 
 1.00010000e-07  1.80001132e+00 -1.00100010e+00  1.00100010e+00 
 1.00030000e-07  1.79998736e+00 -1.00100030e+00  1.00100030e+00 
 1.00070000e-07  1.79994071e+00 -1.00100070e+00  1.00100070e+00 
 1.00100000e-07  1.80005343e+00 -1.00100100e+00  1.00100100e+00 
 1.00107614e-07  1.80029266e+00 -1.00100108e+00  1.00100108e+00 
 1.00122843e-07  1.80050510e+00 -1.00100123e+00  1.00100123e+00 
 1.00153301e-07  1.79970469e+00 -1.00100153e+00  1.00100153e+00 
 1.00214216e-07  1.79819998e+00 -1.00100214e+00  1.00100214e+00 
 1.00292066e-07  1.44343880e+00 -1.00100292e+00  1.00100292e+00 
 1.00385854e-07  9.46847206e-02 -1.00100386e+00  1.00100386e+00 
 1.00483930e-07 -7.03816027e-02 -1.00100484e+00  1.00100484e+00 
 1.00601113e-07  5.99146226e-02 -1.00100601e+00  1.00100601e+00 
 1.00778695e-07 -5.14749834e-02 -1.00100779e+00  1.00100779e+00 
 1.01070949e-07  4.88334669e-02 -1.00101071e+00  1.00101071e+00 
 1.01488533e-07 -4.54469832e-02 -1.00101489e+00  1.00101489e+00 
 1.02191280e-07  4.49075581e-02 -1.00102191e+00  1.00102191e+00 
 1.03271875e-07 -4.32411830e-02 -1.00103272e+00  1.00103272e+00 
 1.05241158e-07  4.35304592e-02 -1.00105241e+00  1.00105241e+00 
 1.07241158e-07 -4.23311623e-02 -1.00107241e+00  1.00107241e+00 
 1.09241158e-07  4.25974899e-02 -1.00109241e+00  1.00109241e+00 
 1.11241158e-07 -4.14711630e-02 -1.00111241e+00  1.00111241e+00 
 1.13241158e-07  4.16890141e-02 -1.00113241e+00  1.00113241e+00 
 1.15241158e-07 -4.06078979e-02 -1.00115241e+00  1.00115241e+00 
 1.17241158e-07  4.08027164e-02 -1.00117241e+00  1.00117241e+00 
 1.19241158e-07 -3.97646517e-02 -1.00119241e+00  1.00119241e+00 
 1.21241158e-07  3.99379453e-02 -1.00121241e+00  1.00121241e+00 
 1.23241158e-07 -3.89408788e-02 -1.00123241e+00  1.00123241e+00 
 1.25241158e-07  3.90940625e-02 -1.00125241e+00  1.00125241e+00 
 1.27241158e-07 -3.81360505e-02 -1.00127241e+00  1.00127241e+00 
 1.29241158e-07  3.82704530e-02 -1.00129241e+00  1.00129241e+00 
 1.31241158e-07 -3.73496554e-02 -1.00131241e+00  1.00131241e+00 
 1.33241158e-07  3.74665245e-02 -1.00133241e+00  1.00133241e+00 
 1.35241158e-07 -3.65811986e-02 -1.00135241e+00  1.00135241e+00 
 1.37241158e-07  3.66817064e-02 -1.00137241e+00  1.00137241e+00 
 1.39241158e-07 -3.58302014e-02 -1.00139241e+00  1.00139241e+00 
 1.41241158e-07  3.59154483e-02 -1.00141241e+00  1.00141241e+00 
 1.43241158e-07 -3.50962007e-02 -1.00143241e+00  1.00143241e+00 
 1.45241158e-07  3.51672199e-02 -1.00145241e+00  1.00145241e+00 
 1.47241158e-07 -3.43787477e-02 -1.00147241e+00  1.00147241e+00 
 1.49241158e-07  3.44365094e-02 -1.00149241e+00  1.00149241e+00 
 1.51241158e-07 -3.36774084e-02 -1.00151241e+00  1.00151241e+00 
 1.53241158e-07  3.37228233e-02 -1.00153241e+00  1.00153241e+00 
 1.55241158e-07 -3.29917621e-02 -1.00155241e+00  1.00155241e+00 
 1.57241158e-07  3.30256852e-02 -1.00157241e+00  1.00157241e+00 
 1.59241158e-07 -3.23214013e-02 -1.00159241e+00  1.00159241e+00 
 1.61241158e-07  3.23446353e-02 -1.00161241e+00  1.00161241e+00 
 1.63241158e-07 -3.16659313e-02 -1.00163241e+00  1.00163241e+00 
 1.65241158e-07  3.16792296e-02 -1.00165241e+00  1.00165241e+00 
 1.67241158e-07 -3.10249696e-02 -1.00167241e+00  1.00167241e+00 
 1.69241158e-07  3.10290394e-02 -1.00169241e+00  1.00169241e+00 
 1.71241158e-07 -3.03917304e-02 -1.00171241e+00  1.00171241e+00 
 1.73241158e-07  3.03937355e-02 -1.00173241e+00  1.00173241e+00 
 1.75241158e-07 -2.97851787e-02 -1.00175241e+00  1.00175241e+00 
 1.77241158e-07  2.97727444e-02 -1.00177241e+00  1.00177241e+00 
 1.79241158e-07 -2.91855592e-02 -1.00179241e+00  1.00179241e+00 
 1.81241158e-07  2.91657672e-02 -1.00181241e+00  1.00181241e+00 
 1.83241158e-07 -2.85990309e-02 -1.00183241e+00  1.00183241e+00 
 1.85241158e-07  2.85724299e-02 -1.00185241e+00  1.00185241e+00 
 1.87241158e-07 -2.80252661e-02 -1.00187241e+00  1.00187241e+00 
 1.89241158e-07  2.79923709e-02 -1.00189241e+00  1.00189241e+00 
 1.91241158e-07 -2.74639467e-02 -1.00191241e+00  1.00191241e+00 
 1.93241158e-07  2.74252401e-02 -1.00193241e+00  1.00193241e+00 
 1.95241158e-07 -2.69147639e-02 -1.00195241e+00  1.00195241e+00 
 1.97241158e-07  2.68706990e-02 -1.00197241e+00  1.00197241e+00 
 1.99241158e-07 -2.63774182e-02 -1.00199241e+00  1.00199241e+00 
 2.01241158e-07  2.63284198e-02 -1.00201241e+00  1.00201241e+00 
 2.03241158e-07 -2.58516187e-02 -1.00203241e+00  1.00203241e+00 
 2.05241158e-07  2.57980854e-02 -1.00205241e+00  1.00205241e+00 
 2.07241158e-07 -2.53370831e-02 -1.00207241e+00  1.00207241e+00 
 2.09241158e-07  2.52793885e-02 -1.00209241e+00  1.00209241e+00 
 2.11241158e-07 -2.48335371e-02 -1.00211241e+00  1.00211241e+00 
 2.13241158e-07  2.47720318e-02 -1.00213241e+00  1.00213241e+00 
 2.15241158e-07 -2.43407147e-02 -1.00215241e+00  1.00215241e+00 
 2.17241158e-07  2.42757271e-02 -1.00217241e+00  1.00217241e+00 
 2.19241158e-07 -2.38583570e-02 -1.00219241e+00  1.00219241e+00 
 2.21241158e-07  2.37901951e-02 -1.00221241e+00  1.00221241e+00 
 2.23241158e-07 -2.33862129e-02 -1.00223241e+00  1.00223241e+00 
 2.25241158e-07  2.33151653e-02 -1.00225241e+00  1.00225241e+00 
 2.27241158e-07 -2.29240384e-02 -1.00227241e+00  1.00227241e+00 
 2.29241158e-07  2.28503754e-02 -1.00229241e+00  1.00229241e+00 
 2.31241158e-07 -2.24715960e-02 -1.00231241e+00  1.00231241e+00 
 2.33241158e-07  2.23955711e-02 -1.00233241e+00  1.00233241e+00 
 2.35241158e-07 -2.20286554e-02 -1.00235241e+00  1.00235241e+00 
 2.37241158e-07  2.19505058e-02 -1.00237241e+00  1.00237241e+00 
 2.39241158e-07 -2.15949923e-02 -1.00239241e+00  1.00239241e+00 
 2.41241158e-07  2.15149401e-02 -1.00241241e+00  1.00241241e+00 
 2.43241158e-07 -2.11703889e-02 -1.00243241e+00  1.00243241e+00 
 2.45241158e-07  2.10886422e-02 -1.00245241e+00  1.00245241e+00 
 2.47241158e-07 -2.07546333e-02 -1.00247241e+00  1.00247241e+00 
 2.49241158e-07  2.06713866e-02 -1.00249241e+00  1.00249241e+00 
 2.51241158e-07 -2.03475194e-02 -1.00251241e+00  1.00251241e+00 
 2.53241158e-07  2.02629548e-02 -1.00253241e+00  1.00253241e+00 
 2.55241158e-07 -1.99488468e-02 -1.00255241e+00  1.00255241e+00 
 2.57241158e-07  1.98631346e-02 -1.00257241e+00  1.00257241e+00 
 2.59241158e-07 -1.95584206e-02 -1.00259241e+00  1.00259241e+00 
 2.61241158e-07  1.94717200e-02 -1.00261241e+00  1.00261241e+00 
 2.63241158e-07 -1.91760511e-02 -1.00263241e+00  1.00263241e+00 
 2.65241158e-07  1.90885108e-02 -1.00265241e+00  1.00265241e+00 
 2.67241158e-07 -1.88015537e-02 -1.00267241e+00  1.00267241e+00 
 2.69241158e-07  1.87133127e-02 -1.00269241e+00  1.00269241e+00 
 2.71241158e-07 -1.84347487e-02 -1.00271241e+00  1.00271241e+00 
 2.73241158e-07  1.83459367e-02 -1.00273241e+00  1.00273241e+00 
 2.75241158e-07 -1.80754613e-02 -1.00275241e+00  1.00275241e+00 
 2.77241158e-07  1.79861994e-02 -1.00277241e+00  1.00277241e+00 
 2.79241158e-07 -1.77235214e-02 -1.00279241e+00  1.00279241e+00 
 2.81241158e-07  1.76339225e-02 -1.00281241e+00  1.00281241e+00 
 2.83241158e-07 -1.73787632e-02 -1.00283241e+00  1.00283241e+00 
 2.85241158e-07  1.72889325e-02 -1.00285241e+00  1.00285241e+00 
 2.87241158e-07 -1.70410252e-02 -1.00287241e+00  1.00287241e+00 
 2.89241158e-07  1.69510610e-02 -1.00289241e+00  1.00289241e+00 
 2.91241158e-07 -1.67101505e-02 -1.00291241e+00  1.00291241e+00 
 2.93241158e-07  1.66201438e-02 -1.00293241e+00  1.00293241e+00 
 2.95241158e-07 -1.63859859e-02 -1.00295241e+00  1.00295241e+00 
 2.97241158e-07  1.62960217e-02 -1.00297241e+00  1.00297241e+00 
 2.99241158e-07 -1.60683823e-02 -1.00299241e+00  1.00299241e+00 
 3.01241158e-07  1.59785396e-02 -1.00301241e+00  1.00301241e+00 
 3.03241158e-07 -1.57571945e-02 -1.00303241e+00  1.00303241e+00 
 3.05241158e-07  1.56675464e-02 -1.00305241e+00  1.00305241e+00 
 3.07241158e-07 -1.54522809e-02 -1.00307241e+00  1.00307241e+00 
 3.09241158e-07  1.53628955e-02 -1.00309241e+00  1.00309241e+00 
 3.11241158e-07 -1.51535035e-02 -1.00311241e+00  1.00311241e+00 
 3.13241158e-07  1.50644439e-02 -1.00313241e+00  1.00313241e+00 
 3.15241158e-07 -1.48607280e-02 -1.00315241e+00  1.00315241e+00 
 3.17241158e-07  1.47720525e-02 -1.00317241e+00  1.00317241e+00 
 3.19241158e-07 -1.45738233e-02 -1.00319241e+00  1.00319241e+00 
 3.21241158e-07  1.44855858e-02 -1.00321241e+00  1.00321241e+00 
 3.23241158e-07 -1.42926617e-02 -1.00323241e+00  1.00323241e+00 
 3.25241158e-07  1.42049120e-02 -1.00325241e+00  1.00325241e+00 
 3.27241158e-07 -1.40171185e-02 -1.00327241e+00  1.00327241e+00 
 3.29241158e-07  1.39299026e-02 -1.00329241e+00  1.00329241e+00 
 3.31241158e-07 -1.37470724e-02 -1.00331241e+00  1.00331241e+00 
 3.33241158e-07  1.36604325e-02 -1.00333241e+00  1.00333241e+00 
 3.35241158e-07 -1.34824050e-02 -1.00335241e+00  1.00335241e+00 
 3.37241158e-07  1.33963799e-02 -1.00337241e+00  1.00337241e+00 
 3.39241158e-07 -1.32230006e-02 -1.00339241e+00  1.00339241e+00 
 3.41241158e-07  1.31376260e-02 -1.00341241e+00  1.00341241e+00 
 3.43241158e-07 -1.29687465e-02 -1.00343241e+00  1.00343241e+00 
 3.45241158e-07  1.28840551e-02 -1.00345241e+00  1.00345241e+00 
 3.47241158e-07 -1.27195330e-02 -1.00347241e+00  1.00347241e+00 
 3.49241158e-07  1.26355544e-02 -1.00349241e+00  1.00349241e+00 
 3.51241158e-07 -1.24752527e-02 -1.00351241e+00  1.00351241e+00 
 3.53241158e-07  1.23920140e-02 -1.00353241e+00  1.00353241e+00 
 3.55241158e-07 -1.22358009e-02 -1.00355241e+00  1.00355241e+00 
 3.57241158e-07  1.21533267e-02 -1.00357241e+00  1.00357241e+00 
 3.59241158e-07 -1.20010755e-02 -1.00359241e+00  1.00359241e+00 
 3.61241158e-07  1.19193881e-02 -1.00361241e+00  1.00361241e+00 
 3.63241158e-07 -1.17709768e-02 -1.00363241e+00  1.00363241e+00 
 3.65241158e-07  1.16900962e-02 -1.00365241e+00  1.00365241e+00 
 3.67241158e-07 -1.15454075e-02 -1.00367241e+00  1.00367241e+00 
 3.69241158e-07  1.14653516e-02 -1.00369241e+00  1.00369241e+00 
 3.71241158e-07 -1.13242727e-02 -1.00371241e+00  1.00371241e+00 
 3.73241158e-07  1.12450575e-02 -1.00373241e+00  1.00373241e+00 
 3.75241158e-07 -1.11074795e-02 -1.00375241e+00  1.00375241e+00 
 3.77241158e-07  1.10291192e-02 -1.00377241e+00  1.00377241e+00 
 3.79241158e-07 -1.08949374e-02 -1.00379241e+00  1.00379241e+00 
 3.81241158e-07  1.08174445e-02 -1.00381241e+00  1.00381241e+00 
 3.83241158e-07 -1.06865581e-02 -1.00383241e+00  1.00383241e+00 
 3.85241158e-07  1.06099434e-02 -1.00385241e+00  1.00385241e+00 
 3.87241158e-07 -1.04822550e-02 -1.00387241e+00  1.00387241e+00 
 3.89241158e-07  1.04065280e-02 -1.00389241e+00  1.00389241e+00 
 3.91241158e-07 -1.02819439e-02 -1.00391241e+00  1.00391241e+00 
 3.93241158e-07  1.02071126e-02 -1.00393241e+00  1.00393241e+00 
 3.95241158e-07 -1.00855425e-02 -1.00395241e+00  1.00395241e+00 
 3.97241158e-07  1.00116134e-02 -1.00397241e+00  1.00397241e+00 
 3.99241158e-07 -9.89297008e-03 -1.00399241e+00  1.00399241e+00 
 4.01241158e-07  9.81994866e-03 -1.00401241e+00  1.00401241e+00 
 4.03241158e-07 -9.70414815e-03 -1.00403241e+00  1.00403241e+00 
 4.05241158e-07  9.63203869e-03 -1.00405241e+00  1.00405241e+00 
 4.07241158e-07 -9.51899983e-03 -1.00407241e+00  1.00407241e+00 
 4.09241158e-07  9.44780554e-03 -1.00409241e+00  1.00409241e+00 
 4.11241158e-07 -9.33745004e-03 -1.00411241e+00  1.00411241e+00 
 4.13241158e-07  9.26717310e-03 -1.00413241e+00  1.00413241e+00 
 4.15241158e-07 -9.15942539e-03 -1.00415241e+00  1.00415241e+00 
 4.17241158e-07  9.09006707e-03 -1.00417241e+00  1.00417241e+00 
 4.19241158e-07 -8.98485418e-03 -1.00419241e+00  1.00419241e+00 
 4.21241158e-07  8.91641486e-03 -1.00421241e+00  1.00421241e+00 
 4.23241158e-07 -8.81366630e-03 -1.00423241e+00  1.00423241e+00 
 4.25241158e-07  8.74614553e-03 -1.00425241e+00  1.00425241e+00 
 4.27241158e-07 -8.64579322e-03 -1.00427241e+00  1.00427241e+00 
 4.29241158e-07  8.57918981e-03 -1.00429241e+00  1.00429241e+00 
 4.31241158e-07 -8.48116794e-03 -1.00431241e+00  1.00431241e+00 
 4.33241158e-07  8.41548000e-03 -1.00433241e+00  1.00433241e+00 
 4.35241158e-07 -8.31972498e-03 -1.00435241e+00  1.00435241e+00 
 4.37241158e-07  8.25494993e-03 -1.00437241e+00  1.00437241e+00 
 4.39241158e-07 -8.16140028e-03 -1.00439241e+00  1.00439241e+00 
 4.41241158e-07  8.09753495e-03 -1.00441241e+00  1.00441241e+00 
 4.43241158e-07 -8.00613122e-03 -1.00443241e+00  1.00443241e+00 
 4.45241158e-07  7.94317187e-03 -1.00445241e+00  1.00445241e+00 
 4.47241158e-07 -7.85385655e-03 -1.00447241e+00  1.00447241e+00 
 4.49241158e-07  7.79179891e-03 -1.00449241e+00  1.00449241e+00 
 4.51241158e-07 -7.70451636e-03 -1.00451241e+00  1.00451241e+00 
 4.53241158e-07  7.64335568e-03 -1.00453241e+00  1.00453241e+00 
 4.55241158e-07 -7.55805208e-03 -1.00455241e+00  1.00455241e+00 
 4.57241158e-07  7.49778314e-03 -1.00457241e+00  1.00457241e+00 
 4.59241158e-07 -7.41440639e-03 -1.00459241e+00  1.00459241e+00 
 4.61241158e-07  7.35502357e-03 -1.00461241e+00  1.00461241e+00 
 4.63241158e-07 -7.27352322e-03 -1.00463241e+00  1.00463241e+00 
 4.65241158e-07  7.21502052e-03 -1.00465241e+00  1.00465241e+00 
 4.67241158e-07 -7.13534773e-03 -1.00467241e+00  1.00467241e+00 
 4.69241158e-07  7.07771878e-03 -1.00469241e+00  1.00469241e+00 
 4.71241158e-07 -6.99982625e-03 -1.00471241e+00  1.00471241e+00 
 4.73241158e-07  6.94306437e-03 -1.00473241e+00  1.00473241e+00 
 4.75241158e-07 -6.86690627e-03 -1.00475241e+00  1.00475241e+00 
 4.77241158e-07  6.81100448e-03 -1.00477241e+00  1.00477241e+00 
 4.79241158e-07 -6.73653641e-03 -1.00479241e+00  1.00479241e+00 
 4.81241158e-07  6.68148745e-03 -1.00481241e+00  1.00481241e+00 
 4.83241158e-07 -6.60866638e-03 -1.00483241e+00  1.00483241e+00 
 4.85241158e-07  6.55446276e-03 -1.00485241e+00  1.00485241e+00 
 4.87241158e-07 -6.48324698e-03 -1.00487241e+00  1.00487241e+00 
 4.89241158e-07  6.42988096e-03 -1.00489241e+00  1.00489241e+00 
 4.91241158e-07 -6.36023003e-03 -1.00491241e+00  1.00491241e+00 
 4.93241158e-07  6.30769368e-03 -1.00493241e+00  1.00493241e+00 
 4.95241158e-07 -6.23956840e-03 -1.00495241e+00  1.00495241e+00 
 4.97241158e-07  6.18785361e-03 -1.00497241e+00  1.00497241e+00 
 4.99241158e-07 -6.12121594e-03 -1.00499241e+00  1.00499241e+00 
 5.00000000e-07  5.97599680e-03 -1.00500000e+00  1.00500000e+00 
 5.00086816e-07  3.33455142e-04  9.49991318e-02  1.00500087e+00 
 5.00260448e-07 -3.05218995e-04  9.49973955e-02  1.00500260e+00 
 5.00424804e-07  3.91683271e-03  9.49957520e-02  1.00500425e+00 
 5.00607826e-07 -4.18885524e-03  9.49939217e-02  1.00500608e+00 
 5.00806706e-07  5.03133114e-03  9.49919329e-02  1.00500807e+00 
 5.01134921e-07 -5.21344800e-03  9.49886508e-02  1.00501135e+00 
 5.01478568e-07  5.28113622e-03  9.49852143e-02  1.00501479e+00 
 5.02165862e-07 -5.28750756e-03  9.49783414e-02  1.00502166e+00 
 5.03239986e-07  5.27394904e-03  9.49676001e-02  1.00503240e+00 
 5.05022159e-07 -5.27451613e-03  9.49497784e-02  1.00505022e+00 
 5.07022159e-07  5.25608574e-03  9.49297784e-02  1.00507022e+00 
 5.09022159e-07 -5.25414765e-03  9.49097784e-02  1.00509022e+00 
 5.11022159e-07  5.23281581e-03  9.48897784e-02  1.00511022e+00 
 5.13022159e-07 -5.22657675e-03  9.48697784e-02  1.00513022e+00 
 5.15022159e-07  5.20324489e-03  9.48497784e-02  1.00515022e+00 
 5.17022159e-07 -5.19288148e-03  9.48297784e-02  1.00517022e+00 
 5.19022159e-07  5.16795860e-03  9.48097784e-02  1.00519022e+00 
 5.21022159e-07 -5.15370054e-03  9.47897784e-02  1.00521022e+00 
 5.23022159e-07  5.12744140e-03  9.47697784e-02  1.00523022e+00 
 5.25022159e-07 -5.10990968e-03  9.47497784e-02  1.00525022e+00 
 5.27022159e-07  5.08172760e-03  9.47297784e-02  1.00527022e+00 
 5.29022159e-07 -5.06100489e-03  9.47097784e-02  1.00529022e+00 
 5.31022159e-07  5.03200915e-03  9.46897784e-02  1.00531022e+00 
 5.33022159e-07 -5.00808387e-03  9.46697784e-02  1.00533022e+00 
 5.35022159e-07  4.97837188e-03  9.46497784e-02  1.00535022e+00 
 5.37022159e-07 -4.95156549e-03  9.46297784e-02  1.00537022e+00 
 5.39022159e-07  4.92120494e-03  9.46097784e-02  1.00539022e+00 
 5.41022159e-07 -4.89183598e-03  9.45897784e-02  1.00541022e+00 
 5.43022159e-07  4.86088953e-03  9.45697784e-02  1.00543022e+00 
 5.45022159e-07 -4.82925210e-03  9.45497784e-02  1.00545022e+00 
 5.47022159e-07  4.79778112e-03  9.45297784e-02  1.00547022e+00 
 5.49022159e-07 -4.76414431e-03  9.45097784e-02  1.00549022e+00 
