 time            v(Q)            v(A)-v(B)       v(B)           
 0.00000000e+00  1.79999999e+00  2.00000000e-01  0.00000000e+00 
 1.00000000e-09  1.79999999e+00  2.00000004e-01  0.00000000e+00 
 2.00000000e-09  1.79999999e+00  2.00000008e-01  0.00000000e+00 
 4.00000000e-09  1.79999999e+00  2.00000016e-01  0.00000000e+00 
 8.00000000e-09  1.79999999e+00  2.00000032e-01  0.00000000e+00 
 1.60000000e-08  1.79999999e+00  2.00000064e-01  0.00000000e+00 
 3.20000000e-08  1.79999999e+00  2.00000128e-01  0.00000000e+00 
 6.40000000e-08  1.79999999e+00  2.00000256e-01  0.00000000e+00 
 1.00000000e-07  1.79999999e+00  2.00000400e-01  0.00000000e+00 
 1.00010000e-07  1.80001218e+00  2.00000400e-01  0.00000000e+00 
 1.00030000e-07  1.79998712e+00  2.00000400e-01  0.00000000e+00 
 1.00070000e-07  1.79993232e+00  2.00000400e-01  0.00000000e+00 
 1.00100000e-07  1.80006562e+00  2.00000400e-01  0.00000000e+00 
 1.00107643e-07  1.80045203e+00  2.00000400e-01  0.00000000e+00 
 1.00122928e-07  1.80054030e+00  2.00000400e-01  0.00000000e+00 
 1.00153499e-07  1.79974690e+00  2.00000401e-01  0.00000000e+00 
 1.00214640e-07  1.79993450e+00  2.00000401e-01  0.00000000e+00 
 1.00287796e-07  1.79811899e+00  2.00000401e-01  0.00000000e+00 
 1.00434110e-07  1.78344897e+00  2.00000402e-01  0.00000000e+00 
 1.00583811e-07  1.81182216e+00  2.00000402e-01  0.00000000e+00 
 1.00746424e-07  1.79015280e+00  2.00000403e-01  0.00000000e+00 
 1.01018318e-07  1.80822611e+00  2.00000404e-01  0.00000000e+00 
 1.01396088e-07  1.79230969e+00  2.00000406e-01  0.00000000e+00 
 1.02151629e-07  1.80707111e+00  2.00000409e-01  0.00000000e+00 
 1.03367314e-07  1.79295366e+00  2.00000413e-01  0.00000000e+00 
 1.05740530e-07  1.80674264e+00  2.00000423e-01  0.00000000e+00 
 1.10039728e-07  1.79314331e+00  2.00000440e-01  0.00000000e+00 
 1.18638125e-07  1.80665401e+00  2.00000475e-01  0.00000000e+00 
 1.35834919e-07  1.79319206e+00  2.00000543e-01  0.00000000e+00 
 1.69076492e-07  1.80663193e+00  2.00000676e-01  0.00000000e+00 
 2.35559637e-07  1.79320665e+00  2.00000942e-01  0.00000000e+00 
 3.68525928e-07  1.80662629e+00  2.00001474e-01  0.00000000e+00 
 6.34458510e-07  1.79320989e+00  2.00002538e-01  0.00000000e+00 
 1.16632367e-06  1.80662487e+00  2.00004665e-01  0.00000000e+00 
 2.23005400e-06  1.79321070e+00  2.00008920e-01  0.00000000e+00 
 4.23005400e-06  1.80662451e+00  2.00016920e-01  0.00000000e+00 
 6.23005400e-06  1.79321099e+00  2.00024920e-01  0.00000000e+00 
 8.23005400e-06  1.80662425e+00  2.00032920e-01  0.00000000e+00 
 1.02300540e-05  1.79321127e+00  2.00040920e-01  0.00000000e+00 
 1.22300540e-05  1.80662398e+00  2.00048920e-01  0.00000000e+00 
 1.42300540e-05  1.79321154e+00  2.00056920e-01  0.00000000e+00 
 1.62300540e-05  1.80662371e+00  2.00064920e-01  0.00000000e+00 
 1.82300540e-05  1.79321182e+00  2.00072920e-01  0.00000000e+00 
 2.02300540e-05  1.80662345e+00  2.00080920e-01  0.00000000e+00 
 2.22300540e-05  1.79321210e+00  2.00088920e-01  0.00000000e+00 
 2.42300540e-05  1.80662318e+00  2.00096920e-01  0.00000000e+00 
 2.62300540e-05  1.79321238e+00  2.00104920e-01  0.00000000e+00 
 2.82300540e-05  1.80662291e+00  2.00112920e-01  0.00000000e+00 
 3.02300540e-05  1.79321266e+00  2.00120920e-01  0.00000000e+00 
 3.22300540e-05  1.80662264e+00  2.00128920e-01  0.00000000e+00 
 3.42300540e-05  1.79321294e+00  2.00136920e-01  0.00000000e+00 
 3.62300540e-05  1.80662237e+00  2.00144920e-01  0.00000000e+00 
 3.82300540e-05  1.79321321e+00  2.00152920e-01  0.00000000e+00 
 4.02300540e-05  1.80662211e+00  2.00160920e-01  0.00000000e+00 
 4.22300540e-05  1.79321349e+00  2.00168920e-01  0.00000000e+00 
 4.42300540e-05  1.80662184e+00  2.00176920e-01  0.00000000e+00 
 4.62300540e-05  1.79321377e+00  2.00184920e-01  0.00000000e+00 
 4.82300540e-05  1.80662157e+00  2.00192920e-01  0.00000000e+00 
 5.02300540e-05  1.79321405e+00  2.00200920e-01  0.00000000e+00 
 5.22300540e-05  1.80662130e+00  2.00208920e-01  0.00000000e+00 
 5.42300540e-05  1.79321433e+00  2.00216920e-01  0.00000000e+00 
 5.62300540e-05  1.80662104e+00  2.00224920e-01  0.00000000e+00 
 5.82300540e-05  1.79321460e+00  2.00232920e-01  0.00000000e+00 
 6.02300540e-05  1.80662077e+00  2.00240920e-01  0.00000000e+00 
 6.22300540e-05  1.79321488e+00  2.00248920e-01  0.00000000e+00 
 6.42300540e-05  1.80662050e+00  2.00256920e-01  0.00000000e+00 
 6.62300540e-05  1.79321516e+00  2.00264920e-01  0.00000000e+00 
 6.82300540e-05  1.80662023e+00  2.00272920e-01  0.00000000e+00 
 7.02300540e-05  1.79321544e+00  2.00280920e-01  0.00000000e+00 
 7.22300540e-05  1.80661996e+00  2.00288920e-01  0.00000000e+00 
 7.42300540e-05  1.79321572e+00  2.00296920e-01  0.00000000e+00 
 7.62300540e-05  1.80661970e+00  2.00304920e-01  0.00000000e+00 
 7.82300540e-05  1.79321599e+00  2.00312920e-01  0.00000000e+00 
 8.02300540e-05  1.80661943e+00  2.00320920e-01  0.00000000e+00 
 8.22300540e-05  1.79321627e+00  2.00328920e-01  0.00000000e+00 
 8.42300540e-05  1.80661916e+00  2.00336920e-01  0.00000000e+00 
 8.62300540e-05  1.79321655e+00  2.00344920e-01  0.00000000e+00 
 8.82300540e-05  1.80661889e+00  2.00352920e-01  0.00000000e+00 
 9.02300540e-05  1.79321683e+00  2.00360920e-01  0.00000000e+00 
 9.22300540e-05  1.80661863e+00  2.00368920e-01  0.00000000e+00 
 9.42300540e-05  1.79321711e+00  2.00376920e-01  0.00000000e+00 
 9.62300540e-05  1.80661836e+00  2.00384920e-01  0.00000000e+00 
 9.82300540e-05  1.79321738e+00  2.00392920e-01  0.00000000e+00 
 1.00230054e-04  1.80661809e+00  2.00400920e-01  0.00000000e+00 
 1.02230054e-04  1.79321766e+00  2.00408920e-01  0.00000000e+00 
 1.04230054e-04  1.80661782e+00  2.00416920e-01  0.00000000e+00 
 1.06230054e-04  1.79321794e+00  2.00424920e-01  0.00000000e+00 
 1.08230054e-04  1.80661755e+00  2.00432920e-01  0.00000000e+00 
 1.10230054e-04  1.79321822e+00  2.00440920e-01  0.00000000e+00 
 1.12230054e-04  1.80661729e+00  2.00448920e-01  0.00000000e+00 
 1.14230054e-04  1.79321849e+00  2.00456920e-01  0.00000000e+00 
 1.16230054e-04  1.80661702e+00  2.00464920e-01  0.00000000e+00 
 1.18230054e-04  1.79321877e+00  2.00472920e-01  0.00000000e+00 
 1.20230054e-04  1.80661675e+00  2.00480920e-01  0.00000000e+00 
 1.22230054e-04  1.79321905e+00  2.00488920e-01  0.00000000e+00 
 1.24230054e-04  1.80661648e+00  2.00496920e-01  0.00000000e+00 
 1.26230054e-04  1.79321933e+00  2.00504920e-01  0.00000000e+00 
 1.28230054e-04  1.80661622e+00  2.00512920e-01  0.00000000e+00 
 1.30230054e-04  1.79321961e+00  2.00520920e-01  0.00000000e+00 
 1.32230054e-04  1.80661595e+00  2.00528920e-01  0.00000000e+00 
 1.34230054e-04  1.79321988e+00  2.00536920e-01  0.00000000e+00 
 1.36230054e-04  1.80661568e+00  2.00544920e-01  0.00000000e+00 
 1.38230054e-04  1.79322016e+00  2.00552920e-01  0.00000000e+00 
 1.40230054e-04  1.80661541e+00  2.00560920e-01  0.00000000e+00 
 1.42230054e-04  1.79322044e+00  2.00568920e-01  0.00000000e+00 
 1.44230054e-04  1.80661515e+00  2.00576920e-01  0.00000000e+00 
 1.46230054e-04  1.79322072e+00  2.00584920e-01  0.00000000e+00 
 1.48230054e-04  1.80661488e+00  2.00592920e-01  0.00000000e+00 
 1.50230054e-04  1.79322100e+00  2.00600920e-01  0.00000000e+00 
 1.52230054e-04  1.80661461e+00  2.00608920e-01  0.00000000e+00 
 1.54230054e-04  1.79322127e+00  2.00616920e-01  0.00000000e+00 
 1.56230054e-04  1.80661434e+00  2.00624920e-01  0.00000000e+00 
 1.58230054e-04  1.79322155e+00  2.00632920e-01  0.00000000e+00 
 1.60230054e-04  1.80661407e+00  2.00640920e-01  0.00000000e+00 
 1.62230054e-04  1.79322183e+00  2.00648920e-01  0.00000000e+00 
 1.64230054e-04  1.80661381e+00  2.00656920e-01  0.00000000e+00 
 1.66230054e-04  1.79322211e+00  2.00664920e-01  0.00000000e+00 
 1.68230054e-04  1.80661354e+00  2.00672920e-01  0.00000000e+00 
 1.70230054e-04  1.79322238e+00  2.00680920e-01  0.00000000e+00 
 1.72230054e-04  1.80661327e+00  2.00688920e-01  0.00000000e+00 
 1.74230054e-04  1.79322266e+00  2.00696920e-01  0.00000000e+00 
 1.76230054e-04  1.80661300e+00  2.00704920e-01  0.00000000e+00 
 1.78230054e-04  1.79322294e+00  2.00712920e-01  0.00000000e+00 
 1.80230054e-04  1.80661274e+00  2.00720920e-01  0.00000000e+00 
 1.82230054e-04  1.79322322e+00  2.00728920e-01  0.00000000e+00 
 1.84230054e-04  1.80661247e+00  2.00736920e-01  0.00000000e+00 
 1.86230054e-04  1.79322350e+00  2.00744920e-01  0.00000000e+00 
 1.88230054e-04  1.80661220e+00  2.00752920e-01  0.00000000e+00 
 1.90230054e-04  1.79322377e+00  2.00760920e-01  0.00000000e+00 
 1.92230054e-04  1.80661193e+00  2.00768920e-01  0.00000000e+00 
 1.94230054e-04  1.79322405e+00  2.00776920e-01  0.00000000e+00 
 1.96230054e-04  1.80661167e+00  2.00784920e-01  0.00000000e+00 
 1.98230054e-04  1.79322433e+00  2.00792920e-01  0.00000000e+00 
 2.00000000e-04  1.80661138e+00  2.00800000e-01  0.00000000e+00 
 2.00200000e-04  1.80000030e+00 -9.91992000e-02  3.00000000e-01 
 2.00600000e-04  1.79999969e+00 -9.91976000e-02  3.00000000e-01 
 2.01233647e-04  1.80000030e+00 -9.91950654e-02  3.00000000e-01 
 2.01901991e-04  1.79999969e+00 -9.91923920e-02  3.00000000e-01 
 2.03238680e-04  1.80000030e+00 -9.91870453e-02  3.00000000e-01 
 2.05238680e-04  1.79999969e+00 -9.91790453e-02  3.00000000e-01 
 2.07238680e-04  1.80000030e+00 -9.91710453e-02  3.00000000e-01 
 2.09238680e-04  1.79999969e+00 -9.91630453e-02  3.00000000e-01 
 2.11238680e-04  1.80000030e+00 -9.91550453e-02  3.00000000e-01 
 2.13238680e-04  1.79999969e+00 -9.91470453e-02  3.00000000e-01 
 2.15238680e-04  1.80000030e+00 -9.91390453e-02  3.00000000e-01 
 2.17238680e-04  1.79999969e+00 -9.91310453e-02  3.00000000e-01 
 2.19238680e-04  1.80000030e+00 -9.91230453e-02  3.00000000e-01 
 2.21238680e-04  1.79999969e+00 -9.91150453e-02  3.00000000e-01 
 2.23238680e-04  1.80000030e+00 -9.91070453e-02  3.00000000e-01 
 2.25238680e-04  1.79999969e+00 -9.90990453e-02  3.00000000e-01 
 2.27238680e-04  1.80000030e+00 -9.90910453e-02  3.00000000e-01 
 2.29238680e-04  1.79999969e+00 -9.90830453e-02  3.00000000e-01 
 2.31238680e-04  1.80000030e+00 -9.90750453e-02  3.00000000e-01 
 2.33238680e-04  1.79999969e+00 -9.90670453e-02  3.00000000e-01 
 2.35238680e-04  1.80000030e+00 -9.90590453e-02  3.00000000e-01 
 2.37238680e-04  1.79999969e+00 -9.90510453e-02  3.00000000e-01 
 2.39238680e-04  1.80000030e+00 -9.90430453e-02  3.00000000e-01 
 2.41238680e-04  1.79999969e+00 -9.90350453e-02  3.00000000e-01 
 2.43238680e-04  1.80000030e+00 -9.90270453e-02  3.00000000e-01 
 2.45238680e-04  1.79999969e+00 -9.90190453e-02  3.00000000e-01 
 2.47238680e-04  1.80000030e+00 -9.90110453e-02  3.00000000e-01 
 2.49238680e-04  1.79999969e+00 -9.90030453e-02  3.00000000e-01 
 2.51238680e-04  1.80000030e+00 -9.89950453e-02  3.00000000e-01 
 2.53238680e-04  1.79999969e+00 -9.89870453e-02  3.00000000e-01 
 2.55238680e-04  1.80000030e+00 -9.89790453e-02  3.00000000e-01 
 2.57238680e-04  1.79999969e+00 -9.89710453e-02  3.00000000e-01 
 2.59238680e-04  1.80000030e+00 -9.89630453e-02  3.00000000e-01 
 2.61238680e-04  1.79999969e+00 -9.89550453e-02  3.00000000e-01 
 2.63238680e-04  1.80000030e+00 -9.89470453e-02  3.00000000e-01 
 2.65238680e-04  1.79999969e+00 -9.89390453e-02  3.00000000e-01 
 2.67238680e-04  1.80000030e+00 -9.89310453e-02  3.00000000e-01 
 2.69238680e-04  1.79999969e+00 -9.89230453e-02  3.00000000e-01 
 2.71238680e-04  1.80000030e+00 -9.89150453e-02  3.00000000e-01 
 2.73238680e-04  1.79999969e+00 -9.89070453e-02  3.00000000e-01 
 2.75238680e-04  1.80000030e+00 -9.88990453e-02  3.00000000e-01 
 2.77238680e-04  1.79999969e+00 -9.88910453e-02  3.00000000e-01 
 2.79238680e-04  1.80000030e+00 -9.88830453e-02  3.00000000e-01 
 2.81238680e-04  1.79999969e+00 -9.88750453e-02  3.00000000e-01 
 2.83238680e-04  1.80000030e+00 -9.88670453e-02  3.00000000e-01 
 2.85238680e-04  1.79999969e+00 -9.88590453e-02  3.00000000e-01 
 2.87238680e-04  1.80000030e+00 -9.88510453e-02  3.00000000e-01 
 2.89238680e-04  1.79999969e+00 -9.88430453e-02  3.00000000e-01 
 2.91238680e-04  1.80000030e+00 -9.88350453e-02  3.00000000e-01 
 2.93238680e-04  1.79999969e+00 -9.88270453e-02  3.00000000e-01 
 2.95238680e-04  1.80000030e+00 -9.88190453e-02  3.00000000e-01 
 2.97238680e-04  1.79999969e+00 -9.88110453e-02  3.00000000e-01 
 2.99238680e-04  1.80000030e+00 -9.88030453e-02  3.00000000e-01 
 3.01238680e-04  1.79999969e+00 -9.87950453e-02  3.00000000e-01 
 3.03238680e-04  1.80000030e+00 -9.87870453e-02  3.00000000e-01 
 3.05238680e-04  1.79999969e+00 -9.87790453e-02  3.00000000e-01 
 3.07238680e-04  1.80000030e+00 -9.87710453e-02  3.00000000e-01 
 3.09238680e-04  1.79999969e+00 -9.87630453e-02  3.00000000e-01 
 3.11238680e-04  1.80000030e+00 -9.87550453e-02  3.00000000e-01 
 3.13238680e-04  1.79999969e+00 -9.87470453e-02  3.00000000e-01 
 3.15238680e-04  1.80000030e+00 -9.87390453e-02  3.00000000e-01 
 3.17238680e-04  1.79999969e+00 -9.87310453e-02  3.00000000e-01 
 3.19238680e-04  1.80000030e+00 -9.87230453e-02  3.00000000e-01 
 3.21238680e-04  1.79999969e+00 -9.87150453e-02  3.00000000e-01 
 3.23238680e-04  1.80000030e+00 -9.87070453e-02  3.00000000e-01 
 3.25238680e-04  1.79999969e+00 -9.86990453e-02  3.00000000e-01 
 3.27238680e-04  1.80000030e+00 -9.86910453e-02  3.00000000e-01 
 3.29238680e-04  1.79999969e+00 -9.86830453e-02  3.00000000e-01 
 3.31238680e-04  1.80000030e+00 -9.86750453e-02  3.00000000e-01 
 3.33238680e-04  1.79999969e+00 -9.86670453e-02  3.00000000e-01 
 3.35238680e-04  1.80000030e+00 -9.86590453e-02  3.00000000e-01 
 3.37238680e-04  1.79999969e+00 -9.86510453e-02  3.00000000e-01 
 3.39238680e-04  1.80000030e+00 -9.86430453e-02  3.00000000e-01 
 3.41238680e-04  1.79999969e+00 -9.86350453e-02  3.00000000e-01 
 3.43238680e-04  1.80000030e+00 -9.86270453e-02  3.00000000e-01 
 3.45238680e-04  1.79999969e+00 -9.86190453e-02  3.00000000e-01 
 3.47238680e-04  1.80000030e+00 -9.86110453e-02  3.00000000e-01 
 3.49238680e-04  1.79999969e+00 -9.86030453e-02  3.00000000e-01 
 3.51238680e-04  1.80000030e+00 -9.85950453e-02  3.00000000e-01 
 3.53238680e-04  1.79999969e+00 -9.85870453e-02  3.00000000e-01 
 3.55238680e-04  1.80000030e+00 -9.85790453e-02  3.00000000e-01 
 3.57238680e-04  1.79999969e+00 -9.85710453e-02  3.00000000e-01 
 3.59238680e-04  1.80000030e+00 -9.85630453e-02  3.00000000e-01 
 3.61238680e-04  1.79999969e+00 -9.85550453e-02  3.00000000e-01 
 3.63238680e-04  1.80000030e+00 -9.85470453e-02  3.00000000e-01 
 3.65238680e-04  1.79999969e+00 -9.85390453e-02  3.00000000e-01 
 3.67238680e-04  1.80000030e+00 -9.85310453e-02  3.00000000e-01 
 3.69238680e-04  1.79999969e+00 -9.85230453e-02  3.00000000e-01 
 3.71238680e-04  1.80000030e+00 -9.85150453e-02  3.00000000e-01 
 3.73238680e-04  1.79999969e+00 -9.85070453e-02  3.00000000e-01 
 3.75238680e-04  1.80000030e+00 -9.84990453e-02  3.00000000e-01 
 3.77238680e-04  1.79999969e+00 -9.84910453e-02  3.00000000e-01 
 3.79238680e-04  1.80000030e+00 -9.84830453e-02  3.00000000e-01 
 3.81238680e-04  1.79999969e+00 -9.84750453e-02  3.00000000e-01 
 3.83238680e-04  1.80000030e+00 -9.84670453e-02  3.00000000e-01 
 3.85238680e-04  1.79999969e+00 -9.84590453e-02  3.00000000e-01 
 3.87238680e-04  1.80000030e+00 -9.84510453e-02  3.00000000e-01 
 3.89238680e-04  1.79999969e+00 -9.84430453e-02  3.00000000e-01 
 3.91238680e-04  1.80000030e+00 -9.84350453e-02  3.00000000e-01 
 3.93238680e-04  1.79999969e+00 -9.84270453e-02  3.00000000e-01 
 3.95238680e-04  1.80000030e+00 -9.84190453e-02  3.00000000e-01 
 3.97238680e-04  1.79999969e+00 -9.84110453e-02  3.00000000e-01 
 3.99238680e-04  1.80000030e+00 -9.84030453e-02  3.00000000e-01 
 4.01238680e-04  1.79999969e+00 -9.83950453e-02  3.00000000e-01 
 4.03238680e-04  1.80000030e+00 -9.83870453e-02  3.00000000e-01 
 4.05238680e-04  1.79999969e+00 -9.83790453e-02  3.00000000e-01 
 4.07238680e-04  1.80000030e+00 -9.83710453e-02  3.00000000e-01 
 4.09238680e-04  1.79999969e+00 -9.83630453e-02  3.00000000e-01 
 4.11238680e-04  1.80000030e+00 -9.83550453e-02  3.00000000e-01 
 4.13238680e-04  1.79999969e+00 -9.83470453e-02  3.00000000e-01 
 4.15238680e-04  1.80000030e+00 -9.83390453e-02  3.00000000e-01 
 4.17238680e-04  1.79999969e+00 -9.83310453e-02  3.00000000e-01 
 4.19238680e-04  1.80000030e+00 -9.83230453e-02  3.00000000e-01 
 4.21238680e-04  1.79999969e+00 -9.83150453e-02  3.00000000e-01 
 4.23238680e-04  1.80000030e+00 -9.83070453e-02  3.00000000e-01 
 4.25238680e-04  1.79999969e+00 -9.82990453e-02  3.00000000e-01 
 4.27238680e-04  1.80000030e+00 -9.82910453e-02  3.00000000e-01 
 4.29238680e-04  1.79999969e+00 -9.82830453e-02  3.00000000e-01 
 4.31238680e-04  1.80000030e+00 -9.82750453e-02  3.00000000e-01 
 4.33238680e-04  1.79999969e+00 -9.82670453e-02  3.00000000e-01 
 4.35238680e-04  1.80000030e+00 -9.82590453e-02  3.00000000e-01 
 4.37238680e-04  1.79999969e+00 -9.82510453e-02  3.00000000e-01 
 4.39238680e-04  1.80000030e+00 -9.82430453e-02  3.00000000e-01 
 4.41238680e-04  1.79999969e+00 -9.82350453e-02  3.00000000e-01 
 4.43238680e-04  1.80000030e+00 -9.82270453e-02  3.00000000e-01 
 4.45238680e-04  1.79999969e+00 -9.82190453e-02  3.00000000e-01 
 4.47238680e-04  1.80000030e+00 -9.82110453e-02  3.00000000e-01 
 4.49238680e-04  1.79999969e+00 -9.82030453e-02  3.00000000e-01 
 4.51238680e-04  1.80000030e+00 -9.81950453e-02  3.00000000e-01 
 4.53238680e-04  1.79999969e+00 -9.81870453e-02  3.00000000e-01 
 4.55238680e-04  1.80000030e+00 -9.81790453e-02  3.00000000e-01 
 4.57238680e-04  1.79999969e+00 -9.81710453e-02  3.00000000e-01 
 4.59238680e-04  1.80000030e+00 -9.81630453e-02  3.00000000e-01 
 4.61238680e-04  1.79999969e+00 -9.81550453e-02  3.00000000e-01 
 4.63238680e-04  1.80000030e+00 -9.81470453e-02  3.00000000e-01 
 4.65238680e-04  1.79999969e+00 -9.81390453e-02  3.00000000e-01 
 4.67238680e-04  1.80000030e+00 -9.81310453e-02  3.00000000e-01 
 4.69238680e-04  1.79999969e+00 -9.81230453e-02  3.00000000e-01 
 4.71238680e-04  1.80000030e+00 -9.81150453e-02  3.00000000e-01 
 4.73238680e-04  1.79999969e+00 -9.81070453e-02  3.00000000e-01 
 4.75238680e-04  1.80000030e+00 -9.80990453e-02  3.00000000e-01 
 4.77238680e-04  1.79999969e+00 -9.80910453e-02  3.00000000e-01 
 4.79238680e-04  1.80000030e+00 -9.80830453e-02  3.00000000e-01 
 4.81238680e-04  1.79999969e+00 -9.80750453e-02  3.00000000e-01 
 4.83238680e-04  1.80000030e+00 -9.80670453e-02  3.00000000e-01 
 4.85238680e-04  1.79999969e+00 -9.80590453e-02  3.00000000e-01 
 4.87238680e-04  1.80000030e+00 -9.80510453e-02  3.00000000e-01 
 4.89238680e-04  1.79999969e+00 -9.80430453e-02  3.00000000e-01 
 4.91238680e-04  1.80000030e+00 -9.80350453e-02  3.00000000e-01 
 4.93238680e-04  1.79999969e+00 -9.80270453e-02  3.00000000e-01 
 4.95238680e-04  1.80000030e+00 -9.80190453e-02  3.00000000e-01 
 4.97238680e-04  1.79999969e+00 -9.80110453e-02  3.00000000e-01 
 4.99238680e-04  1.80000030e+00 -9.80030453e-02  3.00000000e-01 
 5.00100100e-04  1.79999969e+00 -9.79995996e-02  3.00000000e-01 
 5.00100110e-04  1.79999724e+00 -9.79995996e-02  3.00000000e-01 
 5.00100130e-04  1.80000210e+00 -9.79995995e-02  3.00000000e-01 
 5.00100170e-04  1.80001426e+00 -9.79995993e-02  3.00000000e-01 
 5.00100200e-04  1.80007665e+00 -9.79995992e-02  3.00000000e-01 
 5.00100208e-04  1.79996023e+00 -9.79995992e-02  3.00000000e-01 
 5.00100224e-04  1.79944783e+00 -9.79995991e-02  3.00000000e-01 
 5.00100256e-04  1.79912603e+00 -9.79995990e-02  3.00000000e-01 
 5.00100320e-04  1.85843891e+00 -9.79995987e-02  3.00000000e-01 
 5.00100386e-04  1.77937967e+00 -9.79995985e-02  3.00000000e-01 
 5.00100464e-04  1.81187274e+00 -9.79995981e-02  3.00000000e-01 
 5.00100589e-04  1.79113396e+00 -9.79995976e-02  3.00000000e-01 
 5.00100717e-04  1.80675476e+00 -9.79995971e-02  3.00000000e-01 
 5.00100974e-04  1.79406026e+00 -9.79995961e-02  3.00000000e-01 
 5.00101488e-04  1.80559366e+00 -9.79995940e-02  3.00000000e-01 
 5.00102370e-04  1.79461546e+00 -9.79995905e-02  3.00000000e-01 
 5.00104135e-04  1.80530238e+00 -9.79995835e-02  3.00000000e-01 
 5.00107664e-04  1.79475707e+00 -9.79995693e-02  3.00000000e-01 
 5.00114721e-04  1.80523246e+00 -9.79995411e-02  3.00000000e-01 
