 time            v(Q)            v(A)-v(B)       v(B)           
 0.00000000e+00  1.79999999e+00 -3.00000000e-01  3.00000000e-01 
 2.00000000e-11  1.79999999e+00 -3.00000200e-01  3.00000200e-01 
 4.00000000e-11  1.79999999e+00 -3.00000400e-01  3.00000400e-01 
 8.00000000e-11  1.79999999e+00 -3.00000800e-01  3.00000800e-01 
 1.60000000e-10  1.79999999e+00 -3.00001600e-01  3.00001600e-01 
 3.20000000e-10  1.79999999e+00 -3.00003200e-01  3.00003200e-01 
 6.40000000e-10  1.79999999e+00 -3.00006400e-01  3.00006400e-01 
 1.28000000e-09  1.79999999e+00 -3.00012800e-01  3.00012800e-01 
 2.56000000e-09  1.79999999e+00 -3.00025600e-01  3.00025600e-01 
 4.56000000e-09  1.79999999e+00 -3.00045600e-01  3.00045600e-01 
 6.56000000e-09  1.79999999e+00 -3.00065600e-01  3.00065600e-01 
 8.56000000e-09  1.79999999e+00 -3.00085600e-01  3.00085600e-01 
 1.05600000e-08  1.79999999e+00 -3.00105600e-01  3.00105600e-01 
 1.25600000e-08  1.79999999e+00 -3.00125600e-01  3.00125600e-01 
 1.45600000e-08  1.79999999e+00 -3.00145600e-01  3.00145600e-01 
 1.65600000e-08  1.79999999e+00 -3.00165600e-01  3.00165600e-01 
 1.85600000e-08  1.79999999e+00 -3.00185600e-01  3.00185600e-01 
 2.05600000e-08  1.79999999e+00 -3.00205600e-01  3.00205600e-01 
 2.25600000e-08  1.79999999e+00 -3.00225600e-01  3.00225600e-01 
 2.45600000e-08  1.79999999e+00 -3.00245600e-01  3.00245600e-01 
 2.65600000e-08  1.79999999e+00 -3.00265600e-01  3.00265600e-01 
 2.85600000e-08  1.79999999e+00 -3.00285600e-01  3.00285600e-01 
 3.05600000e-08  1.79999999e+00 -3.00305600e-01  3.00305600e-01 
 3.25600000e-08  1.79999999e+00 -3.00325600e-01  3.00325600e-01 
 3.45600000e-08  1.79999999e+00 -3.00345600e-01  3.00345600e-01 
 3.65600000e-08  1.79999999e+00 -3.00365600e-01  3.00365600e-01 
 3.85600000e-08  1.79999999e+00 -3.00385600e-01  3.00385600e-01 
 4.05600000e-08  1.79999999e+00 -3.00405600e-01  3.00405600e-01 
 4.25600000e-08  1.79999999e+00 -3.00425600e-01  3.00425600e-01 
 4.45600000e-08  1.79999999e+00 -3.00445600e-01  3.00445600e-01 
 4.65600000e-08  1.79999999e+00 -3.00465600e-01  3.00465600e-01 
 4.85600000e-08  1.79999999e+00 -3.00485600e-01  3.00485600e-01 
 5.05600000e-08  1.79999999e+00 -3.00505600e-01  3.00505600e-01 
 5.25600000e-08  1.79999999e+00 -3.00525600e-01  3.00525600e-01 
 5.45600000e-08  1.79999999e+00 -3.00545600e-01  3.00545600e-01 
 5.65600000e-08  1.79999999e+00 -3.00565600e-01  3.00565600e-01 
 5.85600000e-08  1.79999999e+00 -3.00585600e-01  3.00585600e-01 
 6.05600000e-08  1.79999999e+00 -3.00605600e-01  3.00605600e-01 
 6.25600000e-08  1.79999999e+00 -3.00625600e-01  3.00625600e-01 
 6.45600000e-08  1.79999999e+00 -3.00645600e-01  3.00645600e-01 
 6.65600000e-08  1.79999999e+00 -3.00665600e-01  3.00665600e-01 
 6.85600000e-08  1.79999999e+00 -3.00685600e-01  3.00685600e-01 
 7.05600000e-08  1.79999999e+00 -3.00705600e-01  3.00705600e-01 
 7.25600000e-08  1.79999999e+00 -3.00725600e-01  3.00725600e-01 
 7.45600000e-08  1.79999999e+00 -3.00745600e-01  3.00745600e-01 
 7.65600000e-08  1.79999999e+00 -3.00765600e-01  3.00765600e-01 
 7.85600000e-08  1.79999999e+00 -3.00785600e-01  3.00785600e-01 
 8.05600000e-08  1.79999999e+00 -3.00805600e-01  3.00805600e-01 
 8.25600000e-08  1.79999999e+00 -3.00825600e-01  3.00825600e-01 
 8.45600000e-08  1.79999999e+00 -3.00845600e-01  3.00845600e-01 
 8.65600000e-08  1.79999999e+00 -3.00865600e-01  3.00865600e-01 
 8.85600000e-08  1.79999999e+00 -3.00885600e-01  3.00885600e-01 
 9.05600000e-08  1.79999999e+00 -3.00905600e-01  3.00905600e-01 
 9.25600000e-08  1.79999999e+00 -3.00925600e-01  3.00925600e-01 
 9.45600000e-08  1.79999999e+00 -3.00945600e-01  3.00945600e-01 
 9.65600000e-08  1.79999999e+00 -3.00965600e-01  3.00965600e-01 
 9.85600000e-08  1.79999999e+00 -3.00985600e-01  3.00985600e-01 
 1.00000000e-07  1.79999999e+00 -3.01000000e-01  3.01000000e-01 
 1.00010000e-07  1.80001218e+00 -3.01000100e-01  3.01000100e-01 
 1.00030000e-07  1.79998710e+00 -3.01000300e-01  3.01000300e-01 
 1.00070000e-07  1.79993239e+00 -3.01000700e-01  3.01000700e-01 
 1.00100000e-07  1.80006192e+00 -3.01001000e-01  3.01001000e-01 
 1.00107642e-07  1.80045173e+00 -3.01001076e-01  3.01001076e-01 
 1.00122927e-07  1.80055955e+00 -3.01001229e-01  3.01001229e-01 
 1.00153497e-07  1.79968557e+00 -3.01001535e-01  3.01001535e-01 
 1.00214637e-07  1.79992159e+00 -3.01002146e-01  3.01002146e-01 
 1.00288035e-07  1.79789422e+00 -3.01002880e-01  3.01002880e-01 
 1.00434831e-07  2.07076216e-01 -3.01004348e-01  3.01004348e-01 
 1.00587992e-07 -1.14422635e-01 -3.01005880e-01  3.01005880e-01 
 1.00726121e-07  9.90695341e-02 -3.01007261e-01  3.01007261e-01 
 1.00945006e-07 -7.22975610e-02 -3.01009450e-01  3.01009450e-01 
 1.01170190e-07  6.68499653e-02 -3.01011702e-01  3.01011702e-01 
 1.01502026e-07 -5.43815212e-02 -3.01015020e-01  3.01015020e-01 
 1.01944419e-07  5.36903757e-02 -3.01019444e-01  3.01019444e-01 
 1.02548069e-07 -4.68506061e-02 -3.01025481e-01  3.01025481e-01 
 1.03440375e-07  4.79624519e-02 -3.01034404e-01  3.01034404e-01 
 1.04687634e-07 -4.35676977e-02 -3.01046876e-01  3.01046876e-01 
 1.06532024e-07  4.54402141e-02 -3.01065320e-01  3.01065320e-01 
 1.08532024e-07 -4.18881253e-02 -3.01085320e-01  3.01085320e-01 
 1.10532024e-07  4.36601110e-02 -3.01105320e-01  3.01105320e-01 
 1.12532024e-07 -4.03411808e-02 -3.01125320e-01  3.01125320e-01 
 1.14532024e-07  4.19567308e-02 -3.01145320e-01  3.01145320e-01 
 1.16532024e-07 -3.88539900e-02 -3.01165320e-01  3.01165320e-01 
 1.18532024e-07  4.03265041e-02 -3.01185320e-01  3.01185320e-01 
 1.20532024e-07 -3.74240868e-02 -3.01205320e-01  3.01205320e-01 
 1.22532024e-07  3.87658825e-02 -3.01225320e-01  3.01225320e-01 
 1.24532024e-07 -3.60492035e-02 -3.01245320e-01  3.01245320e-01 
 1.26532024e-07  3.72715250e-02 -3.01265320e-01  3.01265320e-01 
 1.28532024e-07 -3.47271675e-02 -3.01285320e-01  3.01285320e-01 
 1.30532024e-07  3.58402825e-02 -3.01305320e-01  3.01305320e-01 
 1.32532024e-07 -3.34558968e-02 -3.01325320e-01  3.01325320e-01 
 1.34532024e-07  3.44691840e-02 -3.01345320e-01  3.01345320e-01 
 1.36532024e-07 -3.22333950e-02 -3.01365320e-01  3.01365320e-01 
 1.38532024e-07  3.31554240e-02 -3.01385320e-01  3.01385320e-01 
 1.40532024e-07 -3.10577480e-02 -3.01405320e-01  3.01405320e-01 
 1.42532024e-07  3.18963510e-02 -3.01425320e-01  3.01425320e-01 
 1.44532024e-07 -2.99271196e-02 -3.01445320e-01  3.01445320e-01 
 1.46532024e-07  3.06894567e-02 -3.01465320e-01  3.01465320e-01 
 1.48532024e-07 -2.88397485e-02 -3.01485320e-01  3.01485320e-01 
 1.50532024e-07  2.95323670e-02 -3.01505320e-01  3.01505320e-01 
 1.52532024e-07 -2.77939447e-02 -3.01525320e-01  3.01525320e-01 
 1.54532024e-07  2.84228326e-02 -3.01545320e-01  3.01545320e-01 
 1.56532024e-07 -2.67880864e-02 -3.01565320e-01  3.01565320e-01 
 1.58532024e-07  2.73587212e-02 -3.01585320e-01  3.01585320e-01 
 1.60532024e-07 -2.58206168e-02 -3.01605320e-01  3.01605320e-01 
 1.62532024e-07  2.63380102e-02 -3.01625320e-01  3.01625320e-01 
 1.64532024e-07 -2.48900417e-02 -3.01645320e-01  3.01645320e-01 
 1.66532024e-07  2.53587797e-02 -3.01665320e-01  3.01665320e-01 
 1.68532024e-07 -2.39949267e-02 -3.01685320e-01  3.01685320e-01 
 1.70532024e-07  2.43938058e-02 -3.01705320e-01  3.01705320e-01 
 1.72532024e-07 -2.31343828e-02 -3.01725320e-01  3.01725320e-01 
 1.74532024e-07  2.34959815e-02 -3.01745320e-01  3.01745320e-01 
 1.76532024e-07 -2.23065159e-02 -3.01765320e-01  3.01765320e-01 
 1.78532024e-07  2.26339037e-02 -3.01785320e-01  3.01785320e-01 
 1.80532024e-07 -2.15100678e-02 -3.01805320e-01  3.01805320e-01 
 1.82532024e-07  2.18060960e-02 -3.01825320e-01  3.01825320e-01 
 1.84532024e-07 -2.07438288e-02 -3.01845320e-01  3.01845320e-01 
 1.86532024e-07  2.10111223e-02 -3.01865320e-01  3.01865320e-01 
 1.88532024e-07 -2.00252026e-02 -3.01885320e-01  3.01885320e-01 
 1.90532024e-07  2.02471347e-02 -3.01905320e-01  3.01905320e-01 
 1.92532024e-07 -1.93127803e-02 -3.01925320e-01  3.01925320e-01 
 1.94532024e-07  1.95134227e-02 -3.01945320e-01  3.01945320e-01 
 1.96532024e-07 -1.86276667e-02 -3.01965320e-01  3.01965320e-01 
 1.98532024e-07  1.88086809e-02 -3.01985320e-01  3.01985320e-01 
 2.00532024e-07 -1.79687953e-02 -3.02005320e-01  3.02005320e-01 
 2.02532024e-07  1.81317016e-02 -3.02025320e-01  3.02025320e-01 
 2.04532024e-07 -1.73351095e-02 -3.02045320e-01  3.02045320e-01 
 2.06532024e-07  1.74813316e-02 -3.02065320e-01  3.02065320e-01 
 2.08532024e-07 -1.67256008e-02 -3.02085320e-01  3.02085320e-01 
 2.10532024e-07  1.68564695e-02 -3.02105320e-01  3.02105320e-01 
 2.12532024e-07 -1.61393060e-02 -3.02125320e-01  3.02125320e-01 
 2.14532024e-07  1.62560629e-02 -3.02145320e-01  3.02145320e-01 
 2.16532024e-07 -1.55753045e-02 -3.02165320e-01  3.02165320e-01 
 2.18532024e-07  1.56791058e-02 -3.02185320e-01  3.02185320e-01 
 2.20532024e-07 -1.50327157e-02 -3.02205320e-01  3.02205320e-01 
 2.22532024e-07  1.51246368e-02 -3.02225320e-01  3.02225320e-01 
 2.24532024e-07 -1.45106968e-02 -3.02245320e-01  3.02245320e-01 
 2.26532024e-07  1.45917365e-02 -3.02265320e-01  3.02265320e-01 
 2.28532024e-07 -1.40084410e-02 -3.02285320e-01  3.02285320e-01 
 2.30532024e-07  1.40795254e-02 -3.02305320e-01  3.02305320e-01 
 2.32532024e-07 -1.35251753e-02 -3.02325320e-01  3.02325320e-01 
 2.34532024e-07  1.35871625e-02 -3.02345320e-01  3.02345320e-01 
 2.36532024e-07 -1.30601590e-02 -3.02365320e-01  3.02365320e-01 
 2.38532024e-07  1.31138431e-02 -3.02385320e-01  3.02385320e-01 
 2.40532024e-07 -1.26126818e-02 -3.02405320e-01  3.02405320e-01 
 2.42532024e-07  1.26587970e-02 -3.02425320e-01  3.02425320e-01 
 2.44532024e-07 -1.21820628e-02 -3.02445320e-01  3.02445320e-01 
 2.46532024e-07  1.22212870e-02 -3.02465320e-01  3.02465320e-01 
 2.48532024e-07 -1.17676486e-02 -3.02485320e-01  3.02485320e-01 
 2.50532024e-07  1.18006073e-02 -3.02505320e-01  3.02505320e-01 
 2.52532024e-07 -1.13688124e-02 -3.02525320e-01  3.02525320e-01 
 2.54532024e-07  1.13960823e-02 -3.02545320e-01  3.02545320e-01 
 2.56532024e-07 -1.09849525e-02 -3.02565320e-01  3.02565320e-01 
 2.58532024e-07  1.10070646e-02 -3.02585320e-01  3.02585320e-01 
 2.60532024e-07 -1.06154915e-02 -3.02605320e-01  3.02605320e-01 
 2.62532024e-07  1.06329337e-02 -3.02625320e-01  3.02625320e-01 
 2.64532024e-07 -1.02598830e-02 -3.02645320e-01  3.02645320e-01 
 2.66532024e-07  1.02730630e-02 -3.02665320e-01  3.02665320e-01 
 2.68532024e-07 -9.91753237e-03 -3.02685320e-01  3.02685320e-01 
 2.70532024e-07  9.92687165e-03 -3.02705320e-01  3.02705320e-01 
 2.72532024e-07 -9.58791384e-03 -3.02725320e-01  3.02725320e-01 
 2.74532024e-07  9.59379765e-03 -3.02745320e-01  3.02745320e-01 
 2.76532024e-07 -9.27054689e-03 -3.02765320e-01  3.02765320e-01 
 2.78532024e-07  9.27332858e-03 -3.02785320e-01  3.02785320e-01 
 2.80532024e-07 -8.96496938e-03 -3.02805320e-01  3.02805320e-01 
 2.82532024e-07  8.96497261e-03 -3.02825320e-01  3.02825320e-01 
 2.84532024e-07 -8.67073662e-03 -3.02845320e-01  3.02845320e-01 
 2.86532024e-07  8.66825767e-03 -3.02865320e-01  3.02865320e-01 
 2.88532024e-07 -8.38742077e-03 -3.02885320e-01  3.02885320e-01 
 2.90532024e-07  8.38292730e-03 -3.02905320e-01  3.02905320e-01 
 2.92532024e-07 -8.11460559e-03 -3.02925320e-01  3.02925320e-01 
 2.94532024e-07  8.10795162e-03 -3.02945320e-01  3.02945320e-01 
 2.96532024e-07 -7.85190414e-03 -3.02965320e-01  3.02965320e-01 
 2.98532024e-07  7.84351258e-03 -3.02985320e-01  3.02985320e-01 
 3.00532024e-07 -7.59893058e-03 -3.03005320e-01  3.03005320e-01 
 3.02532024e-07  7.58900757e-03 -3.03025320e-01  3.03025320e-01 
 3.04532024e-07 -7.35531812e-03 -3.03045320e-01  3.03045320e-01 
 3.06532024e-07  7.34405155e-03 -3.03065320e-01  3.03065320e-01 
 3.08532024e-07 -7.12071381e-03 -3.03085320e-01  3.03085320e-01 
 3.10532024e-07  7.10827475e-03 -3.03105320e-01  3.03105320e-01 
 3.12532024e-07 -6.89477809e-03 -3.03125320e-01  3.03125320e-01 
 3.14532024e-07  6.88132211e-03 -3.03145320e-01  3.03145320e-01 
 3.16532024e-07 -6.67718419e-03 -3.03165320e-01  3.03165320e-01 
 3.18532024e-07  6.66285262e-03 -3.03185320e-01  3.03185320e-01 
 3.20532024e-07 -6.46761771e-03 -3.03205320e-01  3.03205320e-01 
 3.22532024e-07  6.45253881e-03 -3.03225320e-01  3.03225320e-01 
 3.24532024e-07 -6.26577613e-03 -3.03245320e-01  3.03245320e-01 
 3.26532024e-07  6.25006612e-03 -3.03265320e-01  3.03265320e-01 
 3.28532024e-07 -6.07136836e-03 -3.03285320e-01  3.03285320e-01 
 3.30532024e-07  6.05513246e-03 -3.03305320e-01  3.03305320e-01 
 3.32532024e-07 -5.88411434e-03 -3.03325320e-01  3.03325320e-01 
 3.34532024e-07  5.86744763e-03 -3.03345320e-01  3.03345320e-01 
 3.36532024e-07 -5.70374457e-03 -3.03365320e-01  3.03365320e-01 
 3.38532024e-07  5.68673286e-03 -3.03385320e-01  3.03385320e-01 
 3.40532024e-07 -5.52999978e-03 -3.03405320e-01  3.03405320e-01 
 3.42532024e-07  5.51272038e-03 -3.03425320e-01  3.03425320e-01 
 3.44532024e-07 -5.36263047e-03 -3.03445320e-01  3.03445320e-01 
 3.46532024e-07  5.34515293e-03 -3.03465320e-01  3.03465320e-01 
 3.48532024e-07 -5.20139663e-03 -3.03485320e-01  3.03485320e-01 
 3.50532024e-07  5.18378334e-03 -3.03505320e-01  3.03505320e-01 
 3.52532024e-07 -5.04606729e-03 -3.03525320e-01  3.03525320e-01 
 3.54532024e-07  5.02837416e-03 -3.03545320e-01  3.03545320e-01 
 3.56532024e-07 -4.89642025e-03 -3.03565320e-01  3.03565320e-01 
 3.58532024e-07  4.87869723e-03 -3.03585320e-01  3.03585320e-01 
 3.60532024e-07 -4.75224172e-03 -3.03605320e-01  3.03605320e-01 
 3.62532024e-07  4.73453332e-03 -3.03625320e-01  3.03625320e-01 
 3.64532024e-07 -4.61332600e-03 -3.03645320e-01  3.03645320e-01 
 3.66532024e-07  4.59567177e-03 -3.03665320e-01  3.03665320e-01 
 3.68532024e-07 -4.47947519e-03 -3.03685320e-01  3.03685320e-01 
 3.70532024e-07  4.46191017e-03 -3.03705320e-01  3.03705320e-01 
 3.72532024e-07 -4.35049888e-03 -3.03725320e-01  3.03725320e-01 
 3.74532024e-07  4.33305398e-03 -3.03745320e-01  3.03745320e-01 
 3.76532024e-07 -4.22621388e-03 -3.03765320e-01  3.03765320e-01 
 3.78532024e-07  4.20891626e-03 -3.03785320e-01  3.03785320e-01 
 3.80532024e-07 -4.10644392e-03 -3.03805320e-01  3.03805320e-01 
 3.82532024e-07  4.08931735e-03 -3.03825320e-01  3.03825320e-01 
 3.84532024e-07 -3.99101944e-03 -3.03845320e-01  3.03845320e-01 
 3.86532024e-07  3.97408456e-03 -3.03865320e-01  3.03865320e-01 
 3.88532024e-07 -3.87977730e-03 -3.03885320e-01  3.03885320e-01 
 3.90532024e-07  3.86305194e-03 -3.03905320e-01  3.03905320e-01 
 3.92532024e-07 -3.77256051e-03 -3.03925320e-01  3.03925320e-01 
 3.94532024e-07  3.75605997e-03 -3.03945320e-01  3.03945320e-01 
 3.96532024e-07 -3.66921807e-03 -3.03965320e-01  3.03965320e-01 
 3.98532024e-07  3.65295533e-03 -3.03985320e-01  3.03985320e-01 
 4.00532024e-07 -3.56960469e-03 -3.04005320e-01  3.04005320e-01 
 4.02532024e-07  3.55359063e-03 -3.04025320e-01  3.04025320e-01 
 4.04532024e-07 -3.47358057e-03 -3.04045320e-01  3.04045320e-01 
 4.06532024e-07  3.45782420e-03 -3.04065320e-01  3.04065320e-01 
 4.08532024e-07 -3.38101123e-03 -3.04085320e-01  3.04085320e-01 
 4.10532024e-07  3.36551985e-03 -3.04105320e-01  3.04105320e-01 
 4.12532024e-07 -3.29176727e-03 -3.04125320e-01  3.04125320e-01 
 4.14532024e-07  3.27654665e-03 -3.04145320e-01  3.04145320e-01 
 4.16532024e-07 -3.20572422e-03 -3.04165320e-01  3.04165320e-01 
 4.18532024e-07  3.19077873e-03 -3.04185320e-01  3.04185320e-01 
 4.20532024e-07 -3.12276229e-03 -3.04205320e-01  3.04205320e-01 
 4.22532024e-07  3.10809510e-03 -3.04225320e-01  3.04225320e-01 
 4.24532024e-07 -3.04276626e-03 -3.04245320e-01  3.04245320e-01 
 4.26532024e-07  3.02837940e-03 -3.04265320e-01  3.04265320e-01 
 4.28532024e-07 -2.96562526e-03 -3.04285320e-01  3.04285320e-01 
 4.30532024e-07  2.95151979e-03 -3.04305320e-01  3.04305320e-01 
 4.32532024e-07 -2.89123262e-03 -3.04325320e-01  3.04325320e-01 
 4.34532024e-07  2.87740872e-03 -3.04345320e-01  3.04345320e-01 
 4.36532024e-07 -2.81948572e-03 -3.04365320e-01  3.04365320e-01 
 4.38532024e-07  2.80594278e-03 -3.04385320e-01  3.04385320e-01 
 4.40532024e-07 -2.75028582e-03 -3.04405320e-01  3.04405320e-01 
 4.42532024e-07  2.73702253e-03 -3.04425320e-01  3.04425320e-01 
 4.44532024e-07 -2.68353793e-03 -3.04445320e-01  3.04445320e-01 
 4.46532024e-07  2.67055237e-03 -3.04465320e-01  3.04465320e-01 
 4.48532024e-07 -2.61915063e-03 -3.04485320e-01  3.04485320e-01 
 4.50532024e-07  2.60644036e-03 -3.04505320e-01  3.04505320e-01 
 4.52532024e-07 -2.55703599e-03 -3.04525320e-01  3.04525320e-01 
 4.54532024e-07  2.54459807e-03 -3.04545320e-01  3.04545320e-01 
 4.56532024e-07 -2.49710939e-03 -3.04565320e-01  3.04565320e-01 
 4.58532024e-07  2.48494050e-03 -3.04585320e-01  3.04585320e-01 
 4.60532024e-07 -2.43928943e-03 -3.04605320e-01  3.04605320e-01 
 4.62532024e-07  2.42738587e-03 -3.04625320e-01  3.04625320e-01 
 4.64532024e-07 -2.38349777e-03 -3.04645320e-01  3.04645320e-01 
 4.66532024e-07  2.37185556e-03 -3.04665320e-01  3.04665320e-01 
 4.68532024e-07 -2.32965904e-03 -3.04685320e-01  3.04685320e-01 
 4.70532024e-07  2.31827392e-03 -3.04705320e-01  3.04705320e-01 
 4.72532024e-07 -2.27770073e-03 -3.04725320e-01  3.04725320e-01 
 4.74532024e-07  2.26656823e-03 -3.04745320e-01  3.04745320e-01 
 4.76532024e-07 -2.22755305e-03 -3.04765320e-01  3.04765320e-01 
 4.78532024e-07  2.21666854e-03 -3.04785320e-01  3.04785320e-01 
 4.80532024e-07 -2.17914888e-03 -3.04805320e-01  3.04805320e-01 
 4.82532024e-07  2.16850755e-03 -3.04825320e-01  3.04825320e-01 
 4.84532024e-07 -2.13242360e-03 -3.04845320e-01  3.04845320e-01 
 4.86532024e-07  2.12202055e-03 -3.04865320e-01  3.04865320e-01 
 4.88532024e-07 -2.08731505e-03 -3.04885320e-01  3.04885320e-01 
 4.90532024e-07  2.07714529e-03 -3.04905320e-01  3.04905320e-01 
 4.92532024e-07 -2.04376344e-03 -3.04925320e-01  3.04925320e-01 
 4.94532024e-07  2.03382190e-03 -3.04945320e-01  3.04945320e-01 
 4.96532024e-07 -2.00171118e-03 -3.04965320e-01  3.04965320e-01 
 4.98532024e-07  1.99199275e-03 -3.04985320e-01  3.04985320e-01 
 5.00000000e-07 -1.95389520e-03 -3.05000000e-01  3.05000000e-01 
 5.00200000e-07 -3.16752765e-05  9.49980000e-02  3.05002000e-01 
 5.00600000e-07  2.90355551e-05  9.49940000e-02  3.05006000e-01 
 5.01152474e-07 -2.70944264e-05  9.49884753e-02  3.05011525e-01 
 5.01756342e-07  2.54883276e-05  9.49824366e-02  3.05017563e-01 
 5.02964078e-07 -2.46113977e-05  9.49703592e-02  3.05029641e-01 
 5.04964078e-07  2.41850584e-05  9.49503592e-02  3.05049641e-01 
 5.06964078e-07 -2.36422986e-05  9.49303592e-02  3.05069641e-01 
 5.08964078e-07  2.32246713e-05  9.49103592e-02  3.05089641e-01 
 5.10964078e-07 -2.26915193e-05  9.48903592e-02  3.05109641e-01 
 5.12964078e-07  2.22828962e-05  9.48703592e-02  3.05129641e-01 
 5.14964078e-07 -2.17596463e-05  9.48503592e-02  3.05149641e-01 
 5.16964078e-07  2.13603312e-05  9.48303592e-02  3.05169641e-01 
 5.18964078e-07 -2.08472778e-05  9.48103592e-02  3.05189641e-01 
 5.20964078e-07  2.04575676e-05  9.47903592e-02  3.05209641e-01 
 5.22964078e-07 -1.99549901e-05  9.47703592e-02  3.05229641e-01 
 5.24964078e-07  1.95751629e-05  9.47503592e-02  3.05249641e-01 
 5.26964078e-07 -1.90833160e-05  9.47303592e-02  3.05269641e-01 
 5.28964078e-07  1.87136223e-05  9.47103592e-02  3.05289641e-01 
 5.30964078e-07 -1.82327296e-05  9.46903592e-02  3.05309641e-01 
 5.32964078e-07  1.78733882e-05  9.46703592e-02  3.05329641e-01 
 5.34964078e-07 -1.74036385e-05  9.46503592e-02  3.05349641e-01 
 5.36964078e-07  1.70548334e-05  9.46303592e-02  3.05369641e-01 
 5.38964078e-07 -1.65963794e-05  9.46103592e-02  3.05389641e-01 
 5.40964078e-07  1.62582588e-05  9.45903592e-02  3.05409641e-01 
 5.42964078e-07 -1.58112168e-05  9.45703592e-02  3.05429641e-01 
 5.44964078e-07  1.54838935e-05  9.45503592e-02  3.05449641e-01 
 5.46964078e-07 -1.50483440e-05  9.45303592e-02  3.05469641e-01 
 5.48964078e-07  1.47318961e-05  9.45103592e-02  3.05489641e-01 
 5.50964078e-07 -1.43078853e-05  9.44903592e-02  3.05509641e-01 
 5.52964078e-07  1.40023580e-05  9.44703592e-02  3.05529641e-01 
 5.54964078e-07 -1.35898997e-05  9.44503592e-02  3.05549641e-01 
