 time            v(Q)            v(A)-v(B)       v(B)           
 0.00000000e+00  1.79999999e+00  3.00000000e-01  0.00000000e+00 
 1.00000000e-09  1.79999999e+00  3.00000008e-01  0.00000000e+00 
 2.00000000e-09  1.79999999e+00  3.00000016e-01  0.00000000e+00 
 4.00000000e-09  1.79999999e+00  3.00000032e-01  0.00000000e+00 
 8.00000000e-09  1.79999999e+00  3.00000064e-01  0.00000000e+00 
 1.60000000e-08  1.79999999e+00  3.00000128e-01  0.00000000e+00 
 3.20000000e-08  1.79999999e+00  3.00000256e-01  0.00000000e+00 
 6.40000000e-08  1.79999999e+00  3.00000512e-01  0.00000000e+00 
 1.00000000e-07  1.79999999e+00  3.00000800e-01  0.00000000e+00 
 1.00010000e-07  1.80001215e+00  3.00000800e-01  0.00000000e+00 
 1.00030000e-07  1.79998718e+00  3.00000800e-01  0.00000000e+00 
 1.00070000e-07  1.79993229e+00  3.00000801e-01  0.00000000e+00 
 1.00100000e-07  1.80006349e+00  3.00000801e-01  0.00000000e+00 
 1.00107642e-07  1.80043507e+00  3.00000801e-01  0.00000000e+00 
 1.00122927e-07  1.80052954e+00  3.00000801e-01  0.00000000e+00 
 1.00153497e-07  1.79977163e+00  3.00000801e-01  0.00000000e+00 
 1.00214636e-07  1.79990034e+00  3.00000802e-01  0.00000000e+00 
 1.00288039e-07  1.79575597e+00  3.00000802e-01  0.00000000e+00 
 1.00434843e-07  1.78478981e+00  3.00000803e-01  0.00000000e+00 
 1.00608820e-07  1.81219126e+00  3.00000805e-01  0.00000000e+00 
 1.00787190e-07  1.78953257e+00  3.00000806e-01  0.00000000e+00 
 1.01060973e-07  1.80916547e+00  3.00000808e-01  0.00000000e+00 
 1.01513781e-07  1.79129331e+00  3.00000812e-01  0.00000000e+00 
 1.02419397e-07  1.80827830e+00  3.00000819e-01  0.00000000e+00 
 1.04142312e-07  1.79173996e+00  3.00000833e-01  0.00000000e+00 
 1.07513317e-07  1.80805783e+00  3.00000860e-01  0.00000000e+00 
 1.14255329e-07  1.79185522e+00  3.00000914e-01  0.00000000e+00 
 1.27739352e-07  1.80800282e+00  3.00001022e-01  0.00000000e+00 
 1.54707397e-07  1.79188216e+00  3.00001238e-01  0.00000000e+00 
 2.08643489e-07  1.80798913e+00  3.00001669e-01  0.00000000e+00 
 3.16515671e-07  1.79188920e+00  3.00002532e-01  0.00000000e+00 
 5.32260037e-07  1.80798571e+00  3.00004258e-01  0.00000000e+00 
 9.63748767e-07  1.79189096e+00  3.00007710e-01  0.00000000e+00 
 1.82672623e-06  1.80798485e+00  3.00014614e-01  0.00000000e+00 
 3.55268115e-06  1.79189140e+00  3.00028421e-01  0.00000000e+00 
 5.55268115e-06  1.80798459e+00  3.00044421e-01  0.00000000e+00 
 7.55268115e-06  1.79189166e+00  3.00060421e-01  0.00000000e+00 
 9.55268115e-06  1.80798434e+00  3.00076421e-01  0.00000000e+00 
 1.15526812e-05  1.79189191e+00  3.00092421e-01  0.00000000e+00 
 1.35526812e-05  1.80798410e+00  3.00108421e-01  0.00000000e+00 
 1.55526812e-05  1.79189216e+00  3.00124421e-01  0.00000000e+00 
 1.75526812e-05  1.80798385e+00  3.00140421e-01  0.00000000e+00 
 1.95526812e-05  1.79189242e+00  3.00156421e-01  0.00000000e+00 
 2.15526812e-05  1.80798360e+00  3.00172421e-01  0.00000000e+00 
 2.35526812e-05  1.79189267e+00  3.00188421e-01  0.00000000e+00 
 2.55526812e-05  1.80798336e+00  3.00204421e-01  0.00000000e+00 
 2.75526812e-05  1.79189292e+00  3.00220421e-01  0.00000000e+00 
 2.95526812e-05  1.80798311e+00  3.00236421e-01  0.00000000e+00 
 3.15526812e-05  1.79189317e+00  3.00252421e-01  0.00000000e+00 
 3.35526812e-05  1.80798287e+00  3.00268421e-01  0.00000000e+00 
 3.55526812e-05  1.79189343e+00  3.00284421e-01  0.00000000e+00 
 3.75526812e-05  1.80798262e+00  3.00300421e-01  0.00000000e+00 
 3.95526812e-05  1.79189368e+00  3.00316421e-01  0.00000000e+00 
 4.15526812e-05  1.80798237e+00  3.00332421e-01  0.00000000e+00 
 4.35526812e-05  1.79189393e+00  3.00348421e-01  0.00000000e+00 
 4.55526812e-05  1.80798213e+00  3.00364421e-01  0.00000000e+00 
 4.75526812e-05  1.79189419e+00  3.00380421e-01  0.00000000e+00 
 4.95526812e-05  1.80798188e+00  3.00396421e-01  0.00000000e+00 
 5.15526812e-05  1.79189444e+00  3.00412421e-01  0.00000000e+00 
 5.35526812e-05  1.80798164e+00  3.00428421e-01  0.00000000e+00 
 5.55526812e-05  1.79189469e+00  3.00444421e-01  0.00000000e+00 
 5.75526812e-05  1.80798139e+00  3.00460421e-01  0.00000000e+00 
 5.95526812e-05  1.79189495e+00  3.00476421e-01  0.00000000e+00 
 6.15526812e-05  1.80798115e+00  3.00492421e-01  0.00000000e+00 
 6.35526812e-05  1.79189520e+00  3.00508421e-01  0.00000000e+00 
 6.55526812e-05  1.80798090e+00  3.00524421e-01  0.00000000e+00 
 6.75526812e-05  1.79189545e+00  3.00540421e-01  0.00000000e+00 
 6.95526812e-05  1.80798065e+00  3.00556421e-01  0.00000000e+00 
 7.15526812e-05  1.79189570e+00  3.00572421e-01  0.00000000e+00 
 7.35526812e-05  1.80798041e+00  3.00588421e-01  0.00000000e+00 
 7.55526812e-05  1.79189596e+00  3.00604421e-01  0.00000000e+00 
 7.75526812e-05  1.80798016e+00  3.00620421e-01  0.00000000e+00 
 7.95526812e-05  1.79189621e+00  3.00636421e-01  0.00000000e+00 
 8.15526812e-05  1.80797992e+00  3.00652421e-01  0.00000000e+00 
 8.35526812e-05  1.79189646e+00  3.00668421e-01  0.00000000e+00 
 8.55526812e-05  1.80797967e+00  3.00684421e-01  0.00000000e+00 
 8.75526812e-05  1.79189672e+00  3.00700421e-01  0.00000000e+00 
 8.95526812e-05  1.80797943e+00  3.00716421e-01  0.00000000e+00 
 9.15526812e-05  1.79189697e+00  3.00732421e-01  0.00000000e+00 
 9.35526812e-05  1.80797918e+00  3.00748421e-01  0.00000000e+00 
 9.55526812e-05  1.79189722e+00  3.00764421e-01  0.00000000e+00 
 9.75526812e-05  1.80797893e+00  3.00780421e-01  0.00000000e+00 
 9.95526812e-05  1.79189747e+00  3.00796421e-01  0.00000000e+00 
 1.01552681e-04  1.80797869e+00  3.00812421e-01  0.00000000e+00 
 1.03552681e-04  1.79189773e+00  3.00828421e-01  0.00000000e+00 
 1.05552681e-04  1.80797844e+00  3.00844421e-01  0.00000000e+00 
 1.07552681e-04  1.79189798e+00  3.00860421e-01  0.00000000e+00 
 1.09552681e-04  1.80797820e+00  3.00876421e-01  0.00000000e+00 
 1.11552681e-04  1.79189823e+00  3.00892421e-01  0.00000000e+00 
 1.13552681e-04  1.80797795e+00  3.00908421e-01  0.00000000e+00 
 1.15552681e-04  1.79189849e+00  3.00924421e-01  0.00000000e+00 
 1.17552681e-04  1.80797771e+00  3.00940421e-01  0.00000000e+00 
 1.19552681e-04  1.79189874e+00  3.00956421e-01  0.00000000e+00 
 1.21552681e-04  1.80797746e+00  3.00972421e-01  0.00000000e+00 
 1.23552681e-04  1.79189899e+00  3.00988421e-01  0.00000000e+00 
 1.25552681e-04  1.80797721e+00  3.01004421e-01  0.00000000e+00 
 1.27552681e-04  1.79189924e+00  3.01020421e-01  0.00000000e+00 
 1.29552681e-04  1.80797697e+00  3.01036421e-01  0.00000000e+00 
 1.31552681e-04  1.79189950e+00  3.01052421e-01  0.00000000e+00 
 1.33552681e-04  1.80797672e+00  3.01068421e-01  0.00000000e+00 
 1.35552681e-04  1.79189975e+00  3.01084421e-01  0.00000000e+00 
 1.37552681e-04  1.80797648e+00  3.01100421e-01  0.00000000e+00 
 1.39552681e-04  1.79190000e+00  3.01116421e-01  0.00000000e+00 
 1.41552681e-04  1.80797623e+00  3.01132421e-01  0.00000000e+00 
 1.43552681e-04  1.79190026e+00  3.01148421e-01  0.00000000e+00 
 1.45552681e-04  1.80797599e+00  3.01164421e-01  0.00000000e+00 
 1.47552681e-04  1.79190051e+00  3.01180421e-01  0.00000000e+00 
 1.49552681e-04  1.80797574e+00  3.01196421e-01  0.00000000e+00 
 1.51552681e-04  1.79190076e+00  3.01212421e-01  0.00000000e+00 
 1.53552681e-04  1.80797549e+00  3.01228421e-01  0.00000000e+00 
 1.55552681e-04  1.79190101e+00  3.01244421e-01  0.00000000e+00 
 1.57552681e-04  1.80797525e+00  3.01260421e-01  0.00000000e+00 
 1.59552681e-04  1.79190127e+00  3.01276421e-01  0.00000000e+00 
 1.61552681e-04  1.80797500e+00  3.01292421e-01  0.00000000e+00 
 1.63552681e-04  1.79190152e+00  3.01308421e-01  0.00000000e+00 
 1.65552681e-04  1.80797476e+00  3.01324421e-01  0.00000000e+00 
 1.67552681e-04  1.79190177e+00  3.01340421e-01  0.00000000e+00 
 1.69552681e-04  1.80797451e+00  3.01356421e-01  0.00000000e+00 
 1.71552681e-04  1.79190203e+00  3.01372421e-01  0.00000000e+00 
 1.73552681e-04  1.80797427e+00  3.01388421e-01  0.00000000e+00 
 1.75552681e-04  1.79190228e+00  3.01404421e-01  0.00000000e+00 
 1.77552681e-04  1.80797402e+00  3.01420421e-01  0.00000000e+00 
 1.79552681e-04  1.79190253e+00  3.01436421e-01  0.00000000e+00 
 1.81552681e-04  1.80797378e+00  3.01452421e-01  0.00000000e+00 
 1.83552681e-04  1.79190278e+00  3.01468421e-01  0.00000000e+00 
 1.85552681e-04  1.80797353e+00  3.01484421e-01  0.00000000e+00 
 1.87552681e-04  1.79190304e+00  3.01500421e-01  0.00000000e+00 
 1.89552681e-04  1.80797328e+00  3.01516421e-01  0.00000000e+00 
 1.91552681e-04  1.79190329e+00  3.01532421e-01  0.00000000e+00 
 1.93552681e-04  1.80797304e+00  3.01548421e-01  0.00000000e+00 
 1.95552681e-04  1.79190354e+00  3.01564421e-01  0.00000000e+00 
 1.97552681e-04  1.80797279e+00  3.01580421e-01  0.00000000e+00 
 1.99552681e-04  1.79190379e+00  3.01596421e-01  0.00000000e+00 
 2.00000000e-04  1.80797212e+00  3.01600000e-01  0.00000000e+00 
 2.00200000e-04  1.80000027e+00 -9.83984000e-02  4.00000000e-01 
 2.00600000e-04  1.79999972e+00 -9.83952000e-02  4.00000000e-01 
 2.01083494e-04  1.80000027e+00 -9.83913320e-02  4.00000000e-01 
 2.01703795e-04  1.79999972e+00 -9.83863696e-02  4.00000000e-01 
 2.02944398e-04  1.80000027e+00 -9.83764448e-02  4.00000000e-01 
 2.04944398e-04  1.79999972e+00 -9.83604448e-02  4.00000000e-01 
 2.06944398e-04  1.80000027e+00 -9.83444448e-02  4.00000000e-01 
 2.08944398e-04  1.79999972e+00 -9.83284448e-02  4.00000000e-01 
 2.10944398e-04  1.80000027e+00 -9.83124448e-02  4.00000000e-01 
 2.12944398e-04  1.79999972e+00 -9.82964448e-02  4.00000000e-01 
 2.14944398e-04  1.80000027e+00 -9.82804448e-02  4.00000000e-01 
 2.16944398e-04  1.79999972e+00 -9.82644448e-02  4.00000000e-01 
 2.18944398e-04  1.80000027e+00 -9.82484448e-02  4.00000000e-01 
 2.20944398e-04  1.79999972e+00 -9.82324448e-02  4.00000000e-01 
 2.22944398e-04  1.80000027e+00 -9.82164448e-02  4.00000000e-01 
 2.24944398e-04  1.79999972e+00 -9.82004448e-02  4.00000000e-01 
 2.26944398e-04  1.80000027e+00 -9.81844448e-02  4.00000000e-01 
 2.28944398e-04  1.79999972e+00 -9.81684448e-02  4.00000000e-01 
 2.30944398e-04  1.80000027e+00 -9.81524448e-02  4.00000000e-01 
 2.32944398e-04  1.79999972e+00 -9.81364448e-02  4.00000000e-01 
 2.34944398e-04  1.80000027e+00 -9.81204448e-02  4.00000000e-01 
 2.36944398e-04  1.79999972e+00 -9.81044448e-02  4.00000000e-01 
 2.38944398e-04  1.80000027e+00 -9.80884448e-02  4.00000000e-01 
 2.40944398e-04  1.79999972e+00 -9.80724448e-02  4.00000000e-01 
 2.42944398e-04  1.80000027e+00 -9.80564448e-02  4.00000000e-01 
 2.44944398e-04  1.79999972e+00 -9.80404448e-02  4.00000000e-01 
 2.46944398e-04  1.80000027e+00 -9.80244448e-02  4.00000000e-01 
 2.48944398e-04  1.79999972e+00 -9.80084448e-02  4.00000000e-01 
 2.50944398e-04  1.80000027e+00 -9.79924448e-02  4.00000000e-01 
 2.52944398e-04  1.79999972e+00 -9.79764448e-02  4.00000000e-01 
 2.54944398e-04  1.80000027e+00 -9.79604448e-02  4.00000000e-01 
 2.56944398e-04  1.79999972e+00 -9.79444448e-02  4.00000000e-01 
 2.58944398e-04  1.80000027e+00 -9.79284448e-02  4.00000000e-01 
 2.60944398e-04  1.79999972e+00 -9.79124448e-02  4.00000000e-01 
 2.62944398e-04  1.80000027e+00 -9.78964448e-02  4.00000000e-01 
 2.64944398e-04  1.79999972e+00 -9.78804448e-02  4.00000000e-01 
 2.66944398e-04  1.80000027e+00 -9.78644448e-02  4.00000000e-01 
 2.68944398e-04  1.79999972e+00 -9.78484448e-02  4.00000000e-01 
 2.70944398e-04  1.80000027e+00 -9.78324448e-02  4.00000000e-01 
 2.72944398e-04  1.79999972e+00 -9.78164448e-02  4.00000000e-01 
 2.74944398e-04  1.80000027e+00 -9.78004448e-02  4.00000000e-01 
 2.76944398e-04  1.79999972e+00 -9.77844448e-02  4.00000000e-01 
 2.78944398e-04  1.80000027e+00 -9.77684448e-02  4.00000000e-01 
 2.80944398e-04  1.79999972e+00 -9.77524448e-02  4.00000000e-01 
 2.82944398e-04  1.80000027e+00 -9.77364448e-02  4.00000000e-01 
 2.84944398e-04  1.79999972e+00 -9.77204448e-02  4.00000000e-01 
 2.86944398e-04  1.80000027e+00 -9.77044448e-02  4.00000000e-01 
 2.88944398e-04  1.79999972e+00 -9.76884448e-02  4.00000000e-01 
 2.90944398e-04  1.80000027e+00 -9.76724448e-02  4.00000000e-01 
 2.92944398e-04  1.79999972e+00 -9.76564448e-02  4.00000000e-01 
 2.94944398e-04  1.80000027e+00 -9.76404448e-02  4.00000000e-01 
 2.96944398e-04  1.79999972e+00 -9.76244448e-02  4.00000000e-01 
 2.98944398e-04  1.80000027e+00 -9.76084448e-02  4.00000000e-01 
 3.00944398e-04  1.79999972e+00 -9.75924448e-02  4.00000000e-01 
 3.02944398e-04  1.80000027e+00 -9.75764448e-02  4.00000000e-01 
 3.04944398e-04  1.79999972e+00 -9.75604448e-02  4.00000000e-01 
 3.06944398e-04  1.80000027e+00 -9.75444448e-02  4.00000000e-01 
 3.08944398e-04  1.79999972e+00 -9.75284448e-02  4.00000000e-01 
 3.10944398e-04  1.80000027e+00 -9.75124448e-02  4.00000000e-01 
 3.12944398e-04  1.79999972e+00 -9.74964448e-02  4.00000000e-01 
 3.14944398e-04  1.80000027e+00 -9.74804448e-02  4.00000000e-01 
 3.16944398e-04  1.79999972e+00 -9.74644448e-02  4.00000000e-01 
 3.18944398e-04  1.80000027e+00 -9.74484448e-02  4.00000000e-01 
 3.20944398e-04  1.79999972e+00 -9.74324448e-02  4.00000000e-01 
 3.22944398e-04  1.80000027e+00 -9.74164448e-02  4.00000000e-01 
 3.24944398e-04  1.79999972e+00 -9.74004448e-02  4.00000000e-01 
 3.26944398e-04  1.80000027e+00 -9.73844448e-02  4.00000000e-01 
 3.28944398e-04  1.79999972e+00 -9.73684448e-02  4.00000000e-01 
 3.30944398e-04  1.80000027e+00 -9.73524448e-02  4.00000000e-01 
 3.32944398e-04  1.79999972e+00 -9.73364448e-02  4.00000000e-01 
 3.34944398e-04  1.80000027e+00 -9.73204448e-02  4.00000000e-01 
 3.36944398e-04  1.79999972e+00 -9.73044448e-02  4.00000000e-01 
 3.38944398e-04  1.80000027e+00 -9.72884448e-02  4.00000000e-01 
 3.40944398e-04  1.79999972e+00 -9.72724448e-02  4.00000000e-01 
 3.42944398e-04  1.80000027e+00 -9.72564448e-02  4.00000000e-01 
 3.44944398e-04  1.79999972e+00 -9.72404448e-02  4.00000000e-01 
 3.46944398e-04  1.80000027e+00 -9.72244448e-02  4.00000000e-01 
 3.48944398e-04  1.79999972e+00 -9.72084448e-02  4.00000000e-01 
 3.50944398e-04  1.80000027e+00 -9.71924448e-02  4.00000000e-01 
 3.52944398e-04  1.79999972e+00 -9.71764448e-02  4.00000000e-01 
 3.54944398e-04  1.80000027e+00 -9.71604448e-02  4.00000000e-01 
 3.56944398e-04  1.79999972e+00 -9.71444448e-02  4.00000000e-01 
 3.58944398e-04  1.80000027e+00 -9.71284448e-02  4.00000000e-01 
 3.60944398e-04  1.79999972e+00 -9.71124448e-02  4.00000000e-01 
 3.62944398e-04  1.80000027e+00 -9.70964448e-02  4.00000000e-01 
 3.64944398e-04  1.79999972e+00 -9.70804448e-02  4.00000000e-01 
 3.66944398e-04  1.80000027e+00 -9.70644448e-02  4.00000000e-01 
 3.68944398e-04  1.79999972e+00 -9.70484448e-02  4.00000000e-01 
 3.70944398e-04  1.80000027e+00 -9.70324448e-02  4.00000000e-01 
 3.72944398e-04  1.79999973e+00 -9.70164448e-02  4.00000000e-01 
 3.74944398e-04  1.80000027e+00 -9.70004448e-02  4.00000000e-01 
 3.76944398e-04  1.79999973e+00 -9.69844448e-02  4.00000000e-01 
 3.78944398e-04  1.80000027e+00 -9.69684448e-02  4.00000000e-01 
 3.80944398e-04  1.79999973e+00 -9.69524448e-02  4.00000000e-01 
 3.82944398e-04  1.80000027e+00 -9.69364448e-02  4.00000000e-01 
 3.84944398e-04  1.79999973e+00 -9.69204448e-02  4.00000000e-01 
 3.86944398e-04  1.80000027e+00 -9.69044448e-02  4.00000000e-01 
 3.88944398e-04  1.79999973e+00 -9.68884448e-02  4.00000000e-01 
 3.90944398e-04  1.80000027e+00 -9.68724448e-02  4.00000000e-01 
 3.92944398e-04  1.79999973e+00 -9.68564448e-02  4.00000000e-01 
 3.94944398e-04  1.80000027e+00 -9.68404448e-02  4.00000000e-01 
 3.96944398e-04  1.79999973e+00 -9.68244448e-02  4.00000000e-01 
 3.98944398e-04  1.80000027e+00 -9.68084448e-02  4.00000000e-01 
 4.00944398e-04  1.79999973e+00 -9.67924448e-02  4.00000000e-01 
 4.02944398e-04  1.80000027e+00 -9.67764448e-02  4.00000000e-01 
 4.04944398e-04  1.79999973e+00 -9.67604448e-02  4.00000000e-01 
 4.06944398e-04  1.80000027e+00 -9.67444448e-02  4.00000000e-01 
 4.08944398e-04  1.79999973e+00 -9.67284448e-02  4.00000000e-01 
 4.10944398e-04  1.80000027e+00 -9.67124448e-02  4.00000000e-01 
 4.12944398e-04  1.79999973e+00 -9.66964448e-02  4.00000000e-01 
 4.14944398e-04  1.80000027e+00 -9.66804448e-02  4.00000000e-01 
 4.16944398e-04  1.79999973e+00 -9.66644448e-02  4.00000000e-01 
 4.18944398e-04  1.80000027e+00 -9.66484448e-02  4.00000000e-01 
 4.20944398e-04  1.79999973e+00 -9.66324448e-02  4.00000000e-01 
 4.22944398e-04  1.80000027e+00 -9.66164448e-02  4.00000000e-01 
 4.24944398e-04  1.79999973e+00 -9.66004448e-02  4.00000000e-01 
 4.26944398e-04  1.80000027e+00 -9.65844448e-02  4.00000000e-01 
 4.28944398e-04  1.79999973e+00 -9.65684448e-02  4.00000000e-01 
 4.30944398e-04  1.80000027e+00 -9.65524448e-02  4.00000000e-01 
 4.32944398e-04  1.79999973e+00 -9.65364448e-02  4.00000000e-01 
 4.34944398e-04  1.80000027e+00 -9.65204448e-02  4.00000000e-01 
 4.36944398e-04  1.79999973e+00 -9.65044448e-02  4.00000000e-01 
 4.38944398e-04  1.80000027e+00 -9.64884448e-02  4.00000000e-01 
 4.40944398e-04  1.79999973e+00 -9.64724448e-02  4.00000000e-01 
 4.42944398e-04  1.80000027e+00 -9.64564448e-02  4.00000000e-01 
 4.44944398e-04  1.79999973e+00 -9.64404448e-02  4.00000000e-01 
 4.46944398e-04  1.80000027e+00 -9.64244448e-02  4.00000000e-01 
 4.48944398e-04  1.79999973e+00 -9.64084448e-02  4.00000000e-01 
 4.50944398e-04  1.80000027e+00 -9.63924448e-02  4.00000000e-01 
 4.52944398e-04  1.79999973e+00 -9.63764448e-02  4.00000000e-01 
 4.54944398e-04  1.80000027e+00 -9.63604448e-02  4.00000000e-01 
 4.56944398e-04  1.79999973e+00 -9.63444448e-02  4.00000000e-01 
 4.58944398e-04  1.80000027e+00 -9.63284448e-02  4.00000000e-01 
 4.60944398e-04  1.79999973e+00 -9.63124448e-02  4.00000000e-01 
 4.62944398e-04  1.80000027e+00 -9.62964448e-02  4.00000000e-01 
 4.64944398e-04  1.79999973e+00 -9.62804448e-02  4.00000000e-01 
 4.66944398e-04  1.80000027e+00 -9.62644448e-02  4.00000000e-01 
 4.68944398e-04  1.79999973e+00 -9.62484448e-02  4.00000000e-01 
 4.70944398e-04  1.80000027e+00 -9.62324448e-02  4.00000000e-01 
 4.72944398e-04  1.79999973e+00 -9.62164448e-02  4.00000000e-01 
 4.74944398e-04  1.80000027e+00 -9.62004448e-02  4.00000000e-01 
 4.76944398e-04  1.79999973e+00 -9.61844448e-02  4.00000000e-01 
 4.78944398e-04  1.80000027e+00 -9.61684448e-02  4.00000000e-01 
 4.80944398e-04  1.79999973e+00 -9.61524448e-02  4.00000000e-01 
 4.82944398e-04  1.80000027e+00 -9.61364448e-02  4.00000000e-01 
 4.84944398e-04  1.79999973e+00 -9.61204448e-02  4.00000000e-01 
 4.86944398e-04  1.80000027e+00 -9.61044448e-02  4.00000000e-01 
 4.88944398e-04  1.79999973e+00 -9.60884448e-02  4.00000000e-01 
 4.90944398e-04  1.80000027e+00 -9.60724448e-02  4.00000000e-01 
 4.92944398e-04  1.79999973e+00 -9.60564448e-02  4.00000000e-01 
 4.94944398e-04  1.80000027e+00 -9.60404448e-02  4.00000000e-01 
 4.96944398e-04  1.79999973e+00 -9.60244448e-02  4.00000000e-01 
 4.98944398e-04  1.80000027e+00 -9.60084448e-02  4.00000000e-01 
 5.00100100e-04  1.79999973e+00 -9.59991992e-02  4.00000000e-01 
 5.00100110e-04  1.79999723e+00 -9.59991991e-02  4.00000000e-01 
 5.00100130e-04  1.80000205e+00 -9.59991990e-02  4.00000000e-01 
 5.00100170e-04  1.80001474e+00 -9.59991986e-02  4.00000000e-01 
 5.00100200e-04  1.80007744e+00 -9.59991984e-02  4.00000000e-01 
 5.00100208e-04  1.79995849e+00 -9.59991983e-02  4.00000000e-01 
 5.00100224e-04  1.79944721e+00 -9.59991982e-02  4.00000000e-01 
 5.00100256e-04  1.79913136e+00 -9.59991980e-02  4.00000000e-01 
 5.00100320e-04  1.85837463e+00 -9.59991974e-02  4.00000000e-01 
 5.00100386e-04  1.77945316e+00 -9.59991969e-02  4.00000000e-01 
 5.00100464e-04  1.81183345e+00 -9.59991963e-02  4.00000000e-01 
 5.00100589e-04  1.79116375e+00 -9.59991953e-02  4.00000000e-01 
 5.00100717e-04  1.80673124e+00 -9.59991943e-02  4.00000000e-01 
 5.00100974e-04  1.79408107e+00 -9.59991922e-02  4.00000000e-01 
 5.00101488e-04  1.80557385e+00 -9.59991881e-02  4.00000000e-01 
 5.00102372e-04  1.79463409e+00 -9.59991810e-02  4.00000000e-01 
 5.00104140e-04  1.80528412e+00 -9.59991669e-02  4.00000000e-01 
 5.00107676e-04  1.79477496e+00 -9.59991386e-02  4.00000000e-01 
 5.00114749e-04  1.80521456e+00 -9.59990820e-02  4.00000000e-01 
