 time            v(Q)            v(A)-v(B)       v(B)           
 0.00000000e+00  1.79999999e+00  3.00000000e-01  0.00000000e+00 
 1.00000000e-09  1.79999999e+00  3.00000004e-01  0.00000000e+00 
 2.00000000e-09  1.79999999e+00  3.00000008e-01  0.00000000e+00 
 4.00000000e-09  1.79999999e+00  3.00000016e-01  0.00000000e+00 
 8.00000000e-09  1.79999999e+00  3.00000032e-01  0.00000000e+00 
 1.60000000e-08  1.79999999e+00  3.00000064e-01  0.00000000e+00 
 3.20000000e-08  1.79999999e+00  3.00000128e-01  0.00000000e+00 
 6.40000000e-08  1.79999999e+00  3.00000256e-01  0.00000000e+00 
 1.00000000e-07  1.79999999e+00  3.00000400e-01  0.00000000e+00 
 1.00010000e-07  1.80001215e+00  3.00000400e-01  0.00000000e+00 
 1.00030000e-07  1.79998718e+00  3.00000400e-01  0.00000000e+00 
 1.00070000e-07  1.79993229e+00  3.00000400e-01  0.00000000e+00 
 1.00100000e-07  1.80006349e+00  3.00000400e-01  0.00000000e+00 
 1.00107642e-07  1.80043507e+00  3.00000400e-01  0.00000000e+00 
 1.00122927e-07  1.80052954e+00  3.00000400e-01  0.00000000e+00 
 1.00153497e-07  1.79977163e+00  3.00000401e-01  0.00000000e+00 
 1.00214636e-07  1.79990034e+00  3.00000401e-01  0.00000000e+00 
 1.00288039e-07  1.79575599e+00  3.00000401e-01  0.00000000e+00 
 1.00434843e-07  1.78478980e+00  3.00000402e-01  0.00000000e+00 
 1.00608820e-07  1.81219127e+00  3.00000402e-01  0.00000000e+00 
 1.00787190e-07  1.78953257e+00  3.00000403e-01  0.00000000e+00 
 1.01060973e-07  1.80916548e+00  3.00000404e-01  0.00000000e+00 
 1.01513781e-07  1.79129331e+00  3.00000406e-01  0.00000000e+00 
 1.02419397e-07  1.80827830e+00  3.00000410e-01  0.00000000e+00 
 1.04142308e-07  1.79173995e+00  3.00000417e-01  0.00000000e+00 
 1.07513304e-07  1.80805784e+00  3.00000430e-01  0.00000000e+00 
 1.14255297e-07  1.79185522e+00  3.00000457e-01  0.00000000e+00 
 1.27739282e-07  1.80800283e+00  3.00000511e-01  0.00000000e+00 
 1.54707253e-07  1.79188216e+00  3.00000619e-01  0.00000000e+00 
 2.08643194e-07  1.80798913e+00  3.00000835e-01  0.00000000e+00 
 3.16515077e-07  1.79188920e+00  3.00001266e-01  0.00000000e+00 
 5.32258843e-07  1.80798571e+00  3.00002129e-01  0.00000000e+00 
 9.63746374e-07  1.79189096e+00  3.00003855e-01  0.00000000e+00 
 1.82672144e-06  1.80798485e+00  3.00007307e-01  0.00000000e+00 
 3.55267156e-06  1.79189140e+00  3.00014211e-01  0.00000000e+00 
 5.55267156e-06  1.80798459e+00  3.00022211e-01  0.00000000e+00 
 7.55267156e-06  1.79189165e+00  3.00030211e-01  0.00000000e+00 
 9.55267156e-06  1.80798434e+00  3.00038211e-01  0.00000000e+00 
 1.15526716e-05  1.79189191e+00  3.00046211e-01  0.00000000e+00 
 1.35526716e-05  1.80798410e+00  3.00054211e-01  0.00000000e+00 
 1.55526716e-05  1.79189216e+00  3.00062211e-01  0.00000000e+00 
 1.75526716e-05  1.80798385e+00  3.00070211e-01  0.00000000e+00 
 1.95526716e-05  1.79189241e+00  3.00078211e-01  0.00000000e+00 
 2.15526716e-05  1.80798360e+00  3.00086211e-01  0.00000000e+00 
 2.35526716e-05  1.79189267e+00  3.00094211e-01  0.00000000e+00 
 2.55526716e-05  1.80798336e+00  3.00102211e-01  0.00000000e+00 
 2.75526716e-05  1.79189292e+00  3.00110211e-01  0.00000000e+00 
 2.95526716e-05  1.80798311e+00  3.00118211e-01  0.00000000e+00 
 3.15526716e-05  1.79189317e+00  3.00126211e-01  0.00000000e+00 
 3.35526716e-05  1.80798287e+00  3.00134211e-01  0.00000000e+00 
 3.55526716e-05  1.79189343e+00  3.00142211e-01  0.00000000e+00 
 3.75526716e-05  1.80798262e+00  3.00150211e-01  0.00000000e+00 
 3.95526716e-05  1.79189368e+00  3.00158211e-01  0.00000000e+00 
 4.15526716e-05  1.80798238e+00  3.00166211e-01  0.00000000e+00 
 4.35526716e-05  1.79189393e+00  3.00174211e-01  0.00000000e+00 
 4.55526716e-05  1.80798213e+00  3.00182211e-01  0.00000000e+00 
 4.75526716e-05  1.79189419e+00  3.00190211e-01  0.00000000e+00 
 4.95526716e-05  1.80798188e+00  3.00198211e-01  0.00000000e+00 
 5.15526716e-05  1.79189444e+00  3.00206211e-01  0.00000000e+00 
 5.35526716e-05  1.80798164e+00  3.00214211e-01  0.00000000e+00 
 5.55526716e-05  1.79189469e+00  3.00222211e-01  0.00000000e+00 
 5.75526716e-05  1.80798139e+00  3.00230211e-01  0.00000000e+00 
 5.95526716e-05  1.79189494e+00  3.00238211e-01  0.00000000e+00 
 6.15526716e-05  1.80798115e+00  3.00246211e-01  0.00000000e+00 
 6.35526716e-05  1.79189520e+00  3.00254211e-01  0.00000000e+00 
 6.55526716e-05  1.80798090e+00  3.00262211e-01  0.00000000e+00 
 6.75526716e-05  1.79189545e+00  3.00270211e-01  0.00000000e+00 
 6.95526716e-05  1.80798065e+00  3.00278211e-01  0.00000000e+00 
 7.15526716e-05  1.79189570e+00  3.00286211e-01  0.00000000e+00 
 7.35526716e-05  1.80798041e+00  3.00294211e-01  0.00000000e+00 
 7.55526716e-05  1.79189596e+00  3.00302211e-01  0.00000000e+00 
 7.75526716e-05  1.80798016e+00  3.00310211e-01  0.00000000e+00 
 7.95526716e-05  1.79189621e+00  3.00318211e-01  0.00000000e+00 
 8.15526716e-05  1.80797992e+00  3.00326211e-01  0.00000000e+00 
 8.35526716e-05  1.79189646e+00  3.00334211e-01  0.00000000e+00 
 8.55526716e-05  1.80797967e+00  3.00342211e-01  0.00000000e+00 
 8.75526716e-05  1.79189671e+00  3.00350211e-01  0.00000000e+00 
 8.95526716e-05  1.80797943e+00  3.00358211e-01  0.00000000e+00 
 9.15526716e-05  1.79189697e+00  3.00366211e-01  0.00000000e+00 
 9.35526716e-05  1.80797918e+00  3.00374211e-01  0.00000000e+00 
 9.55526716e-05  1.79189722e+00  3.00382211e-01  0.00000000e+00 
 9.75526716e-05  1.80797893e+00  3.00390211e-01  0.00000000e+00 
 9.95526716e-05  1.79189747e+00  3.00398211e-01  0.00000000e+00 
 1.01552672e-04  1.80797869e+00  3.00406211e-01  0.00000000e+00 
 1.03552672e-04  1.79189773e+00  3.00414211e-01  0.00000000e+00 
 1.05552672e-04  1.80797844e+00  3.00422211e-01  0.00000000e+00 
 1.07552672e-04  1.79189798e+00  3.00430211e-01  0.00000000e+00 
 1.09552672e-04  1.80797820e+00  3.00438211e-01  0.00000000e+00 
 1.11552672e-04  1.79189823e+00  3.00446211e-01  0.00000000e+00 
 1.13552672e-04  1.80797795e+00  3.00454211e-01  0.00000000e+00 
 1.15552672e-04  1.79189848e+00  3.00462211e-01  0.00000000e+00 
 1.17552672e-04  1.80797771e+00  3.00470211e-01  0.00000000e+00 
 1.19552672e-04  1.79189874e+00  3.00478211e-01  0.00000000e+00 
 1.21552672e-04  1.80797746e+00  3.00486211e-01  0.00000000e+00 
 1.23552672e-04  1.79189899e+00  3.00494211e-01  0.00000000e+00 
 1.25552672e-04  1.80797721e+00  3.00502211e-01  0.00000000e+00 
 1.27552672e-04  1.79189924e+00  3.00510211e-01  0.00000000e+00 
 1.29552672e-04  1.80797697e+00  3.00518211e-01  0.00000000e+00 
 1.31552672e-04  1.79189950e+00  3.00526211e-01  0.00000000e+00 
 1.33552672e-04  1.80797672e+00  3.00534211e-01  0.00000000e+00 
 1.35552672e-04  1.79189975e+00  3.00542211e-01  0.00000000e+00 
 1.37552672e-04  1.80797648e+00  3.00550211e-01  0.00000000e+00 
 1.39552672e-04  1.79190000e+00  3.00558211e-01  0.00000000e+00 
 1.41552672e-04  1.80797623e+00  3.00566211e-01  0.00000000e+00 
 1.43552672e-04  1.79190025e+00  3.00574211e-01  0.00000000e+00 
 1.45552672e-04  1.80797599e+00  3.00582211e-01  0.00000000e+00 
 1.47552672e-04  1.79190051e+00  3.00590211e-01  0.00000000e+00 
 1.49552672e-04  1.80797574e+00  3.00598211e-01  0.00000000e+00 
 1.51552672e-04  1.79190076e+00  3.00606211e-01  0.00000000e+00 
 1.53552672e-04  1.80797550e+00  3.00614211e-01  0.00000000e+00 
 1.55552672e-04  1.79190101e+00  3.00622211e-01  0.00000000e+00 
 1.57552672e-04  1.80797525e+00  3.00630211e-01  0.00000000e+00 
 1.59552672e-04  1.79190127e+00  3.00638211e-01  0.00000000e+00 
 1.61552672e-04  1.80797500e+00  3.00646211e-01  0.00000000e+00 
 1.63552672e-04  1.79190152e+00  3.00654211e-01  0.00000000e+00 
 1.65552672e-04  1.80797476e+00  3.00662211e-01  0.00000000e+00 
 1.67552672e-04  1.79190177e+00  3.00670211e-01  0.00000000e+00 
 1.69552672e-04  1.80797451e+00  3.00678211e-01  0.00000000e+00 
 1.71552672e-04  1.79190202e+00  3.00686211e-01  0.00000000e+00 
 1.73552672e-04  1.80797427e+00  3.00694211e-01  0.00000000e+00 
 1.75552672e-04  1.79190228e+00  3.00702211e-01  0.00000000e+00 
 1.77552672e-04  1.80797402e+00  3.00710211e-01  0.00000000e+00 
 1.79552672e-04  1.79190253e+00  3.00718211e-01  0.00000000e+00 
 1.81552672e-04  1.80797378e+00  3.00726211e-01  0.00000000e+00 
 1.83552672e-04  1.79190278e+00  3.00734211e-01  0.00000000e+00 
 1.85552672e-04  1.80797353e+00  3.00742211e-01  0.00000000e+00 
 1.87552672e-04  1.79190303e+00  3.00750211e-01  0.00000000e+00 
 1.89552672e-04  1.80797328e+00  3.00758211e-01  0.00000000e+00 
 1.91552672e-04  1.79190329e+00  3.00766211e-01  0.00000000e+00 
 1.93552672e-04  1.80797304e+00  3.00774211e-01  0.00000000e+00 
 1.95552672e-04  1.79190354e+00  3.00782211e-01  0.00000000e+00 
 1.97552672e-04  1.80797279e+00  3.00790211e-01  0.00000000e+00 
 1.99552672e-04  1.79190379e+00  3.00798211e-01  0.00000000e+00 
 2.00000000e-04  1.80797212e+00  3.00800000e-01  0.00000000e+00 
 2.00200000e-04  1.80000027e+00 -9.91992000e-02  4.00000000e-01 
 2.00600000e-04  1.79999972e+00 -9.91976000e-02  4.00000000e-01 
 2.01083498e-04  1.80000027e+00 -9.91956660e-02  4.00000000e-01 
 2.01703798e-04  1.79999972e+00 -9.91931848e-02  4.00000000e-01 
 2.02944398e-04  1.80000027e+00 -9.91882224e-02  4.00000000e-01 
 2.04944398e-04  1.79999972e+00 -9.91802224e-02  4.00000000e-01 
 2.06944398e-04  1.80000027e+00 -9.91722224e-02  4.00000000e-01 
 2.08944398e-04  1.79999972e+00 -9.91642224e-02  4.00000000e-01 
 2.10944398e-04  1.80000027e+00 -9.91562224e-02  4.00000000e-01 
 2.12944398e-04  1.79999972e+00 -9.91482224e-02  4.00000000e-01 
 2.14944398e-04  1.80000027e+00 -9.91402224e-02  4.00000000e-01 
 2.16944398e-04  1.79999972e+00 -9.91322224e-02  4.00000000e-01 
 2.18944398e-04  1.80000027e+00 -9.91242224e-02  4.00000000e-01 
 2.20944398e-04  1.79999972e+00 -9.91162224e-02  4.00000000e-01 
 2.22944398e-04  1.80000027e+00 -9.91082224e-02  4.00000000e-01 
 2.24944398e-04  1.79999972e+00 -9.91002224e-02  4.00000000e-01 
 2.26944398e-04  1.80000027e+00 -9.90922224e-02  4.00000000e-01 
 2.28944398e-04  1.79999972e+00 -9.90842224e-02  4.00000000e-01 
 2.30944398e-04  1.80000027e+00 -9.90762224e-02  4.00000000e-01 
 2.32944398e-04  1.79999972e+00 -9.90682224e-02  4.00000000e-01 
 2.34944398e-04  1.80000027e+00 -9.90602224e-02  4.00000000e-01 
 2.36944398e-04  1.79999972e+00 -9.90522224e-02  4.00000000e-01 
 2.38944398e-04  1.80000027e+00 -9.90442224e-02  4.00000000e-01 
 2.40944398e-04  1.79999972e+00 -9.90362224e-02  4.00000000e-01 
 2.42944398e-04  1.80000027e+00 -9.90282224e-02  4.00000000e-01 
 2.44944398e-04  1.79999972e+00 -9.90202224e-02  4.00000000e-01 
 2.46944398e-04  1.80000027e+00 -9.90122224e-02  4.00000000e-01 
 2.48944398e-04  1.79999972e+00 -9.90042224e-02  4.00000000e-01 
 2.50944398e-04  1.80000027e+00 -9.89962224e-02  4.00000000e-01 
 2.52944398e-04  1.79999972e+00 -9.89882224e-02  4.00000000e-01 
 2.54944398e-04  1.80000027e+00 -9.89802224e-02  4.00000000e-01 
 2.56944398e-04  1.79999972e+00 -9.89722224e-02  4.00000000e-01 
 2.58944398e-04  1.80000027e+00 -9.89642224e-02  4.00000000e-01 
 2.60944398e-04  1.79999972e+00 -9.89562224e-02  4.00000000e-01 
 2.62944398e-04  1.80000027e+00 -9.89482224e-02  4.00000000e-01 
 2.64944398e-04  1.79999972e+00 -9.89402224e-02  4.00000000e-01 
 2.66944398e-04  1.80000027e+00 -9.89322224e-02  4.00000000e-01 
 2.68944398e-04  1.79999972e+00 -9.89242224e-02  4.00000000e-01 
 2.70944398e-04  1.80000027e+00 -9.89162224e-02  4.00000000e-01 
 2.72944398e-04  1.79999972e+00 -9.89082224e-02  4.00000000e-01 
 2.74944398e-04  1.80000027e+00 -9.89002224e-02  4.00000000e-01 
 2.76944398e-04  1.79999972e+00 -9.88922224e-02  4.00000000e-01 
 2.78944398e-04  1.80000027e+00 -9.88842224e-02  4.00000000e-01 
 2.80944398e-04  1.79999972e+00 -9.88762224e-02  4.00000000e-01 
 2.82944398e-04  1.80000027e+00 -9.88682224e-02  4.00000000e-01 
 2.84944398e-04  1.79999972e+00 -9.88602224e-02  4.00000000e-01 
 2.86944398e-04  1.80000027e+00 -9.88522224e-02  4.00000000e-01 
 2.88944398e-04  1.79999972e+00 -9.88442224e-02  4.00000000e-01 
 2.90944398e-04  1.80000027e+00 -9.88362224e-02  4.00000000e-01 
 2.92944398e-04  1.79999972e+00 -9.88282224e-02  4.00000000e-01 
 2.94944398e-04  1.80000027e+00 -9.88202224e-02  4.00000000e-01 
 2.96944398e-04  1.79999972e+00 -9.88122224e-02  4.00000000e-01 
 2.98944398e-04  1.80000027e+00 -9.88042224e-02  4.00000000e-01 
 3.00944398e-04  1.79999972e+00 -9.87962224e-02  4.00000000e-01 
 3.02944398e-04  1.80000027e+00 -9.87882224e-02  4.00000000e-01 
 3.04944398e-04  1.79999972e+00 -9.87802224e-02  4.00000000e-01 
 3.06944398e-04  1.80000027e+00 -9.87722224e-02  4.00000000e-01 
 3.08944398e-04  1.79999972e+00 -9.87642224e-02  4.00000000e-01 
 3.10944398e-04  1.80000027e+00 -9.87562224e-02  4.00000000e-01 
 3.12944398e-04  1.79999972e+00 -9.87482224e-02  4.00000000e-01 
 3.14944398e-04  1.80000027e+00 -9.87402224e-02  4.00000000e-01 
 3.16944398e-04  1.79999972e+00 -9.87322224e-02  4.00000000e-01 
 3.18944398e-04  1.80000027e+00 -9.87242224e-02  4.00000000e-01 
 3.20944398e-04  1.79999972e+00 -9.87162224e-02  4.00000000e-01 
 3.22944398e-04  1.80000027e+00 -9.87082224e-02  4.00000000e-01 
 3.24944398e-04  1.79999972e+00 -9.87002224e-02  4.00000000e-01 
 3.26944398e-04  1.80000027e+00 -9.86922224e-02  4.00000000e-01 
 3.28944398e-04  1.79999972e+00 -9.86842224e-02  4.00000000e-01 
 3.30944398e-04  1.80000027e+00 -9.86762224e-02  4.00000000e-01 
 3.32944398e-04  1.79999972e+00 -9.86682224e-02  4.00000000e-01 
 3.34944398e-04  1.80000027e+00 -9.86602224e-02  4.00000000e-01 
 3.36944398e-04  1.79999972e+00 -9.86522224e-02  4.00000000e-01 
 3.38944398e-04  1.80000027e+00 -9.86442224e-02  4.00000000e-01 
 3.40944398e-04  1.79999972e+00 -9.86362224e-02  4.00000000e-01 
 3.42944398e-04  1.80000027e+00 -9.86282224e-02  4.00000000e-01 
 3.44944398e-04  1.79999972e+00 -9.86202224e-02  4.00000000e-01 
 3.46944398e-04  1.80000027e+00 -9.86122224e-02  4.00000000e-01 
 3.48944398e-04  1.79999972e+00 -9.86042224e-02  4.00000000e-01 
 3.50944398e-04  1.80000027e+00 -9.85962224e-02  4.00000000e-01 
 3.52944398e-04  1.79999972e+00 -9.85882224e-02  4.00000000e-01 
 3.54944398e-04  1.80000027e+00 -9.85802224e-02  4.00000000e-01 
 3.56944398e-04  1.79999972e+00 -9.85722224e-02  4.00000000e-01 
 3.58944398e-04  1.80000027e+00 -9.85642224e-02  4.00000000e-01 
 3.60944398e-04  1.79999972e+00 -9.85562224e-02  4.00000000e-01 
 3.62944398e-04  1.80000027e+00 -9.85482224e-02  4.00000000e-01 
 3.64944398e-04  1.79999972e+00 -9.85402224e-02  4.00000000e-01 
 3.66944398e-04  1.80000027e+00 -9.85322224e-02  4.00000000e-01 
 3.68944398e-04  1.79999972e+00 -9.85242224e-02  4.00000000e-01 
 3.70944398e-04  1.80000027e+00 -9.85162224e-02  4.00000000e-01 
 3.72944398e-04  1.79999973e+00 -9.85082224e-02  4.00000000e-01 
 3.74944398e-04  1.80000027e+00 -9.85002224e-02  4.00000000e-01 
 3.76944398e-04  1.79999973e+00 -9.84922224e-02  4.00000000e-01 
 3.78944398e-04  1.80000027e+00 -9.84842224e-02  4.00000000e-01 
 3.80944398e-04  1.79999973e+00 -9.84762224e-02  4.00000000e-01 
 3.82944398e-04  1.80000027e+00 -9.84682224e-02  4.00000000e-01 
 3.84944398e-04  1.79999973e+00 -9.84602224e-02  4.00000000e-01 
 3.86944398e-04  1.80000027e+00 -9.84522224e-02  4.00000000e-01 
 3.88944398e-04  1.79999973e+00 -9.84442224e-02  4.00000000e-01 
 3.90944398e-04  1.80000027e+00 -9.84362224e-02  4.00000000e-01 
 3.92944398e-04  1.79999973e+00 -9.84282224e-02  4.00000000e-01 
 3.94944398e-04  1.80000027e+00 -9.84202224e-02  4.00000000e-01 
 3.96944398e-04  1.79999973e+00 -9.84122224e-02  4.00000000e-01 
 3.98944398e-04  1.80000027e+00 -9.84042224e-02  4.00000000e-01 
 4.00944398e-04  1.79999973e+00 -9.83962224e-02  4.00000000e-01 
 4.02944398e-04  1.80000027e+00 -9.83882224e-02  4.00000000e-01 
 4.04944398e-04  1.79999973e+00 -9.83802224e-02  4.00000000e-01 
 4.06944398e-04  1.80000027e+00 -9.83722224e-02  4.00000000e-01 
 4.08944398e-04  1.79999973e+00 -9.83642224e-02  4.00000000e-01 
 4.10944398e-04  1.80000027e+00 -9.83562224e-02  4.00000000e-01 
 4.12944398e-04  1.79999973e+00 -9.83482224e-02  4.00000000e-01 
 4.14944398e-04  1.80000027e+00 -9.83402224e-02  4.00000000e-01 
 4.16944398e-04  1.79999973e+00 -9.83322224e-02  4.00000000e-01 
 4.18944398e-04  1.80000027e+00 -9.83242224e-02  4.00000000e-01 
 4.20944398e-04  1.79999973e+00 -9.83162224e-02  4.00000000e-01 
 4.22944398e-04  1.80000027e+00 -9.83082224e-02  4.00000000e-01 
 4.24944398e-04  1.79999973e+00 -9.83002224e-02  4.00000000e-01 
 4.26944398e-04  1.80000027e+00 -9.82922224e-02  4.00000000e-01 
 4.28944398e-04  1.79999973e+00 -9.82842224e-02  4.00000000e-01 
 4.30944398e-04  1.80000027e+00 -9.82762224e-02  4.00000000e-01 
 4.32944398e-04  1.79999973e+00 -9.82682224e-02  4.00000000e-01 
 4.34944398e-04  1.80000027e+00 -9.82602224e-02  4.00000000e-01 
 4.36944398e-04  1.79999973e+00 -9.82522224e-02  4.00000000e-01 
 4.38944398e-04  1.80000027e+00 -9.82442224e-02  4.00000000e-01 
 4.40944398e-04  1.79999973e+00 -9.82362224e-02  4.00000000e-01 
 4.42944398e-04  1.80000027e+00 -9.82282224e-02  4.00000000e-01 
 4.44944398e-04  1.79999973e+00 -9.82202224e-02  4.00000000e-01 
 4.46944398e-04  1.80000027e+00 -9.82122224e-02  4.00000000e-01 
 4.48944398e-04  1.79999973e+00 -9.82042224e-02  4.00000000e-01 
 4.50944398e-04  1.80000027e+00 -9.81962224e-02  4.00000000e-01 
 4.52944398e-04  1.79999973e+00 -9.81882224e-02  4.00000000e-01 
 4.54944398e-04  1.80000027e+00 -9.81802224e-02  4.00000000e-01 
 4.56944398e-04  1.79999973e+00 -9.81722224e-02  4.00000000e-01 
 4.58944398e-04  1.80000027e+00 -9.81642224e-02  4.00000000e-01 
 4.60944398e-04  1.79999973e+00 -9.81562224e-02  4.00000000e-01 
 4.62944398e-04  1.80000027e+00 -9.81482224e-02  4.00000000e-01 
 4.64944398e-04  1.79999973e+00 -9.81402224e-02  4.00000000e-01 
 4.66944398e-04  1.80000027e+00 -9.81322224e-02  4.00000000e-01 
 4.68944398e-04  1.79999973e+00 -9.81242224e-02  4.00000000e-01 
 4.70944398e-04  1.80000027e+00 -9.81162224e-02  4.00000000e-01 
 4.72944398e-04  1.79999973e+00 -9.81082224e-02  4.00000000e-01 
 4.74944398e-04  1.80000027e+00 -9.81002224e-02  4.00000000e-01 
 4.76944398e-04  1.79999973e+00 -9.80922224e-02  4.00000000e-01 
 4.78944398e-04  1.80000027e+00 -9.80842224e-02  4.00000000e-01 
 4.80944398e-04  1.79999973e+00 -9.80762224e-02  4.00000000e-01 
 4.82944398e-04  1.80000027e+00 -9.80682224e-02  4.00000000e-01 
 4.84944398e-04  1.79999973e+00 -9.80602224e-02  4.00000000e-01 
 4.86944398e-04  1.80000027e+00 -9.80522224e-02  4.00000000e-01 
 4.88944398e-04  1.79999973e+00 -9.80442224e-02  4.00000000e-01 
 4.90944398e-04  1.80000027e+00 -9.80362224e-02  4.00000000e-01 
 4.92944398e-04  1.79999973e+00 -9.80282224e-02  4.00000000e-01 
 4.94944398e-04  1.80000027e+00 -9.80202224e-02  4.00000000e-01 
 4.96944398e-04  1.79999973e+00 -9.80122224e-02  4.00000000e-01 
 4.98944398e-04  1.80000027e+00 -9.80042224e-02  4.00000000e-01 
 5.00100100e-04  1.79999973e+00 -9.79995996e-02  4.00000000e-01 
 5.00100110e-04  1.79999723e+00 -9.79995996e-02  4.00000000e-01 
 5.00100130e-04  1.80000205e+00 -9.79995995e-02  4.00000000e-01 
 5.00100170e-04  1.80001474e+00 -9.79995993e-02  4.00000000e-01 
 5.00100200e-04  1.80007750e+00 -9.79995992e-02  4.00000000e-01 
 5.00100208e-04  1.79995844e+00 -9.79995992e-02  4.00000000e-01 
 5.00100224e-04  1.79944725e+00 -9.79995991e-02  4.00000000e-01 
 5.00100256e-04  1.79913150e+00 -9.79995990e-02  4.00000000e-01 
 5.00100320e-04  1.85837210e+00 -9.79995987e-02  4.00000000e-01 
 5.00100386e-04  1.77945546e+00 -9.79995985e-02  4.00000000e-01 
 5.00100464e-04  1.81183249e+00 -9.79995981e-02  4.00000000e-01 
 5.00100589e-04  1.79116435e+00 -9.79995976e-02  4.00000000e-01 
 5.00100717e-04  1.80673086e+00 -9.79995971e-02  4.00000000e-01 
 5.00100974e-04  1.79408138e+00 -9.79995961e-02  4.00000000e-01 
 5.00101488e-04  1.80557357e+00 -9.79995940e-02  4.00000000e-01 
 5.00102372e-04  1.79463435e+00 -9.79995905e-02  4.00000000e-01 
 5.00104140e-04  1.80528385e+00 -9.79995834e-02  4.00000000e-01 
 5.00107676e-04  1.79477522e+00 -9.79995693e-02  4.00000000e-01 
 5.00114748e-04  1.80521430e+00 -9.79995410e-02  4.00000000e-01 
