 time            v(Q)            v(A)-v(B)       v(B)           
 0.00000000e+00  1.79999999e+00 -4.00000000e-01  4.00000000e-01 
 2.00000000e-11  1.79999999e+00 -4.00000200e-01  4.00000200e-01 
 4.00000000e-11  1.79999999e+00 -4.00000400e-01  4.00000400e-01 
 8.00000000e-11  1.79999999e+00 -4.00000800e-01  4.00000800e-01 
 1.60000000e-10  1.79999999e+00 -4.00001600e-01  4.00001600e-01 
 3.20000000e-10  1.79999999e+00 -4.00003200e-01  4.00003200e-01 
 6.40000000e-10  1.79999999e+00 -4.00006400e-01  4.00006400e-01 
 1.28000000e-09  1.79999999e+00 -4.00012800e-01  4.00012800e-01 
 2.56000000e-09  1.79999999e+00 -4.00025600e-01  4.00025600e-01 
 4.56000000e-09  1.79999999e+00 -4.00045600e-01  4.00045600e-01 
 6.56000000e-09  1.79999999e+00 -4.00065600e-01  4.00065600e-01 
 8.56000000e-09  1.79999999e+00 -4.00085600e-01  4.00085600e-01 
 1.05600000e-08  1.79999999e+00 -4.00105600e-01  4.00105600e-01 
 1.25600000e-08  1.79999999e+00 -4.00125600e-01  4.00125600e-01 
 1.45600000e-08  1.79999999e+00 -4.00145600e-01  4.00145600e-01 
 1.65600000e-08  1.79999999e+00 -4.00165600e-01  4.00165600e-01 
 1.85600000e-08  1.79999999e+00 -4.00185600e-01  4.00185600e-01 
 2.05600000e-08  1.79999999e+00 -4.00205600e-01  4.00205600e-01 
 2.25600000e-08  1.79999999e+00 -4.00225600e-01  4.00225600e-01 
 2.45600000e-08  1.79999999e+00 -4.00245600e-01  4.00245600e-01 
 2.65600000e-08  1.79999999e+00 -4.00265600e-01  4.00265600e-01 
 2.85600000e-08  1.79999999e+00 -4.00285600e-01  4.00285600e-01 
 3.05600000e-08  1.79999999e+00 -4.00305600e-01  4.00305600e-01 
 3.25600000e-08  1.79999999e+00 -4.00325600e-01  4.00325600e-01 
 3.45600000e-08  1.79999999e+00 -4.00345600e-01  4.00345600e-01 
 3.65600000e-08  1.79999999e+00 -4.00365600e-01  4.00365600e-01 
 3.85600000e-08  1.79999999e+00 -4.00385600e-01  4.00385600e-01 
 4.05600000e-08  1.79999999e+00 -4.00405600e-01  4.00405600e-01 
 4.25600000e-08  1.79999999e+00 -4.00425600e-01  4.00425600e-01 
 4.45600000e-08  1.79999999e+00 -4.00445600e-01  4.00445600e-01 
 4.65600000e-08  1.79999999e+00 -4.00465600e-01  4.00465600e-01 
 4.85600000e-08  1.79999999e+00 -4.00485600e-01  4.00485600e-01 
 5.05600000e-08  1.79999999e+00 -4.00505600e-01  4.00505600e-01 
 5.25600000e-08  1.79999999e+00 -4.00525600e-01  4.00525600e-01 
 5.45600000e-08  1.79999999e+00 -4.00545600e-01  4.00545600e-01 
 5.65600000e-08  1.79999999e+00 -4.00565600e-01  4.00565600e-01 
 5.85600000e-08  1.79999999e+00 -4.00585600e-01  4.00585600e-01 
 6.05600000e-08  1.79999999e+00 -4.00605600e-01  4.00605600e-01 
 6.25600000e-08  1.79999999e+00 -4.00625600e-01  4.00625600e-01 
 6.45600000e-08  1.79999999e+00 -4.00645600e-01  4.00645600e-01 
 6.65600000e-08  1.79999999e+00 -4.00665600e-01  4.00665600e-01 
 6.85600000e-08  1.79999999e+00 -4.00685600e-01  4.00685600e-01 
 7.05600000e-08  1.79999999e+00 -4.00705600e-01  4.00705600e-01 
 7.25600000e-08  1.79999999e+00 -4.00725600e-01  4.00725600e-01 
 7.45600000e-08  1.79999999e+00 -4.00745600e-01  4.00745600e-01 
 7.65600000e-08  1.79999999e+00 -4.00765600e-01  4.00765600e-01 
 7.85600000e-08  1.79999999e+00 -4.00785600e-01  4.00785600e-01 
 8.05600000e-08  1.79999999e+00 -4.00805600e-01  4.00805600e-01 
 8.25600000e-08  1.79999999e+00 -4.00825600e-01  4.00825600e-01 
 8.45600000e-08  1.79999999e+00 -4.00845600e-01  4.00845600e-01 
 8.65600000e-08  1.79999999e+00 -4.00865600e-01  4.00865600e-01 
 8.85600000e-08  1.79999999e+00 -4.00885600e-01  4.00885600e-01 
 9.05600000e-08  1.79999999e+00 -4.00905600e-01  4.00905600e-01 
 9.25600000e-08  1.79999999e+00 -4.00925600e-01  4.00925600e-01 
 9.45600000e-08  1.79999999e+00 -4.00945600e-01  4.00945600e-01 
 9.65600000e-08  1.79999999e+00 -4.00965600e-01  4.00965600e-01 
 9.85600000e-08  1.79999999e+00 -4.00985600e-01  4.00985600e-01 
 1.00000000e-07  1.79999999e+00 -4.01000000e-01  4.01000000e-01 
 1.00010000e-07  1.80001214e+00 -4.01000100e-01  4.01000100e-01 
 1.00030000e-07  1.79998715e+00 -4.01000300e-01  4.01000300e-01 
 1.00070000e-07  1.79993241e+00 -4.01000700e-01  4.01000700e-01 
 1.00100000e-07  1.80005858e+00 -4.01001000e-01  4.01001000e-01 
 1.00107642e-07  1.80043742e+00 -4.01001076e-01  4.01001076e-01 
 1.00122927e-07  1.80056349e+00 -4.01001229e-01  4.01001229e-01 
 1.00153495e-07  1.79967112e+00 -4.01001535e-01  4.01001535e-01 
 1.00214633e-07  1.79985952e+00 -4.01002146e-01  4.01002146e-01 
 1.00288406e-07  1.79598938e+00 -4.01002884e-01  4.01002884e-01 
 1.00411148e-07  2.58605960e-01 -4.01004111e-01  4.01004111e-01 
 1.00540547e-07 -1.28936641e-01 -4.01005405e-01  4.01005405e-01 
 1.00659154e-07  1.07826990e-01 -4.01006592e-01  4.01006592e-01 
 1.00835974e-07 -7.52240118e-02 -4.01008360e-01  4.01008360e-01 
 1.01019628e-07  6.70454962e-02 -4.01010196e-01  4.01010196e-01 
 1.01288540e-07 -5.33623448e-02 -4.01012885e-01  4.01012885e-01 
 1.01646721e-07  5.15451265e-02 -4.01016467e-01  4.01016467e-01 
 1.02143383e-07 -4.46457946e-02 -4.01021434e-01  4.01021434e-01 
 1.02882653e-07  4.51397715e-02 -4.01028827e-01  4.01028827e-01 
 1.03934290e-07 -4.10053044e-02 -4.01039343e-01  4.01039343e-01 
 1.05513461e-07  4.24356941e-02 -4.01055135e-01  4.01055135e-01 
 1.07513461e-07 -3.93298092e-02 -4.01075135e-01  4.01075135e-01 
 1.09513461e-07  4.08223506e-02 -4.01095135e-01  4.01095135e-01 
 1.11513461e-07 -3.79098968e-02 -4.01115135e-01  4.01115135e-01 
 1.13513461e-07  3.92764614e-02 -4.01135135e-01  4.01135135e-01 
 1.15513461e-07 -3.65433471e-02 -4.01155135e-01  4.01155135e-01 
 1.17513461e-07  3.77944595e-02 -4.01175135e-01  4.01175135e-01 
 1.19513461e-07 -3.52278973e-02 -4.01195135e-01  4.01195135e-01 
 1.21513461e-07  3.63731793e-02 -4.01215135e-01  4.01215135e-01 
 1.23513461e-07 -3.39615171e-02 -4.01235135e-01  4.01235135e-01 
 1.25513461e-07  3.50097324e-02 -4.01255135e-01  4.01255135e-01 
 1.27513461e-07 -3.27422717e-02 -4.01275135e-01  4.01275135e-01 
 1.29513461e-07  3.37014325e-02 -4.01295135e-01  4.01295135e-01 
 1.31513461e-07 -3.15683166e-02 -4.01315135e-01  4.01315135e-01 
 1.33513461e-07  3.24457601e-02 -4.01335135e-01  4.01335135e-01 
 1.35513461e-07 -3.04378911e-02 -4.01355135e-01  4.01355135e-01 
 1.37513461e-07  3.12403423e-02 -4.01375135e-01  4.01375135e-01 
 1.39513461e-07 -2.93493113e-02 -4.01395135e-01  4.01395135e-01 
 1.41513461e-07  3.00829379e-02 -4.01415135e-01  4.01415135e-01 
 1.43513461e-07 -2.83009655e-02 -4.01435135e-01  4.01435135e-01 
 1.45513461e-07  2.89714261e-02 -4.01455135e-01  4.01455135e-01 
 1.47513461e-07 -2.72913096e-02 -4.01475135e-01  4.01475135e-01 
 1.49513461e-07  2.79037978e-02 -4.01495135e-01  4.01495135e-01 
 1.51513461e-07 -2.63188635e-02 -4.01515135e-01  4.01515135e-01 
 1.53513461e-07  2.68781472e-02 -4.01535135e-01  4.01535135e-01 
 1.55513461e-07 -2.53822074e-02 -4.01555135e-01  4.01555135e-01 
 1.57513461e-07  2.58682565e-02 -4.01575135e-01  4.01575135e-01 
 1.59513461e-07 -2.45037047e-02 -4.01595135e-01  4.01595135e-01 
 1.61513461e-07  2.49241664e-02 -4.01615135e-01  4.01615135e-01 
 1.63513461e-07 -2.36306234e-02 -4.01635135e-01  4.01635135e-01 
 1.65513461e-07  2.40165943e-02 -4.01655135e-01  4.01655135e-01 
 1.67513461e-07 -2.27899900e-02 -4.01675135e-01  4.01675135e-01 
 1.69513461e-07  2.31439673e-02 -4.01695135e-01  4.01695135e-01 
 1.71513461e-07 -2.19805688e-02 -4.01715135e-01  4.01715135e-01 
 1.73513461e-07  2.23048404e-02 -4.01735135e-01  4.01735135e-01 
 1.75513461e-07 -2.12011144e-02 -4.01755135e-01  4.01755135e-01 
 1.77513461e-07  2.14978349e-02 -4.01775135e-01  4.01775135e-01 
 1.79513461e-07 -2.04504408e-02 -4.01795135e-01  4.01795135e-01 
 1.81513461e-07  2.07216351e-02 -4.01815135e-01  4.01815135e-01 
 1.83513461e-07 -1.97274172e-02 -4.01835135e-01  4.01835135e-01 
 1.85513461e-07  1.99749844e-02 -4.01855135e-01  4.01855135e-01 
 1.87513461e-07 -1.90309644e-02 -4.01875135e-01  4.01875135e-01 
 1.89513461e-07  1.92566829e-02 -4.01895135e-01  4.01895135e-01 
 1.91513461e-07 -1.83600511e-02 -4.01915135e-01  4.01915135e-01 
 1.93513461e-07  1.85655836e-02 -4.01935135e-01  4.01935135e-01 
 1.95513461e-07 -1.77136918e-02 -4.01955135e-01  4.01955135e-01 
 1.97513461e-07  1.79005905e-02 -4.01975135e-01  4.01975135e-01 
 1.99513461e-07 -1.70909432e-02 -4.01995135e-01  4.01995135e-01 
 2.01513461e-07  1.72606557e-02 -4.02015135e-01  4.02015135e-01 
 2.03513461e-07 -1.64909024e-02 -4.02035135e-01  4.02035135e-01 
 2.05513461e-07  1.66447769e-02 -4.02055135e-01  4.02055135e-01 
 2.07513461e-07 -1.59127047e-02 -4.02075135e-01  4.02075135e-01 
 2.09513461e-07  1.60519952e-02 -4.02095135e-01  4.02095135e-01 
 2.11513461e-07 -1.53555210e-02 -4.02115135e-01  4.02115135e-01 
 2.13513461e-07  1.54813937e-02 -4.02135135e-01  4.02135135e-01 
 2.15513461e-07 -1.48185566e-02 -4.02155135e-01  4.02155135e-01 
 2.17513461e-07  1.49320942e-02 -4.02175135e-01  4.02175135e-01 
 2.19513461e-07 -1.43010492e-02 -4.02195135e-01  4.02195135e-01 
 2.21513461e-07  1.44032566e-02 -4.02215135e-01  4.02215135e-01 
 2.23513461e-07 -1.38022672e-02 -4.02235135e-01  4.02235135e-01 
 2.25513461e-07  1.38940759e-02 -4.02255135e-01  4.02255135e-01 
 2.27513461e-07 -1.33215084e-02 -4.02275135e-01  4.02275135e-01 
 2.29513461e-07  1.34037816e-02 -4.02295135e-01  4.02295135e-01 
 2.31513461e-07 -1.28580986e-02 -4.02315135e-01  4.02315135e-01 
 2.33513461e-07  1.29316355e-02 -4.02335135e-01  4.02335135e-01 
 2.35513461e-07 -1.24113898e-02 -4.02355135e-01  4.02355135e-01 
 2.37513461e-07  1.24769275e-02 -4.02375135e-01  4.02375135e-01 
 2.39513461e-07 -1.19807781e-02 -4.02395135e-01  4.02395135e-01 
 2.41513461e-07  1.20389360e-02 -4.02415135e-01  4.02415135e-01 
 2.43513461e-07 -1.15655387e-02 -4.02435135e-01  4.02435135e-01 
 2.45513461e-07  1.16169647e-02 -4.02455135e-01  4.02455135e-01 
 2.47513461e-07 -1.11651044e-02 -4.02475135e-01  4.02475135e-01 
 2.49513461e-07  1.12103918e-02 -4.02495135e-01  4.02495135e-01 
 2.51513461e-07 -1.07789389e-02 -4.02515135e-01  4.02515135e-01 
 2.53513461e-07  1.08186349e-02 -4.02535135e-01  4.02535135e-01 
 2.55513461e-07 -1.04065257e-02 -4.02555135e-01  4.02555135e-01 
 2.57513461e-07  1.04411347e-02 -4.02575135e-01  4.02575135e-01 
 2.59513461e-07 -1.00473671e-02 -4.02595135e-01  4.02595135e-01 
 2.61513461e-07  1.00773539e-02 -4.02615135e-01  4.02615135e-01 
 2.63513461e-07 -9.70098370e-03 -4.02635135e-01  4.02635135e-01 
 2.65513461e-07  9.72677626e-03 -4.02655135e-01  4.02655135e-01 
 2.67513461e-07 -9.36691370e-03 -4.02675135e-01  4.02675135e-01 
 2.69513461e-07  9.38890589e-03 -4.02695135e-01  4.02695135e-01 
 2.71513461e-07 -9.04471216e-03 -4.02715135e-01  4.02715135e-01 
 2.73513461e-07  9.06326624e-03 -4.02735135e-01  4.02735135e-01 
 2.75513461e-07 -8.73395044e-03 -4.02755135e-01  4.02755135e-01 
 2.77513461e-07  8.74939943e-03 -4.02775135e-01  4.02775135e-01 
 2.79513461e-07 -8.43421557e-03 -4.02795135e-01  4.02795135e-01 
 2.81513461e-07  8.44686543e-03 -4.02815135e-01  4.02815135e-01 
 2.83513461e-07 -8.14510970e-03 -4.02835135e-01  4.02835135e-01 
 2.85513461e-07  8.15524134e-03 -4.02855135e-01  4.02855135e-01 
 2.87513461e-07 -7.86639531e-03 -4.02875135e-01  4.02875135e-01 
 2.89513461e-07  7.87412193e-03 -4.02895135e-01  4.02895135e-01 
 2.91513461e-07 -7.59741915e-03 -4.02915135e-01  4.02915135e-01 
 2.93513461e-07  7.60311475e-03 -4.02935135e-01  4.02935135e-01 
 2.95513461e-07 -7.33780422e-03 -4.02955135e-01  4.02955135e-01 
 2.97513461e-07  7.34184399e-03 -4.02975135e-01  4.02975135e-01 
 2.99513461e-07 -7.08751880e-03 -4.02995135e-01  4.02995135e-01 
 3.01513461e-07  7.08994947e-03 -4.03015135e-01  4.03015135e-01 
 3.03513461e-07 -6.84608098e-03 -4.03035135e-01  4.03035135e-01 
 3.05513461e-07  6.84708410e-03 -4.03055135e-01  4.03055135e-01 
 3.07513461e-07 -6.61317262e-03 -4.03075135e-01  4.03075135e-01 
 3.09513461e-07  6.61291416e-03 -4.03095135e-01  4.03095135e-01 
 3.11513461e-07 -6.38848720e-03 -4.03115135e-01  4.03115135e-01 
 3.13513461e-07  6.38711880e-03 -4.03135135e-01  4.03135135e-01 
 3.15513461e-07 -6.17172938e-03 -4.03155135e-01  4.03155135e-01 
 3.17513461e-07  6.16938945e-03 -4.03175135e-01  4.03175135e-01 
 3.19513461e-07 -5.96261463e-03 -4.03195135e-01  4.03195135e-01 
 3.21513461e-07  5.95942941e-03 -4.03215135e-01  4.03215135e-01 
 3.23513461e-07 -5.76086883e-03 -4.03235135e-01  4.03235135e-01 
 3.25513461e-07  5.75695332e-03 -4.03255135e-01  4.03255135e-01 
 3.27513461e-07 -5.56622785e-03 -4.03275135e-01  4.03275135e-01 
 3.29513461e-07  5.56168672e-03 -4.03295135e-01  4.03295135e-01 
 3.31513461e-07 -5.37843724e-03 -4.03315135e-01  4.03315135e-01 
 3.33513461e-07  5.37336564e-03 -4.03335135e-01  4.03335135e-01 
 3.35513461e-07 -5.19725183e-03 -4.03355135e-01  4.03355135e-01 
 3.37513461e-07  5.19173616e-03 -4.03375135e-01  4.03375135e-01 
 3.39513461e-07 -5.02243541e-03 -4.03395135e-01  4.03395135e-01 
 3.41513461e-07  5.01655399e-03 -4.03415135e-01  4.03415135e-01 
 3.43513461e-07 -4.85376040e-03 -4.03435135e-01  4.03435135e-01 
 3.45513461e-07  4.84758416e-03 -4.03455135e-01  4.03455135e-01 
 3.47513461e-07 -4.69100751e-03 -4.03475135e-01  4.03475135e-01 
 3.49513461e-07  4.68460058e-03 -4.03495135e-01  4.03495135e-01 
 3.51513461e-07 -4.53396548e-03 -4.03515135e-01  4.03515135e-01 
 3.53513461e-07  4.52738572e-03 -4.03535135e-01  4.03535135e-01 
 3.55513461e-07 -4.38243074e-03 -4.03555135e-01  4.03555135e-01 
 3.57513461e-07  4.37573029e-03 -4.03575135e-01  4.03575135e-01 
 3.59513461e-07 -4.23620715e-03 -4.03595135e-01  4.03595135e-01 
 3.61513461e-07  4.22943287e-03 -4.03615135e-01  4.03615135e-01 
 3.63513461e-07 -4.09510573e-03 -4.03635135e-01  4.03635135e-01 
 3.65513461e-07  4.08829966e-03 -4.03655135e-01  4.03655135e-01 
 3.67513461e-07 -3.95894439e-03 -4.03675135e-01  4.03675135e-01 
 3.69513461e-07  3.95214412e-03 -4.03695135e-01  4.03695135e-01 
 3.71513461e-07 -3.82754765e-03 -4.03715135e-01  4.03715135e-01 
 3.73513461e-07  3.82078674e-03 -4.03735135e-01  4.03735135e-01 
 3.75513461e-07 -3.70074645e-03 -4.03755135e-01  4.03755135e-01 
 3.77513461e-07  3.69405474e-03 -4.03775135e-01  4.03775135e-01 
 3.79513461e-07 -3.57837787e-03 -4.03795135e-01  4.03795135e-01 
 3.81513461e-07  3.57178179e-03 -4.03815135e-01  4.03815135e-01 
 3.83513461e-07 -3.46028493e-03 -4.03835135e-01  4.03835135e-01 
 3.85513461e-07  3.45380781e-03 -4.03855135e-01  4.03855135e-01 
 3.87513461e-07 -3.34631634e-03 -4.03875135e-01  4.03875135e-01 
 3.89513461e-07  3.33997868e-03 -4.03895135e-01  4.03895135e-01 
 3.91513461e-07 -3.23632632e-03 -4.03915135e-01  4.03915135e-01 
 3.93513461e-07  3.23014604e-03 -4.03935135e-01  4.03935135e-01 
 3.95513461e-07 -3.13017439e-03 -4.03955135e-01  4.03955135e-01 
 3.97513461e-07  3.12416702e-03 -4.03975135e-01  4.03975135e-01 
 3.99513461e-07 -3.02772517e-03 -4.03995135e-01  4.03995135e-01 
 4.01513461e-07  3.02190410e-03 -4.04015135e-01  4.04015135e-01 
 4.03513461e-07 -2.92884818e-03 -4.04035135e-01  4.04035135e-01 
 4.05513461e-07  2.92322489e-03 -4.04055135e-01  4.04055135e-01 
 4.07513461e-07 -2.83341774e-03 -4.04075135e-01  4.04075135e-01 
 4.09513461e-07  2.82800179e-03 -4.04095135e-01  4.04095135e-01 
 4.11513461e-07 -2.74131256e-03 -4.04115135e-01  4.04115135e-01 
 4.13513461e-07  2.73611203e-03 -4.04135135e-01  4.04135135e-01 
 4.15513461e-07 -2.65241589e-03 -4.04155135e-01  4.04155135e-01 
 4.17513461e-07  2.64743735e-03 -4.04175135e-01  4.04175135e-01 
 4.19513461e-07 -2.56661516e-03 -4.04195135e-01  4.04195135e-01 
 4.21513461e-07  2.56186383e-03 -4.04215135e-01  4.04215135e-01 
 4.23513461e-07 -2.48380188e-03 -4.04235135e-01  4.04235135e-01 
 4.25513461e-07  2.47928178e-03 -4.04255135e-01  4.04255135e-01 
 4.27513461e-07 -2.40387146e-03 -4.04275135e-01  4.04275135e-01 
 4.29513461e-07  2.39958554e-03 -4.04295135e-01  4.04295135e-01 
 4.31513461e-07 -2.32672310e-03 -4.04315135e-01  4.04315135e-01 
 4.33513461e-07  2.32267330e-03 -4.04335135e-01  4.04335135e-01 
 4.35513461e-07 -2.25225963e-03 -4.04355135e-01  4.04355135e-01 
 4.37513461e-07  2.24844704e-03 -4.04375135e-01  4.04375135e-01 
 4.39513461e-07 -2.18038737e-03 -4.04395135e-01  4.04395135e-01 
 4.41513461e-07  2.17681227e-03 -4.04415135e-01  4.04415135e-01 
 4.43513461e-07 -2.11101605e-03 -4.04435135e-01  4.04435135e-01 
 4.45513461e-07  2.10767801e-03 -4.04455135e-01  4.04455135e-01 
 4.47513461e-07 -2.04405861e-03 -4.04475135e-01  4.04475135e-01 
 4.49513461e-07  2.04095658e-03 -4.04495135e-01  4.04495135e-01 
 4.51513461e-07 -1.97943114e-03 -4.04515135e-01  4.04515135e-01 
 4.53513461e-07  1.97656348e-03 -4.04535135e-01  4.04535135e-01 
 4.55513461e-07 -1.91705274e-03 -4.04555135e-01  4.04555135e-01 
 4.57513461e-07  1.91441732e-03 -4.04575135e-01  4.04575135e-01 
 4.59513461e-07 -1.85684539e-03 -4.04595135e-01  4.04595135e-01 
 4.61513461e-07  1.85443964e-03 -4.04615135e-01  4.04615135e-01 
 4.63513461e-07 -1.79873391e-03 -4.04635135e-01  4.04635135e-01 
 4.65513461e-07  1.79655486e-03 -4.04655135e-01  4.04655135e-01 
 4.67513461e-07 -1.74264577e-03 -4.04675135e-01  4.04675135e-01 
 4.69513461e-07  1.74069012e-03 -4.04695135e-01  4.04695135e-01 
 4.71513461e-07 -1.68851105e-03 -4.04715135e-01  4.04715135e-01 
 4.73513461e-07  1.68677519e-03 -4.04735135e-01  4.04735135e-01 
 4.75513461e-07 -1.63626234e-03 -4.04755135e-01  4.04755135e-01 
 4.77513461e-07  1.63474240e-03 -4.04775135e-01  4.04775135e-01 
 4.79513461e-07 -1.58583461e-03 -4.04795135e-01  4.04795135e-01 
 4.81513461e-07  1.58452651e-03 -4.04815135e-01  4.04815135e-01 
 4.83513461e-07 -1.53716518e-03 -4.04835135e-01  4.04835135e-01 
 4.85513461e-07  1.53606464e-03 -4.04855135e-01  4.04855135e-01 
 4.87513461e-07 -1.49019356e-03 -4.04875135e-01  4.04875135e-01 
 4.89513461e-07  1.48929614e-03 -4.04895135e-01  4.04895135e-01 
 4.91513461e-07 -1.44486146e-03 -4.04915135e-01  4.04915135e-01 
 4.93513461e-07  1.44416259e-03 -4.04935135e-01  4.04935135e-01 
 4.95513461e-07 -1.40111262e-03 -4.04955135e-01  4.04955135e-01 
 4.97513461e-07  1.40060763e-03 -4.04975135e-01  4.04975135e-01 
 4.99513461e-07 -1.35889281e-03 -4.04995135e-01  4.04995135e-01 
 5.00000000e-07  1.29619985e-03 -4.05000000e-01  4.05000000e-01 
 5.00131963e-07  9.58292901e-05  9.49986804e-02  4.05001320e-01 
 5.00395890e-07 -8.38103283e-05  9.49960411e-02  4.05003959e-01 
 5.00748308e-07  7.63626278e-05  9.49925169e-02  4.05007483e-01 
 5.01110961e-07 -6.99129983e-05  9.49888904e-02  4.05011110e-01 
 5.01836268e-07  6.71269999e-05  9.49816373e-02  4.05018363e-01 
 5.03286882e-07 -6.56902754e-05  9.49671312e-02  4.05032869e-01 
 5.05286882e-07  6.48040549e-05  9.49471312e-02  4.05052869e-01 
 5.07286882e-07 -6.37923153e-05  9.49271312e-02  4.05072869e-01 
 5.09286882e-07  6.29489134e-05  9.49071312e-02  4.05092869e-01 
 5.11286882e-07 -6.19801453e-05  9.48871312e-02  4.05112869e-01 
 5.13286882e-07  6.11767588e-05  9.48671312e-02  4.05132869e-01 
 5.15286882e-07 -6.02481424e-05  9.48471312e-02  4.05152869e-01 
 5.17286882e-07  5.94821446e-05  9.48271312e-02  4.05172869e-01 
 5.19286882e-07 -5.85910454e-05  9.48071312e-02  4.05192869e-01 
 5.21286882e-07  5.78599798e-05  9.47871312e-02  4.05212869e-01 
 5.23286882e-07 -5.70039406e-05  9.47671312e-02  4.05232869e-01 
 5.25286882e-07  5.63055139e-05  9.47471312e-02  4.05252869e-01 
 5.27286882e-07 -5.54822462e-05  9.47271312e-02  4.05272869e-01 
 5.29286882e-07  5.48143205e-05  9.47071312e-02  4.05292869e-01 
 5.31286882e-07 -5.40216955e-05  9.46871312e-02  4.05312869e-01 
 5.33286882e-07  5.33822800e-05  9.46671312e-02  4.05332869e-01 
 5.35286882e-07 -5.26183193e-05  9.46471312e-02  4.05352869e-01 
 5.37286882e-07  5.20055629e-05  9.46271312e-02  4.05372869e-01 
 5.39286882e-07 -5.12684294e-05  9.46071312e-02  4.05392869e-01 
 5.41286882e-07  5.06806116e-05  9.45871312e-02  4.05412869e-01 
 5.43286882e-07 -4.99686004e-05  9.45671312e-02  4.05432869e-01 
 5.45286882e-07  4.94041232e-05  9.45471312e-02  4.05452869e-01 
 5.47286882e-07 -4.87156532e-05  9.45271312e-02  4.05472869e-01 
 5.49286882e-07  4.81730338e-05  9.45071312e-02  4.05492869e-01 
 5.51286882e-07 -4.75066392e-05  9.44871312e-02  4.05512869e-01 
