 time            v(Q)            v(A)-v(B)       v(B)           
 0.00000000e+00  1.79999999e+00  6.00000000e-01  0.00000000e+00 
 1.00000000e-09  1.79999999e+00  6.00000008e-01  0.00000000e+00 
 2.00000000e-09  1.79999999e+00  6.00000016e-01  0.00000000e+00 
 4.00000000e-09  1.79999999e+00  6.00000032e-01  0.00000000e+00 
 8.00000000e-09  1.79999999e+00  6.00000064e-01  0.00000000e+00 
 1.60000000e-08  1.79999999e+00  6.00000128e-01  0.00000000e+00 
 3.20000000e-08  1.79999999e+00  6.00000256e-01  0.00000000e+00 
 6.40000000e-08  1.79999999e+00  6.00000512e-01  0.00000000e+00 
 1.00000000e-07  1.79999999e+00  6.00000800e-01  0.00000000e+00 
 1.00010000e-07  1.80001197e+00  6.00000800e-01  0.00000000e+00 
 1.00030000e-07  1.79998758e+00  6.00000800e-01  0.00000000e+00 
 1.00070000e-07  1.79993235e+00  6.00000801e-01  0.00000000e+00 
 1.00100000e-07  1.80005519e+00  6.00000801e-01  0.00000000e+00 
 1.00107641e-07  1.80035241e+00  6.00000801e-01  0.00000000e+00 
 1.00122924e-07  1.80041774e+00  6.00000801e-01  0.00000000e+00 
 1.00153489e-07  1.79994269e+00  6.00000801e-01  0.00000000e+00 
 1.00214620e-07  1.79903298e+00  6.00000802e-01  0.00000000e+00 
 1.00290707e-07  1.77099753e+00  6.00000802e-01  0.00000000e+00 
 1.00377262e-07  1.81095069e+00  6.00000803e-01  0.00000000e+00 
 1.00470606e-07  1.79368822e+00  6.00000804e-01  0.00000000e+00 
 1.00657294e-07  1.80408168e+00  6.00000805e-01  0.00000000e+00 
 1.00840665e-07  1.79737279e+00  6.00000807e-01  0.00000000e+00 
 1.01207408e-07  1.80180956e+00  6.00000810e-01  0.00000000e+00 
 1.01704427e-07  1.79859794e+00  6.00000814e-01  0.00000000e+00 
 1.02515369e-07  1.80106369e+00  6.00000820e-01  0.00000000e+00 
 1.04137253e-07  1.79902526e+00  6.00000833e-01  0.00000000e+00 
 1.07134824e-07  1.80086277e+00  6.00000857e-01  0.00000000e+00 
 1.13129965e-07  1.79913746e+00  6.00000905e-01  0.00000000e+00 
 1.25120247e-07  1.80081256e+00  6.00001001e-01  0.00000000e+00 
 1.49100811e-07  1.79916570e+00  6.00001193e-01  0.00000000e+00 
 1.97061939e-07  1.80080045e+00  6.00001576e-01  0.00000000e+00 
 2.92984194e-07  1.79917280e+00  6.00002344e-01  0.00000000e+00 
 4.84828706e-07  1.80079744e+00  6.00003879e-01  0.00000000e+00 
 8.68517728e-07  1.79917458e+00  6.00006948e-01  0.00000000e+00 
 1.63589577e-06  1.80079668e+00  6.00013087e-01  0.00000000e+00 
 3.17065186e-06  1.79917502e+00  6.00025365e-01  0.00000000e+00 
 5.17065186e-06  1.80079645e+00  6.00041365e-01  0.00000000e+00 
 7.17065186e-06  1.79917524e+00  6.00057365e-01  0.00000000e+00 
 9.17065186e-06  1.80079624e+00  6.00073365e-01  0.00000000e+00 
 1.11706519e-05  1.79917546e+00  6.00089365e-01  0.00000000e+00 
 1.31706519e-05  1.80079603e+00  6.00105365e-01  0.00000000e+00 
 1.51706519e-05  1.79917568e+00  6.00121365e-01  0.00000000e+00 
 1.71706519e-05  1.80079582e+00  6.00137365e-01  0.00000000e+00 
 1.91706519e-05  1.79917590e+00  6.00153365e-01  0.00000000e+00 
 2.11706519e-05  1.80079561e+00  6.00169365e-01  0.00000000e+00 
 2.31706519e-05  1.79917612e+00  6.00185365e-01  0.00000000e+00 
 2.51706519e-05  1.80079540e+00  6.00201365e-01  0.00000000e+00 
 2.71706519e-05  1.79917634e+00  6.00217365e-01  0.00000000e+00 
 2.91706519e-05  1.80079519e+00  6.00233365e-01  0.00000000e+00 
 3.11706519e-05  1.79917656e+00  6.00249365e-01  0.00000000e+00 
 3.31706519e-05  1.80079497e+00  6.00265365e-01  0.00000000e+00 
 3.51706519e-05  1.79917678e+00  6.00281365e-01  0.00000000e+00 
 3.71706519e-05  1.80079476e+00  6.00297365e-01  0.00000000e+00 
 3.91706519e-05  1.79917700e+00  6.00313365e-01  0.00000000e+00 
 4.11706519e-05  1.80079455e+00  6.00329365e-01  0.00000000e+00 
 4.31706519e-05  1.79917722e+00  6.00345365e-01  0.00000000e+00 
 4.51706519e-05  1.80079434e+00  6.00361365e-01  0.00000000e+00 
 4.71706519e-05  1.79917745e+00  6.00377365e-01  0.00000000e+00 
 4.91706519e-05  1.80079412e+00  6.00393365e-01  0.00000000e+00 
 5.11706519e-05  1.79917767e+00  6.00409365e-01  0.00000000e+00 
 5.31706519e-05  1.80079391e+00  6.00425365e-01  0.00000000e+00 
 5.51706519e-05  1.79917789e+00  6.00441365e-01  0.00000000e+00 
 5.71706519e-05  1.80079370e+00  6.00457365e-01  0.00000000e+00 
 5.91706519e-05  1.79917811e+00  6.00473365e-01  0.00000000e+00 
 6.11706519e-05  1.80079349e+00  6.00489365e-01  0.00000000e+00 
 6.31706519e-05  1.79917833e+00  6.00505365e-01  0.00000000e+00 
 6.51706519e-05  1.80079328e+00  6.00521365e-01  0.00000000e+00 
 6.71706519e-05  1.79917855e+00  6.00537365e-01  0.00000000e+00 
 6.91706519e-05  1.80079306e+00  6.00553365e-01  0.00000000e+00 
 7.11706519e-05  1.79917877e+00  6.00569365e-01  0.00000000e+00 
 7.31706519e-05  1.80079285e+00  6.00585365e-01  0.00000000e+00 
 7.51706519e-05  1.79917899e+00  6.00601365e-01  0.00000000e+00 
 7.71706519e-05  1.80079264e+00  6.00617365e-01  0.00000000e+00 
 7.91706519e-05  1.79917921e+00  6.00633365e-01  0.00000000e+00 
 8.11706519e-05  1.80079243e+00  6.00649365e-01  0.00000000e+00 
 8.31706519e-05  1.79917943e+00  6.00665365e-01  0.00000000e+00 
 8.51706519e-05  1.80079222e+00  6.00681365e-01  0.00000000e+00 
 8.71706519e-05  1.79917965e+00  6.00697365e-01  0.00000000e+00 
 8.91706519e-05  1.80079200e+00  6.00713365e-01  0.00000000e+00 
 9.11706519e-05  1.79917987e+00  6.00729365e-01  0.00000000e+00 
 9.31706519e-05  1.80079179e+00  6.00745365e-01  0.00000000e+00 
 9.51706519e-05  1.79918009e+00  6.00761365e-01  0.00000000e+00 
 9.71706519e-05  1.80079158e+00  6.00777365e-01  0.00000000e+00 
 9.91706519e-05  1.79918031e+00  6.00793365e-01  0.00000000e+00 
 1.01170652e-04  1.80079137e+00  6.00809365e-01  0.00000000e+00 
 1.03170652e-04  1.79918053e+00  6.00825365e-01  0.00000000e+00 
 1.05170652e-04  1.80079116e+00  6.00841365e-01  0.00000000e+00 
 1.07170652e-04  1.79918075e+00  6.00857365e-01  0.00000000e+00 
 1.09170652e-04  1.80079094e+00  6.00873365e-01  0.00000000e+00 
 1.11170652e-04  1.79918097e+00  6.00889365e-01  0.00000000e+00 
 1.13170652e-04  1.80079073e+00  6.00905365e-01  0.00000000e+00 
 1.15170652e-04  1.79918119e+00  6.00921365e-01  0.00000000e+00 
 1.17170652e-04  1.80079052e+00  6.00937365e-01  0.00000000e+00 
 1.19170652e-04  1.79918141e+00  6.00953365e-01  0.00000000e+00 
 1.21170652e-04  1.80079031e+00  6.00969365e-01  0.00000000e+00 
 1.23170652e-04  1.79918163e+00  6.00985365e-01  0.00000000e+00 
 1.25170652e-04  1.80079010e+00  6.01001365e-01  0.00000000e+00 
 1.27170652e-04  1.79918185e+00  6.01017365e-01  0.00000000e+00 
 1.29170652e-04  1.80078988e+00  6.01033365e-01  0.00000000e+00 
 1.31170652e-04  1.79918207e+00  6.01049365e-01  0.00000000e+00 
 1.33170652e-04  1.80078967e+00  6.01065365e-01  0.00000000e+00 
 1.35170652e-04  1.79918229e+00  6.01081365e-01  0.00000000e+00 
 1.37170652e-04  1.80078946e+00  6.01097365e-01  0.00000000e+00 
 1.39170652e-04  1.79918251e+00  6.01113365e-01  0.00000000e+00 
 1.41170652e-04  1.80078925e+00  6.01129365e-01  0.00000000e+00 
 1.43170652e-04  1.79918273e+00  6.01145365e-01  0.00000000e+00 
 1.45170652e-04  1.80078904e+00  6.01161365e-01  0.00000000e+00 
 1.47170652e-04  1.79918295e+00  6.01177365e-01  0.00000000e+00 
 1.49170652e-04  1.80078882e+00  6.01193365e-01  0.00000000e+00 
 1.51170652e-04  1.79918317e+00  6.01209365e-01  0.00000000e+00 
 1.53170652e-04  1.80078861e+00  6.01225365e-01  0.00000000e+00 
 1.55170652e-04  1.79918339e+00  6.01241365e-01  0.00000000e+00 
 1.57170652e-04  1.80078840e+00  6.01257365e-01  0.00000000e+00 
 1.59170652e-04  1.79918361e+00  6.01273365e-01  0.00000000e+00 
 1.61170652e-04  1.80078819e+00  6.01289365e-01  0.00000000e+00 
 1.63170652e-04  1.79918383e+00  6.01305365e-01  0.00000000e+00 
 1.65170652e-04  1.80078798e+00  6.01321365e-01  0.00000000e+00 
 1.67170652e-04  1.79918405e+00  6.01337365e-01  0.00000000e+00 
 1.69170652e-04  1.80078776e+00  6.01353365e-01  0.00000000e+00 
 1.71170652e-04  1.79918427e+00  6.01369365e-01  0.00000000e+00 
 1.73170652e-04  1.80078755e+00  6.01385365e-01  0.00000000e+00 
 1.75170652e-04  1.79918449e+00  6.01401365e-01  0.00000000e+00 
 1.77170652e-04  1.80078734e+00  6.01417365e-01  0.00000000e+00 
 1.79170652e-04  1.79918471e+00  6.01433365e-01  0.00000000e+00 
 1.81170652e-04  1.80078713e+00  6.01449365e-01  0.00000000e+00 
 1.83170652e-04  1.79918493e+00  6.01465365e-01  0.00000000e+00 
 1.85170652e-04  1.80078692e+00  6.01481365e-01  0.00000000e+00 
 1.87170652e-04  1.79918515e+00  6.01497365e-01  0.00000000e+00 
 1.89170652e-04  1.80078670e+00  6.01513365e-01  0.00000000e+00 
 1.91170652e-04  1.79918537e+00  6.01529365e-01  0.00000000e+00 
 1.93170652e-04  1.80078649e+00  6.01545365e-01  0.00000000e+00 
 1.95170652e-04  1.79918559e+00  6.01561365e-01  0.00000000e+00 
 1.97170652e-04  1.80078628e+00  6.01577365e-01  0.00000000e+00 
 1.99170652e-04  1.79918581e+00  6.01593365e-01  0.00000000e+00 
 2.00000000e-04  1.80078592e+00  6.01600000e-01  0.00000000e+00 
 2.00200000e-04  1.80000026e+00 -9.83984000e-02  7.00000000e-01 
 2.00600000e-04  8.08988686e-05 -9.83952000e-02  7.00000000e-01 
 2.00954038e-04 -7.73890959e-05 -9.83923677e-02  7.00000000e-01 
 2.01327989e-04  7.74102589e-05 -9.83893761e-02  7.00000000e-01 
 2.01923188e-04 -7.73749576e-05 -9.83846145e-02  7.00000000e-01 
 2.02897273e-04  7.74018338e-05 -9.83768218e-02  7.00000000e-01 
 2.04845441e-04 -7.73699320e-05 -9.83612365e-02  7.00000000e-01 
 2.06845441e-04  7.73985920e-05 -9.83452365e-02  7.00000000e-01 
 2.08845441e-04 -7.74974647e-05 -9.83292365e-02  7.00000000e-01 
 2.10845441e-04  7.73953901e-05 -9.83132365e-02  7.00000000e-01 
 2.12845441e-04 -7.74942894e-05 -9.82972365e-02  7.00000000e-01 
 2.14845441e-04  7.73921872e-05 -9.82812365e-02  7.00000000e-01 
 2.16845441e-04 -7.74909907e-05 -9.82652365e-02  7.00000000e-01 
 2.18845441e-04  7.73889833e-05 -9.82492365e-02  7.00000000e-01 
 2.20845441e-04 -7.74876928e-05 -9.82332365e-02  7.00000000e-01 
 2.22845441e-04  7.73857784e-05 -9.82172365e-02  7.00000000e-01 
 2.24845441e-04 -7.74843959e-05 -9.82012365e-02  7.00000000e-01 
 2.26845441e-04  7.73825726e-05 -9.81852365e-02  7.00000000e-01 
 2.28845441e-04 -7.74811000e-05 -9.81692365e-02  7.00000000e-01 
 2.30845441e-04  7.73793659e-05 -9.81532365e-02  7.00000000e-01 
 2.32845441e-04 -7.74778050e-05 -9.81372365e-02  7.00000000e-01 
 2.34845441e-04  7.73761583e-05 -9.81212365e-02  7.00000000e-01 
 2.36845441e-04 -7.74745109e-05 -9.81052365e-02  7.00000000e-01 
 2.38845441e-04  7.73729498e-05 -9.80892365e-02  7.00000000e-01 
 2.40845441e-04 -7.74712177e-05 -9.80732365e-02  7.00000000e-01 
 2.42845441e-04  7.73697405e-05 -9.80572365e-02  7.00000000e-01 
 2.44845441e-04 -7.74679254e-05 -9.80412365e-02  7.00000000e-01 
 2.46845441e-04  7.73665303e-05 -9.80252365e-02  7.00000000e-01 
 2.48845441e-04 -7.74646339e-05 -9.80092365e-02  7.00000000e-01 
 2.50845441e-04  7.73633194e-05 -9.79932365e-02  7.00000000e-01 
 2.52845441e-04 -7.74613432e-05 -9.79772365e-02  7.00000000e-01 
 2.54845441e-04  7.73601077e-05 -9.79612365e-02  7.00000000e-01 
 2.56845441e-04 -7.74580534e-05 -9.79452365e-02  7.00000000e-01 
 2.58845441e-04  7.73568953e-05 -9.79292365e-02  7.00000000e-01 
 2.60845441e-04 -7.74547643e-05 -9.79132365e-02  7.00000000e-01 
 2.62845441e-04  7.73536821e-05 -9.78972365e-02  7.00000000e-01 
 2.64845441e-04 -7.74514760e-05 -9.78812365e-02  7.00000000e-01 
 2.66845441e-04  7.73504682e-05 -9.78652365e-02  7.00000000e-01 
 2.68845441e-04 -7.74481885e-05 -9.78492365e-02  7.00000000e-01 
 2.70845441e-04  7.73472536e-05 -9.78332365e-02  7.00000000e-01 
 2.72845441e-04 -7.74449016e-05 -9.78172365e-02  7.00000000e-01 
 2.74845441e-04  7.73440384e-05 -9.78012365e-02  7.00000000e-01 
 2.76845441e-04 -7.74416155e-05 -9.77852365e-02  7.00000000e-01 
 2.78845441e-04  7.73408225e-05 -9.77692365e-02  7.00000000e-01 
 2.80845441e-04 -7.74383301e-05 -9.77532365e-02  7.00000000e-01 
 2.82845441e-04  7.73376059e-05 -9.77372365e-02  7.00000000e-01 
 2.84845441e-04 -7.74350454e-05 -9.77212365e-02  7.00000000e-01 
 2.86845441e-04  7.73343888e-05 -9.77052365e-02  7.00000000e-01 
 2.88845441e-04 -7.74317613e-05 -9.76892365e-02  7.00000000e-01 
 2.90845441e-04  7.73311710e-05 -9.76732365e-02  7.00000000e-01 
 2.92845441e-04 -7.74284779e-05 -9.76572365e-02  7.00000000e-01 
 2.94845441e-04  7.73279527e-05 -9.76412365e-02  7.00000000e-01 
 2.96845441e-04 -7.74251951e-05 -9.76252365e-02  7.00000000e-01 
 2.98845441e-04  7.73247338e-05 -9.76092365e-02  7.00000000e-01 
 3.00845441e-04 -7.74219130e-05 -9.75932365e-02  7.00000000e-01 
 3.02845441e-04  7.73215143e-05 -9.75772365e-02  7.00000000e-01 
 3.04845441e-04 -7.74186314e-05 -9.75612365e-02  7.00000000e-01 
 3.06845441e-04  7.73182943e-05 -9.75452365e-02  7.00000000e-01 
 3.08845441e-04 -7.74153505e-05 -9.75292365e-02  7.00000000e-01 
 3.10845441e-04  7.73150738e-05 -9.75132365e-02  7.00000000e-01 
 3.12845441e-04 -7.74120701e-05 -9.74972365e-02  7.00000000e-01 
 3.14845441e-04  7.73118528e-05 -9.74812365e-02  7.00000000e-01 
 3.16845441e-04 -7.74087903e-05 -9.74652365e-02  7.00000000e-01 
 3.18845441e-04  7.73086313e-05 -9.74492365e-02  7.00000000e-01 
 3.20845441e-04 -7.74055111e-05 -9.74332365e-02  7.00000000e-01 
 3.22845441e-04  7.73054094e-05 -9.74172365e-02  7.00000000e-01 
 3.24845441e-04 -7.74022324e-05 -9.74012365e-02  7.00000000e-01 
 3.26845441e-04  7.73021869e-05 -9.73852365e-02  7.00000000e-01 
 3.28845441e-04 -7.73989542e-05 -9.73692365e-02  7.00000000e-01 
 3.30845441e-04  7.72989640e-05 -9.73532365e-02  7.00000000e-01 
 3.32845441e-04 -7.73956765e-05 -9.73372365e-02  7.00000000e-01 
 3.34845441e-04  7.72957407e-05 -9.73212365e-02  7.00000000e-01 
 3.36845441e-04 -7.73923994e-05 -9.73052365e-02  7.00000000e-01 
 3.38845441e-04  7.72925170e-05 -9.72892365e-02  7.00000000e-01 
 3.40845441e-04 -7.73891228e-05 -9.72732365e-02  7.00000000e-01 
 3.42845441e-04  7.72892928e-05 -9.72572365e-02  7.00000000e-01 
 3.44845441e-04 -7.73858466e-05 -9.72412365e-02  7.00000000e-01 
 3.46845441e-04  7.72860682e-05 -9.72252365e-02  7.00000000e-01 
 3.48845441e-04 -7.73825709e-05 -9.72092365e-02  7.00000000e-01 
 3.50845441e-04  7.72828433e-05 -9.71932365e-02  7.00000000e-01 
 3.52845441e-04 -7.73792957e-05 -9.71772365e-02  7.00000000e-01 
 3.54845441e-04  7.72796180e-05 -9.71612365e-02  7.00000000e-01 
 3.56845441e-04 -7.73760210e-05 -9.71452365e-02  7.00000000e-01 
 3.58845441e-04  7.72763923e-05 -9.71292365e-02  7.00000000e-01 
 3.60845441e-04 -7.73727467e-05 -9.71132365e-02  7.00000000e-01 
 3.62845441e-04  7.72731662e-05 -9.70972365e-02  7.00000000e-01 
 3.64845441e-04 -7.73694729e-05 -9.70812365e-02  7.00000000e-01 
 3.66845441e-04  7.72699398e-05 -9.70652365e-02  7.00000000e-01 
 3.68845441e-04 -7.73661995e-05 -9.70492365e-02  7.00000000e-01 
 3.70845441e-04  7.72667131e-05 -9.70332365e-02  7.00000000e-01 
 3.72845441e-04 -7.73629265e-05 -9.70172365e-02  7.00000000e-01 
 3.74845441e-04  7.72634860e-05 -9.70012365e-02  7.00000000e-01 
 3.76845441e-04 -7.73596539e-05 -9.69852365e-02  7.00000000e-01 
 3.78845441e-04  7.72602587e-05 -9.69692365e-02  7.00000000e-01 
 3.80845441e-04 -7.73563818e-05 -9.69532365e-02  7.00000000e-01 
 3.82845441e-04  7.72570310e-05 -9.69372365e-02  7.00000000e-01 
 3.84845441e-04 -7.73531100e-05 -9.69212365e-02  7.00000000e-01 
 3.86845441e-04  7.72538030e-05 -9.69052365e-02  7.00000000e-01 
 3.88845441e-04 -7.73498387e-05 -9.68892365e-02  7.00000000e-01 
 3.90845441e-04  7.72505748e-05 -9.68732365e-02  7.00000000e-01 
 3.92845441e-04 -7.73465677e-05 -9.68572365e-02  7.00000000e-01 
 3.94845441e-04  7.72473462e-05 -9.68412365e-02  7.00000000e-01 
 3.96845441e-04 -7.73432971e-05 -9.68252365e-02  7.00000000e-01 
 3.98845441e-04  7.72441174e-05 -9.68092365e-02  7.00000000e-01 
 4.00845441e-04 -7.73400269e-05 -9.67932365e-02  7.00000000e-01 
 4.02845441e-04  7.72408884e-05 -9.67772365e-02  7.00000000e-01 
 4.04845441e-04 -7.73367570e-05 -9.67612365e-02  7.00000000e-01 
 4.06845441e-04  7.72376591e-05 -9.67452365e-02  7.00000000e-01 
 4.08845441e-04 -7.73334875e-05 -9.67292365e-02  7.00000000e-01 
 4.10845441e-04  7.72344295e-05 -9.67132365e-02  7.00000000e-01 
 4.12845441e-04 -7.73302184e-05 -9.66972365e-02  7.00000000e-01 
 4.14845441e-04  7.72311997e-05 -9.66812365e-02  7.00000000e-01 
 4.16845441e-04 -7.73269496e-05 -9.66652365e-02  7.00000000e-01 
 4.18845441e-04  7.72279697e-05 -9.66492365e-02  7.00000000e-01 
 4.20845441e-04 -7.73236812e-05 -9.66332365e-02  7.00000000e-01 
 4.22845441e-04  7.72247394e-05 -9.66172365e-02  7.00000000e-01 
 4.24845441e-04 -7.73204131e-05 -9.66012365e-02  7.00000000e-01 
 4.26845441e-04  7.72215089e-05 -9.65852365e-02  7.00000000e-01 
 4.28845441e-04 -7.73171453e-05 -9.65692365e-02  7.00000000e-01 
 4.30845441e-04  7.72182783e-05 -9.65532365e-02  7.00000000e-01 
 4.32845441e-04 -7.73138778e-05 -9.65372365e-02  7.00000000e-01 
 4.34845441e-04  7.72150474e-05 -9.65212365e-02  7.00000000e-01 
 4.36845441e-04 -7.73106107e-05 -9.65052365e-02  7.00000000e-01 
 4.38845441e-04  7.72118163e-05 -9.64892365e-02  7.00000000e-01 
 4.40845441e-04 -7.73073439e-05 -9.64732365e-02  7.00000000e-01 
 4.42845441e-04  7.72085851e-05 -9.64572365e-02  7.00000000e-01 
 4.44845441e-04 -7.73040774e-05 -9.64412365e-02  7.00000000e-01 
 4.46845441e-04  7.72053536e-05 -9.64252365e-02  7.00000000e-01 
 4.48845441e-04 -7.73008112e-05 -9.64092365e-02  7.00000000e-01 
 4.50845441e-04  7.72021220e-05 -9.63932365e-02  7.00000000e-01 
 4.52845441e-04 -7.72975453e-05 -9.63772365e-02  7.00000000e-01 
 4.54845441e-04  7.71988903e-05 -9.63612365e-02  7.00000000e-01 
 4.56845441e-04 -7.72942797e-05 -9.63452365e-02  7.00000000e-01 
 4.58845441e-04  7.71956583e-05 -9.63292365e-02  7.00000000e-01 
 4.60845441e-04 -7.72910144e-05 -9.63132365e-02  7.00000000e-01 
 4.62845441e-04  7.71924262e-05 -9.62972365e-02  7.00000000e-01 
 4.64845441e-04 -7.72877494e-05 -9.62812365e-02  7.00000000e-01 
 4.66845441e-04  7.71891940e-05 -9.62652365e-02  7.00000000e-01 
 4.68845441e-04 -7.72844847e-05 -9.62492365e-02  7.00000000e-01 
 4.70845441e-04  7.71859616e-05 -9.62332365e-02  7.00000000e-01 
 4.72845441e-04 -7.72812202e-05 -9.62172365e-02  7.00000000e-01 
 4.74845441e-04  7.71827290e-05 -9.62012365e-02  7.00000000e-01 
 4.76845441e-04 -7.72779560e-05 -9.61852365e-02  7.00000000e-01 
 4.78845441e-04  7.71794964e-05 -9.61692365e-02  7.00000000e-01 
 4.80845441e-04 -7.72746921e-05 -9.61532365e-02  7.00000000e-01 
 4.82845441e-04  7.71762636e-05 -9.61372365e-02  7.00000000e-01 
 4.84845441e-04 -7.72714285e-05 -9.61212365e-02  7.00000000e-01 
 4.86845441e-04  7.71730307e-05 -9.61052365e-02  7.00000000e-01 
 4.88845441e-04 -7.72681651e-05 -9.60892365e-02  7.00000000e-01 
 4.90845441e-04  7.71697976e-05 -9.60732365e-02  7.00000000e-01 
 4.92845441e-04 -7.72649020e-05 -9.60572365e-02  7.00000000e-01 
 4.94845441e-04  7.71665645e-05 -9.60412365e-02  7.00000000e-01 
 4.96845441e-04 -7.72616392e-05 -9.60252365e-02  7.00000000e-01 
 4.98845441e-04  7.71633312e-05 -9.60092365e-02  7.00000000e-01 
 5.00100100e-04 -7.72121603e-05 -9.59991992e-02  7.00000000e-01 
 5.00100110e-04 -4.11403302e-05 -9.59991991e-02  7.00000000e-01 
 5.00100130e-04  2.10303032e-06 -9.59991990e-02  7.00000000e-01 
 5.00100170e-04  1.07803902e-05 -9.59991986e-02  7.00000000e-01 
 5.00100200e-04  5.41478726e-05 -9.59991984e-02  7.00000000e-01 
 5.00100208e-04 -2.05771329e-05 -9.59991983e-02  7.00000000e-01 
 5.00100224e-04 -3.06251010e-04 -9.59991982e-02  7.00000000e-01 
 5.00100256e-04 -1.32885232e-04 -9.59991980e-02  7.00000000e-01 
 5.00100320e-04  8.75116850e-03 -9.59991974e-02  7.00000000e-01 
 5.00100386e-04 -1.04820554e-02 -9.59991969e-02  7.00000000e-01 
 5.00100461e-04  8.93144895e-03 -9.59991963e-02  7.00000000e-01 
 5.00100604e-04 -7.52624911e-03 -9.59991952e-02  7.00000000e-01 
 5.00100736e-04  6.31772392e-03 -9.59991941e-02  7.00000000e-01 
 5.00101001e-04 -5.67456251e-03 -9.59991920e-02  7.00000000e-01 
 5.00101483e-04  5.41260112e-03 -9.59991881e-02  7.00000000e-01 
 5.00102256e-04 -5.19978833e-03 -9.59991820e-02  7.00000000e-01 
 5.00103801e-04  5.13598276e-03 -9.59991696e-02  7.00000000e-01 
