 time            v(Q)            v(A)-v(B)       v(B)           
 0.00000000e+00  1.79999999e+00 -6.00000000e-01  6.00000000e-01 
 2.00000000e-11  1.79999999e+00 -6.00000200e-01  6.00000200e-01 
 4.00000000e-11  1.79999999e+00 -6.00000400e-01  6.00000400e-01 
 8.00000000e-11  1.79999999e+00 -6.00000800e-01  6.00000800e-01 
 1.60000000e-10  1.79999999e+00 -6.00001600e-01  6.00001600e-01 
 3.20000000e-10  1.79999999e+00 -6.00003200e-01  6.00003200e-01 
 6.40000000e-10  1.79999999e+00 -6.00006400e-01  6.00006400e-01 
 1.28000000e-09  1.79999999e+00 -6.00012800e-01  6.00012800e-01 
 2.56000000e-09  1.79999999e+00 -6.00025600e-01  6.00025600e-01 
 4.56000000e-09  1.79999999e+00 -6.00045600e-01  6.00045600e-01 
 6.56000000e-09  1.79999999e+00 -6.00065600e-01  6.00065600e-01 
 8.56000000e-09  1.79999999e+00 -6.00085600e-01  6.00085600e-01 
 1.05600000e-08  1.79999999e+00 -6.00105600e-01  6.00105600e-01 
 1.25600000e-08  1.79999999e+00 -6.00125600e-01  6.00125600e-01 
 1.45600000e-08  1.79999999e+00 -6.00145600e-01  6.00145600e-01 
 1.65600000e-08  1.79999999e+00 -6.00165600e-01  6.00165600e-01 
 1.85600000e-08  1.79999999e+00 -6.00185600e-01  6.00185600e-01 
 2.05600000e-08  1.79999999e+00 -6.00205600e-01  6.00205600e-01 
 2.25600000e-08  1.79999999e+00 -6.00225600e-01  6.00225600e-01 
 2.45600000e-08  1.79999999e+00 -6.00245600e-01  6.00245600e-01 
 2.65600000e-08  1.79999999e+00 -6.00265600e-01  6.00265600e-01 
 2.85600000e-08  1.79999999e+00 -6.00285600e-01  6.00285600e-01 
 3.05600000e-08  1.79999999e+00 -6.00305600e-01  6.00305600e-01 
 3.25600000e-08  1.79999999e+00 -6.00325600e-01  6.00325600e-01 
 3.45600000e-08  1.79999999e+00 -6.00345600e-01  6.00345600e-01 
 3.65600000e-08  1.79999999e+00 -6.00365600e-01  6.00365600e-01 
 3.85600000e-08  1.79999999e+00 -6.00385600e-01  6.00385600e-01 
 4.05600000e-08  1.79999999e+00 -6.00405600e-01  6.00405600e-01 
 4.25600000e-08  1.79999999e+00 -6.00425600e-01  6.00425600e-01 
 4.45600000e-08  1.79999999e+00 -6.00445600e-01  6.00445600e-01 
 4.65600000e-08  1.79999999e+00 -6.00465600e-01  6.00465600e-01 
 4.85600000e-08  1.79999999e+00 -6.00485600e-01  6.00485600e-01 
 5.05600000e-08  1.79999999e+00 -6.00505600e-01  6.00505600e-01 
 5.25600000e-08  1.79999999e+00 -6.00525600e-01  6.00525600e-01 
 5.45600000e-08  1.79999999e+00 -6.00545600e-01  6.00545600e-01 
 5.65600000e-08  1.79999999e+00 -6.00565600e-01  6.00565600e-01 
 5.85600000e-08  1.79999999e+00 -6.00585600e-01  6.00585600e-01 
 6.05600000e-08  1.79999999e+00 -6.00605600e-01  6.00605600e-01 
 6.25600000e-08  1.79999999e+00 -6.00625600e-01  6.00625600e-01 
 6.45600000e-08  1.79999999e+00 -6.00645600e-01  6.00645600e-01 
 6.65600000e-08  1.79999999e+00 -6.00665600e-01  6.00665600e-01 
 6.85600000e-08  1.79999999e+00 -6.00685600e-01  6.00685600e-01 
 7.05600000e-08  1.79999999e+00 -6.00705600e-01  6.00705600e-01 
 7.25600000e-08  1.79999999e+00 -6.00725600e-01  6.00725600e-01 
 7.45600000e-08  1.79999999e+00 -6.00745600e-01  6.00745600e-01 
 7.65600000e-08  1.79999999e+00 -6.00765600e-01  6.00765600e-01 
 7.85600000e-08  1.79999999e+00 -6.00785600e-01  6.00785600e-01 
 8.05600000e-08  1.79999999e+00 -6.00805600e-01  6.00805600e-01 
 8.25600000e-08  1.79999999e+00 -6.00825600e-01  6.00825600e-01 
 8.45600000e-08  1.79999999e+00 -6.00845600e-01  6.00845600e-01 
 8.65600000e-08  1.79999999e+00 -6.00865600e-01  6.00865600e-01 
 8.85600000e-08  1.79999999e+00 -6.00885600e-01  6.00885600e-01 
 9.05600000e-08  1.79999999e+00 -6.00905600e-01  6.00905600e-01 
 9.25600000e-08  1.79999999e+00 -6.00925600e-01  6.00925600e-01 
 9.45600000e-08  1.79999999e+00 -6.00945600e-01  6.00945600e-01 
 9.65600000e-08  1.79999999e+00 -6.00965600e-01  6.00965600e-01 
 9.85600000e-08  1.79999999e+00 -6.00985600e-01  6.00985600e-01 
 1.00000000e-07  1.79999999e+00 -6.01000000e-01  6.01000000e-01 
 1.00010000e-07  1.80001204e+00 -6.01000100e-01  6.01000100e-01 
 1.00030000e-07  1.79998729e+00 -6.01000300e-01  6.01000300e-01 
 1.00070000e-07  1.79993273e+00 -6.01000700e-01  6.01000700e-01 
 1.00100000e-07  1.80005046e+00 -6.01001000e-01  6.01001000e-01 
 1.00107641e-07  1.80038637e+00 -6.01001076e-01  6.01001076e-01 
 1.00122924e-07  1.80057613e+00 -6.01001229e-01  6.01001229e-01 
 1.00153489e-07  1.79962839e+00 -6.01001535e-01  6.01001535e-01 
 1.00214619e-07  1.79931200e+00 -6.01002146e-01  6.01002146e-01 
 1.00290730e-07  1.83857854e+00 -6.01002907e-01  6.01002907e-01 
 1.00382008e-07  2.23221839e-01 -6.01003820e-01  6.01003820e-01 
 1.00480576e-07 -1.36227990e-01 -6.01004806e-01  6.01004806e-01 
 1.00589872e-07  1.15187892e-01 -6.01005899e-01  6.01005899e-01 
 1.00780751e-07 -9.24239479e-02 -6.01007808e-01  6.01007808e-01 
 1.00956013e-07  8.41202437e-02 -6.01009560e-01  6.01009560e-01 
 1.01266896e-07 -7.35612573e-02 -6.01012669e-01  6.01012669e-01 
 1.01658105e-07  7.19865482e-02 -6.01016581e-01  6.01016581e-01 
 1.02226815e-07 -6.60672201e-02 -6.01022268e-01  6.01022268e-01 
 1.03094911e-07  6.66967636e-02 -6.01030949e-01  6.01030949e-01 
 1.04360329e-07 -6.29857404e-02 -6.01043603e-01  6.01043603e-01 
 1.06360329e-07  6.45063266e-02 -6.01063603e-01  6.01063603e-01 
 1.08360329e-07 -6.14642470e-02 -6.01083603e-01  6.01083603e-01 
 1.10360329e-07  6.28699626e-02 -6.01103603e-01  6.01103603e-01 
 1.12360329e-07 -5.99855489e-02 -6.01123603e-01  6.01123603e-01 
 1.14360329e-07  6.12843279e-02 -6.01143603e-01  6.01143603e-01 
 1.16360329e-07 -5.85482233e-02 -6.01163603e-01  6.01163603e-01 
 1.18360329e-07  5.97474278e-02 -6.01183603e-01  6.01183603e-01 
 1.20360329e-07 -5.71508974e-02 -6.01203603e-01  6.01203603e-01 
 1.22360329e-07  5.82573746e-02 -6.01223603e-01  6.01223603e-01 
 1.24360329e-07 -5.57922582e-02 -6.01243603e-01  6.01243603e-01 
 1.26360329e-07  5.68123783e-02 -6.01263603e-01  6.01263603e-01 
 1.28360329e-07 -5.44710472e-02 -6.01283603e-01  6.01283603e-01 
 1.30360329e-07  5.54107381e-02 -6.01303603e-01  6.01303603e-01 
 1.32360329e-07 -5.31860561e-02 -6.01323603e-01  6.01323603e-01 
 1.34360329e-07  5.40508360e-02 -6.01343603e-01  6.01343603e-01 
 1.36360329e-07 -5.19361238e-02 -6.01363603e-01  6.01363603e-01 
 1.38360329e-07  5.27311306e-02 -6.01383603e-01  6.01383603e-01 
 1.40360329e-07 -5.07201336e-02 -6.01403603e-01  6.01403603e-01 
 1.42360329e-07  5.14501526e-02 -6.01423603e-01  6.01423603e-01 
 1.44360329e-07 -4.95370108e-02 -6.01443603e-01  6.01443603e-01 
 1.46360329e-07  5.02064998e-02 -6.01463603e-01  6.01463603e-01 
 1.48360329e-07 -4.83857204e-02 -6.01483603e-01  6.01483603e-01 
 1.50360329e-07  4.89988334e-02 -6.01503603e-01  6.01503603e-01 
 1.52360329e-07 -4.72652655e-02 -6.01523603e-01  6.01523603e-01 
 1.54360329e-07  4.78258741e-02 -6.01543603e-01  6.01543603e-01 
 1.56360329e-07 -4.61746855e-02 -6.01563603e-01  6.01563603e-01 
 1.58360329e-07  4.66863987e-02 -6.01583603e-01  6.01583603e-01 
 1.60360329e-07 -4.51130544e-02 -6.01603603e-01  6.01603603e-01 
 1.62360329e-07  4.55792371e-02 -6.01623603e-01  6.01623603e-01 
 1.64360329e-07 -4.40794791e-02 -6.01643603e-01  6.01643603e-01 
 1.66360329e-07  4.45032694e-02 -6.01663603e-01  6.01663603e-01 
 1.68360329e-07 -4.30730986e-02 -6.01683603e-01  6.01683603e-01 
 1.70360329e-07  4.34574233e-02 -6.01703603e-01  6.01703603e-01 
 1.72360329e-07 -4.20930819e-02 -6.01723603e-01  6.01723603e-01 
 1.74360329e-07  4.24406716e-02 -6.01743603e-01  6.01743603e-01 
 1.76360329e-07 -4.11386276e-02 -6.01763603e-01  6.01763603e-01 
 1.78360329e-07  4.14520296e-02 -6.01783603e-01  6.01783603e-01 
 1.80360329e-07 -4.02089619e-02 -6.01803603e-01  6.01803603e-01 
 1.82360329e-07  4.04894922e-02 -6.01823603e-01  6.01823603e-01 
 1.84360329e-07 -3.93034134e-02 -6.01843603e-01  6.01843603e-01 
 1.86360329e-07  3.95545033e-02 -6.01863603e-01  6.01863603e-01 
 1.88360329e-07 -3.84211753e-02 -6.01883603e-01  6.01883603e-01 
 1.90360329e-07  3.86448687e-02 -6.01903603e-01  6.01903603e-01 
 1.92360329e-07 -3.75615527e-02 -6.01923603e-01  6.01923603e-01 
 1.94360329e-07  3.77597604e-02 -6.01943603e-01  6.01943603e-01 
 1.96360329e-07 -3.67238746e-02 -6.01963603e-01  6.01963603e-01 
 1.98360329e-07  3.68983821e-02 -6.01983603e-01  6.01983603e-01 
 2.00360329e-07 -3.59074924e-02 -6.02003603e-01  6.02003603e-01 
 2.02360329e-07  3.60599685e-02 -6.02023603e-01  6.02023603e-01 
 2.04360329e-07 -3.51117797e-02 -6.02043603e-01  6.02043603e-01 
 2.06360329e-07  3.52437841e-02 -6.02063603e-01  6.02063603e-01 
 2.08360329e-07 -3.43361309e-02 -6.02083603e-01  6.02083603e-01 
 2.10360329e-07  3.44491214e-02 -6.02103603e-01  6.02103603e-01 
 2.12360329e-07 -3.35799610e-02 -6.02123603e-01  6.02123603e-01 
 2.14360329e-07  3.36753001e-02 -6.02143603e-01  6.02143603e-01 
 2.16360329e-07 -3.28427044e-02 -6.02163603e-01  6.02163603e-01 
 2.18360329e-07  3.29216655e-02 -6.02183603e-01  6.02183603e-01 
 2.20360329e-07 -3.21238143e-02 -6.02203603e-01  6.02203603e-01 
 2.22360329e-07  3.21875876e-02 -6.02223603e-01  6.02223603e-01 
 2.24360329e-07 -3.14227620e-02 -6.02243603e-01  6.02243603e-01 
 2.26360329e-07  3.14724600e-02 -6.02263603e-01  6.02263603e-01 
 2.28360329e-07 -3.07390364e-02 -6.02283603e-01  6.02283603e-01 
 2.30360329e-07  3.07756989e-02 -6.02303603e-01  6.02303603e-01 
 2.32360329e-07 -3.00721431e-02 -6.02323603e-01  6.02323603e-01 
 2.34360329e-07  3.00967419e-02 -6.02343603e-01  6.02343603e-01 
 2.36360329e-07 -2.94216040e-02 -6.02363603e-01  6.02363603e-01 
 2.38360329e-07  2.94350474e-02 -6.02383603e-01  6.02383603e-01 
 2.40360329e-07 -2.87869565e-02 -6.02403603e-01  6.02403603e-01 
 2.42360329e-07  2.87900933e-02 -6.02423603e-01  6.02423603e-01 
 2.44360329e-07 -2.81677532e-02 -6.02443603e-01  6.02443603e-01 
 2.46360329e-07  2.81613766e-02 -6.02463603e-01  6.02463603e-01 
 2.48360329e-07 -2.75635612e-02 -6.02483603e-01  6.02483603e-01 
 2.50360329e-07  2.75484124e-02 -6.02503603e-01  6.02503603e-01 
 2.52360329e-07 -2.69739613e-02 -6.02523603e-01  6.02523603e-01 
 2.54360329e-07  2.69507330e-02 -6.02543603e-01  6.02543603e-01 
 2.56360329e-07 -2.63985482e-02 -6.02563603e-01  6.02563603e-01 
 2.58360329e-07  2.63678874e-02 -6.02583603e-01  6.02583603e-01 
 2.60360329e-07 -2.58369292e-02 -6.02603603e-01  6.02603603e-01 
 2.62360329e-07  2.57994406e-02 -6.02623603e-01  6.02623603e-01 
 2.64360329e-07 -2.52887245e-02 -6.02643603e-01  6.02643603e-01 
 2.66360329e-07  2.52449728e-02 -6.02663603e-01  6.02663603e-01 
 2.68360329e-07 -2.47535660e-02 -6.02683603e-01  6.02683603e-01 
 2.70360329e-07  2.47040787e-02 -6.02703603e-01  6.02703603e-01 
 2.72360329e-07 -2.42310975e-02 -6.02723603e-01  6.02723603e-01 
 2.74360329e-07  2.41763672e-02 -6.02743603e-01  6.02743603e-01 
 2.76360329e-07 -2.37209740e-02 -6.02763603e-01  6.02763603e-01 
 2.78360329e-07  2.36614608e-02 -6.02783603e-01  6.02783603e-01 
 2.80360329e-07 -2.32228613e-02 -6.02803603e-01  6.02803603e-01 
 2.82360329e-07  2.31589945e-02 -6.02823603e-01  6.02823603e-01 
 2.84360329e-07 -2.27364357e-02 -6.02843603e-01  6.02843603e-01 
 2.86360329e-07  2.26686162e-02 -6.02863603e-01  6.02863603e-01 
 2.88360329e-07 -2.22613835e-02 -6.02883603e-01  6.02883603e-01 
 2.90360329e-07  2.21899854e-02 -6.02903603e-01  6.02903603e-01 
 2.92360329e-07 -2.17974008e-02 -6.02923603e-01  6.02923603e-01 
 2.94360329e-07  2.17227731e-02 -6.02943603e-01  6.02943603e-01 
 2.96360329e-07 -2.13441931e-02 -6.02963603e-01  6.02963603e-01 
 2.98360329e-07  2.12666614e-02 -6.02983603e-01  6.02983603e-01 
 3.00360329e-07 -2.09014750e-02 -6.03003603e-01  6.03003603e-01 
 3.02360329e-07  2.08213429e-02 -6.03023603e-01  6.03023603e-01 
 3.04360329e-07 -2.04689697e-02 -6.03043603e-01  6.03043603e-01 
 3.06360329e-07  2.03865203e-02 -6.03063603e-01  6.03063603e-01 
 3.08360329e-07 -2.00464091e-02 -6.03083603e-01  6.03083603e-01 
 3.10360329e-07  1.99619062e-02 -6.03103603e-01  6.03103603e-01 
 3.12360329e-07 -1.96335330e-02 -6.03123603e-01  6.03123603e-01 
 3.14360329e-07  1.95472224e-02 -6.03143603e-01  6.03143603e-01 
 3.16360329e-07 -1.92300893e-02 -6.03163603e-01  6.03163603e-01 
 3.18360329e-07  1.91421998e-02 -6.03183603e-01  6.03183603e-01 
 3.20360329e-07 -1.88358333e-02 -6.03203603e-01  6.03203603e-01 
 3.22360329e-07  1.87465780e-02 -6.03223603e-01  6.03223603e-01 
 3.24360329e-07 -1.84505279e-02 -6.03243603e-01  6.03243603e-01 
 3.26360329e-07  1.83601050e-02 -6.03263603e-01  6.03263603e-01 
 3.28360329e-07 -1.80739428e-02 -6.03283603e-01  6.03283603e-01 
 3.30360329e-07  1.79825368e-02 -6.03303603e-01  6.03303603e-01 
 3.32360329e-07 -1.77058547e-02 -6.03323603e-01  6.03323603e-01 
 3.34360329e-07  1.76136370e-02 -6.03343603e-01  6.03343603e-01 
 3.36360329e-07 -1.73460470e-02 -6.03363603e-01  6.03363603e-01 
 3.38360329e-07  1.72531768e-02 -6.03383603e-01  6.03383603e-01 
 3.40360329e-07 -1.69943094e-02 -6.03403603e-01  6.03403603e-01 
 3.42360329e-07  1.69009347e-02 -6.03423603e-01  6.03423603e-01 
 3.44360329e-07 -1.66504378e-02 -6.03443603e-01  6.03443603e-01 
 3.46360329e-07  1.65566957e-02 -6.03463603e-01  6.03463603e-01 
 3.48360329e-07 -1.63142342e-02 -6.03483603e-01  6.03483603e-01 
 3.50360329e-07  1.62202519e-02 -6.03503603e-01  6.03503603e-01 
 3.52360329e-07 -1.59850669e-02 -6.03523603e-01  6.03523603e-01 
 3.54360329e-07  1.58914055e-02 -6.03543603e-01  6.03543603e-01 
 3.56360329e-07 -1.56636541e-02 -6.03563603e-01  6.03563603e-01 
 3.58360329e-07  1.55699566e-02 -6.03583603e-01  6.03583603e-01 
 3.60360329e-07 -1.53493474e-02 -6.03603603e-01  6.03603603e-01 
 3.62360329e-07  1.52557158e-02 -6.03623603e-01  6.03623603e-01 
 3.64360329e-07 -1.50419708e-02 -6.03643603e-01  6.03643603e-01 
 3.66360329e-07  1.49484993e-02 -6.03663603e-01  6.03663603e-01 
 3.68360329e-07 -1.47413532e-02 -6.03683603e-01  6.03683603e-01 
 3.70360329e-07  1.46481289e-02 -6.03703603e-01  6.03703603e-01 
 3.72360329e-07 -1.44473286e-02 -6.03723603e-01  6.03723603e-01 
 3.74360329e-07  1.43544316e-02 -6.03743603e-01  6.03743603e-01 
 3.76360329e-07 -1.41597355e-02 -6.03763603e-01  6.03763603e-01 
 3.78360329e-07  1.40672398e-02 -6.03783603e-01  6.03783603e-01 
 3.80360329e-07 -1.38784171e-02 -6.03803603e-01  6.03803603e-01 
 3.82360329e-07  1.37863907e-02 -6.03823603e-01  6.03823603e-01 
 3.84360329e-07 -1.36032209e-02 -6.03843603e-01  6.03843603e-01 
 3.86360329e-07  1.35117262e-02 -6.03863603e-01  6.03863603e-01 
 3.88360329e-07 -1.33339989e-02 -6.03883603e-01  6.03883603e-01 
 3.90360329e-07  1.32430931e-02 -6.03903603e-01  6.03903603e-01 
 3.92360329e-07 -1.30706070e-02 -6.03923603e-01  6.03923603e-01 
 3.94360329e-07  1.29803424e-02 -6.03943603e-01  6.03943603e-01 
 3.96360329e-07 -1.28129053e-02 -6.03963603e-01  6.03963603e-01 
 3.98360329e-07  1.27233297e-02 -6.03983603e-01  6.03983603e-01 
 4.00360329e-07 -1.25607575e-02 -6.04003603e-01  6.04003603e-01 
 4.02360329e-07  1.24719144e-02 -6.04023603e-01  6.04023603e-01 
 4.04360329e-07 -1.23140313e-02 -6.04043603e-01  6.04043603e-01 
 4.06360329e-07  1.22259604e-02 -6.04063603e-01  6.04063603e-01 
 4.08360329e-07 -1.20725979e-02 -6.04083603e-01  6.04083603e-01 
 4.10360329e-07  1.19853350e-02 -6.04103603e-01  6.04103603e-01 
 4.12360329e-07 -1.18363322e-02 -6.04123603e-01  6.04123603e-01 
 4.14360329e-07  1.17499096e-02 -6.04143603e-01  6.04143603e-01 
 4.16360329e-07 -1.16051123e-02 -6.04163603e-01  6.04163603e-01 
 4.18360329e-07  1.15195592e-02 -6.04183603e-01  6.04183603e-01 
 4.20360329e-07 -1.13788197e-02 -6.04203603e-01  6.04203603e-01 
 4.22360329e-07  1.12941621e-02 -6.04223603e-01  6.04223603e-01 
 4.24360329e-07 -1.11573391e-02 -6.04243603e-01  6.04243603e-01 
 4.26360329e-07  1.10736003e-02 -6.04263603e-01  6.04263603e-01 
 4.28360329e-07 -1.09405602e-02 -6.04283603e-01  6.04283603e-01 
 4.30360329e-07  1.08577553e-02 -6.04303603e-01  6.04303603e-01 
 4.32360329e-07 -1.07283767e-02 -6.04323603e-01  6.04323603e-01 
 4.34360329e-07  1.06465084e-02 -6.04343603e-01  6.04343603e-01 
 4.36360329e-07 -1.05206451e-02 -6.04363603e-01  6.04363603e-01 
 4.38360329e-07  1.04397399e-02 -6.04383603e-01  6.04383603e-01 
 4.40360329e-07 -1.03172737e-02 -6.04403603e-01  6.04403603e-01 
 4.42360329e-07  1.02373465e-02 -6.04423603e-01  6.04423603e-01 
 4.44360329e-07 -1.01181637e-02 -6.04443603e-01  6.04443603e-01 
 4.46360329e-07  1.00392274e-02 -6.04463603e-01  6.04463603e-01 
 4.48360329e-07 -9.92321921e-03 -6.04483603e-01  6.04483603e-01 
 4.50360329e-07  9.84528458e-03 -6.04503603e-01  6.04503603e-01 
 4.52360329e-07 -9.73234642e-03 -6.04523603e-01  6.04523603e-01 
 4.54360329e-07  9.65542257e-03 -6.04543603e-01  6.04543603e-01 
 4.56360329e-07 -9.54545403e-03 -6.04563603e-01  6.04563603e-01 
 4.58360329e-07  9.46954834e-03 -6.04583603e-01  6.04583603e-01 
 4.60360329e-07 -9.36245302e-03 -6.04603603e-01  6.04603603e-01 
 4.62360329e-07  9.28757130e-03 -6.04623603e-01  6.04623603e-01 
 4.64360329e-07 -9.18325658e-03 -6.04643603e-01  6.04643603e-01 
 4.66360329e-07  9.10940315e-03 -6.04663603e-01  6.04663603e-01 
 4.68360329e-07 -9.00778005e-03 -6.04683603e-01  6.04683603e-01 
 4.70360329e-07  8.93495791e-03 -6.04703603e-01  6.04703603e-01 
 4.72360329e-07 -8.83594091e-03 -6.04723603e-01  6.04723603e-01 
 4.74360329e-07  8.76415176e-03 -6.04743603e-01  6.04743603e-01 
 4.76360329e-07 -8.66765864e-03 -6.04763603e-01  6.04763603e-01 
 4.78360329e-07  8.59690302e-03 -6.04783603e-01  6.04783603e-01 
 4.80360329e-07 -8.50285473e-03 -6.04803603e-01  6.04803603e-01 
 4.82360329e-07  8.43313210e-03 -6.04823603e-01  6.04823603e-01 
 4.84360329e-07 -8.34145259e-03 -6.04843603e-01  6.04843603e-01 
 4.86360329e-07  8.27276139e-03 -6.04863603e-01  6.04863603e-01 
 4.88360329e-07 -8.18337751e-03 -6.04883603e-01  6.04883603e-01 
 4.90360329e-07  8.11571525e-03 -6.04903603e-01  6.04903603e-01 
 4.92360329e-07 -8.02855661e-03 -6.04923603e-01  6.04923603e-01 
 4.94360329e-07  7.96191993e-03 -6.04943603e-01  6.04943603e-01 
 4.96360329e-07 -7.87691877e-03 -6.04963603e-01  6.04963603e-01 
 4.98360329e-07  7.81130353e-03 -6.04983603e-01  6.04983603e-01 
 5.00000000e-07 -7.71227444e-03 -6.05000000e-01  6.05000000e-01 
 5.00200000e-07 -1.55995568e-04  9.49980000e-02  6.05002000e-01 
 5.00600000e-07  1.48922156e-04  9.49940000e-02  6.05006000e-01 
 5.01043540e-07 -1.42362986e-04  9.49895646e-02  6.05010435e-01 
 5.01535795e-07  1.36624056e-04  9.49846421e-02  6.05015358e-01 
 5.02520304e-07 -1.33657748e-04  9.49747970e-02  6.05025203e-01 
 5.04489324e-07  1.32292584e-04  9.49551068e-02  6.05044893e-01 
 5.06489324e-07 -1.30809076e-04  9.49351068e-02  6.05064893e-01 
 5.08489324e-07  1.29478039e-04  9.49151068e-02  6.05084893e-01 
 5.10489324e-07 -1.28007633e-04  9.48951068e-02  6.05104893e-01 
 5.12489324e-07  1.26690387e-04  9.48751068e-02  6.05124893e-01 
 5.14489324e-07 -1.25235152e-04  9.48551068e-02  6.05144893e-01 
 5.16489324e-07  1.23933432e-04  9.48351068e-02  6.05164893e-01 
 5.18489324e-07 -1.22495184e-04  9.48151068e-02  6.05184893e-01 
 5.20489324e-07  1.21210513e-04  9.47951068e-02  6.05204893e-01 
 5.22489324e-07 -1.19790830e-04  9.47751068e-02  6.05224893e-01 
 5.24489324e-07  1.18524529e-04  9.47551068e-02  6.05244893e-01 
 5.26489324e-07 -1.17124770e-04  9.47351068e-02  6.05264893e-01 
 5.28489324e-07  1.15877975e-04  9.47151068e-02  6.05284893e-01 
 5.30489324e-07 -1.14499298e-04  9.46951068e-02  6.05304893e-01 
 5.32489324e-07  1.13272978e-04  9.46751068e-02  6.05324893e-01 
 5.34489324e-07 -1.11916359e-04  9.46551068e-02  6.05344893e-01 
 5.36489324e-07  1.10711328e-04  9.46351068e-02  6.05364893e-01 
 5.38489324e-07 -1.09377574e-04  9.46151068e-02  6.05384893e-01 
 5.40489324e-07  1.08194506e-04  9.45951068e-02  6.05404893e-01 
 5.42489324e-07 -1.06884276e-04  9.45751068e-02  6.05424893e-01 
 5.44489324e-07  1.05723717e-04  9.45551068e-02  6.05444893e-01 
 5.46489324e-07 -1.04437534e-04  9.45351068e-02  6.05464893e-01 
 5.48489324e-07  1.03299916e-04  9.45151068e-02  6.05484893e-01 
 5.50489324e-07 -1.02038179e-04  9.44951068e-02  6.05504893e-01 
 5.52489324e-07  1.00923829e-04  9.44751068e-02  6.05524893e-01 
 5.54489324e-07 -9.96868295e-05  9.44551068e-02  6.05544893e-01 
