 time            v(Q)            v(A)-v(B)       v(B)           
 0.00000000e+00  1.79999999e+00  8.00000000e-01  0.00000000e+00 
 1.00000000e-09  1.79999999e+00  8.00000008e-01  0.00000000e+00 
 2.00000000e-09  1.79999999e+00  8.00000016e-01  0.00000000e+00 
 4.00000000e-09  1.79999999e+00  8.00000032e-01  0.00000000e+00 
 8.00000000e-09  1.79999999e+00  8.00000064e-01  0.00000000e+00 
 1.60000000e-08  1.79999999e+00  8.00000128e-01  0.00000000e+00 
 3.20000000e-08  1.79999999e+00  8.00000256e-01  0.00000000e+00 
 6.40000000e-08  1.79999999e+00  8.00000512e-01  0.00000000e+00 
 1.00000000e-07  1.79999999e+00  8.00000800e-01  0.00000000e+00 
 1.00010000e-07  1.80001159e+00  8.00000800e-01  0.00000000e+00 
 1.00030000e-07  1.79998800e+00  8.00000800e-01  0.00000000e+00 
 1.00070000e-07  1.79993508e+00  8.00000801e-01  0.00000000e+00 
 1.00100000e-07  1.80005220e+00  8.00000801e-01  0.00000000e+00 
 1.00107631e-07  1.80029868e+00  8.00000801e-01  0.00000000e+00 
 1.00122893e-07  1.80022403e+00  8.00000801e-01  0.00000000e+00 
 1.00153418e-07  1.80012512e+00  8.00000801e-01  0.00000000e+00 
 1.00214467e-07  1.79747901e+00  8.00000802e-01  0.00000000e+00 
 1.00292244e-07  1.77128836e+00  8.00000802e-01  0.00000000e+00 
 1.00379460e-07  1.81525703e+00  8.00000803e-01  0.00000000e+00 
 1.00475428e-07  1.78923378e+00  8.00000804e-01  0.00000000e+00 
 1.00637718e-07  1.80755559e+00  8.00000805e-01  0.00000000e+00 
 1.00865954e-07  1.79353273e+00  8.00000807e-01  0.00000000e+00 
 1.01234453e-07  1.80532353e+00  8.00000810e-01  0.00000000e+00 
 1.01823311e-07  1.79493176e+00  8.00000815e-01  0.00000000e+00 
 1.02884828e-07  1.80461554e+00  8.00000823e-01  0.00000000e+00 
 1.05007862e-07  1.79534266e+00  8.00000840e-01  0.00000000e+00 
 1.09253929e-07  1.80443949e+00  8.00000874e-01  0.00000000e+00 
 1.17746064e-07  1.79544367e+00  8.00000942e-01  0.00000000e+00 
 1.34730333e-07  1.80439655e+00  8.00001078e-01  0.00000000e+00 
 1.68698872e-07  1.79546877e+00  8.00001350e-01  0.00000000e+00 
 2.36635949e-07  1.80438579e+00  8.00001893e-01  0.00000000e+00 
 3.72510104e-07  1.79547502e+00  8.00002980e-01  0.00000000e+00 
 6.44258412e-07  1.80438308e+00  8.00005154e-01  0.00000000e+00 
 1.18775503e-06  1.79547659e+00  8.00009502e-01  0.00000000e+00 
 2.27474827e-06  1.80438239e+00  8.00018198e-01  0.00000000e+00 
 4.27474827e-06  1.79547699e+00  8.00034198e-01  0.00000000e+00 
 6.27474827e-06  1.80438215e+00  8.00050198e-01  0.00000000e+00 
 8.27474827e-06  1.79547682e+00  8.00066198e-01  0.00000000e+00 
 1.02747483e-05  1.80438189e+00  8.00082198e-01  0.00000000e+00 
 1.22747483e-05  1.79547709e+00  8.00098198e-01  0.00000000e+00 
 1.42747483e-05  1.80438163e+00  8.00114198e-01  0.00000000e+00 
 1.62747483e-05  1.79547737e+00  8.00130198e-01  0.00000000e+00 
 1.82747483e-05  1.80438136e+00  8.00146198e-01  0.00000000e+00 
 2.02747483e-05  1.79547764e+00  8.00162198e-01  0.00000000e+00 
 2.22747483e-05  1.80438110e+00  8.00178198e-01  0.00000000e+00 
 2.42747483e-05  1.79547792e+00  8.00194198e-01  0.00000000e+00 
 2.62747483e-05  1.80438084e+00  8.00210198e-01  0.00000000e+00 
 2.82747483e-05  1.79547819e+00  8.00226198e-01  0.00000000e+00 
 3.02747483e-05  1.80438057e+00  8.00242198e-01  0.00000000e+00 
 3.22747483e-05  1.79547847e+00  8.00258198e-01  0.00000000e+00 
 3.42747483e-05  1.80438031e+00  8.00274198e-01  0.00000000e+00 
 3.62747483e-05  1.79547874e+00  8.00290198e-01  0.00000000e+00 
 3.82747483e-05  1.80438005e+00  8.00306198e-01  0.00000000e+00 
 4.02747483e-05  1.79547902e+00  8.00322198e-01  0.00000000e+00 
 4.22747483e-05  1.80437978e+00  8.00338198e-01  0.00000000e+00 
 4.42747483e-05  1.79547929e+00  8.00354198e-01  0.00000000e+00 
 4.62747483e-05  1.80437952e+00  8.00370198e-01  0.00000000e+00 
 4.82747483e-05  1.79547957e+00  8.00386198e-01  0.00000000e+00 
 5.02747483e-05  1.80437925e+00  8.00402198e-01  0.00000000e+00 
 5.22747483e-05  1.79547984e+00  8.00418198e-01  0.00000000e+00 
 5.42747483e-05  1.80437899e+00  8.00434198e-01  0.00000000e+00 
 5.62747483e-05  1.79548012e+00  8.00450198e-01  0.00000000e+00 
 5.82747483e-05  1.80437873e+00  8.00466198e-01  0.00000000e+00 
 6.02747483e-05  1.79548039e+00  8.00482198e-01  0.00000000e+00 
 6.22747483e-05  1.80437846e+00  8.00498198e-01  0.00000000e+00 
 6.42747483e-05  1.79548067e+00  8.00514198e-01  0.00000000e+00 
 6.62747483e-05  1.80437820e+00  8.00530198e-01  0.00000000e+00 
 6.82747483e-05  1.79548094e+00  8.00546198e-01  0.00000000e+00 
 7.02747483e-05  1.80437794e+00  8.00562198e-01  0.00000000e+00 
 7.22747483e-05  1.79548122e+00  8.00578198e-01  0.00000000e+00 
 7.42747483e-05  1.80437767e+00  8.00594198e-01  0.00000000e+00 
 7.62747483e-05  1.79548149e+00  8.00610198e-01  0.00000000e+00 
 7.82747483e-05  1.80437741e+00  8.00626198e-01  0.00000000e+00 
 8.02747483e-05  1.79548177e+00  8.00642198e-01  0.00000000e+00 
 8.22747483e-05  1.80437714e+00  8.00658198e-01  0.00000000e+00 
 8.42747483e-05  1.79548204e+00  8.00674198e-01  0.00000000e+00 
 8.62747483e-05  1.80437688e+00  8.00690198e-01  0.00000000e+00 
 8.82747483e-05  1.79548276e+00  8.00706198e-01  0.00000000e+00 
 9.02747483e-05  1.80437662e+00  8.00722198e-01  0.00000000e+00 
 9.22747483e-05  1.79548304e+00  8.00738198e-01  0.00000000e+00 
 9.42747483e-05  1.80437635e+00  8.00754198e-01  0.00000000e+00 
 9.62747483e-05  1.79548287e+00  8.00770198e-01  0.00000000e+00 
 9.82747483e-05  1.80437609e+00  8.00786198e-01  0.00000000e+00 
 1.00274748e-04  1.79548314e+00  8.00802198e-01  0.00000000e+00 
 1.02274748e-04  1.80437583e+00  8.00818198e-01  0.00000000e+00 
 1.04274748e-04  1.79548342e+00  8.00834198e-01  0.00000000e+00 
 1.06274748e-04  1.80437556e+00  8.00850198e-01  0.00000000e+00 
 1.08274748e-04  1.79548369e+00  8.00866198e-01  0.00000000e+00 
 1.10274748e-04  1.80437530e+00  8.00882198e-01  0.00000000e+00 
 1.12274748e-04  1.79548397e+00  8.00898198e-01  0.00000000e+00 
 1.14274748e-04  1.80437503e+00  8.00914198e-01  0.00000000e+00 
 1.16274748e-04  1.79548424e+00  8.00930198e-01  0.00000000e+00 
 1.18274748e-04  1.80437477e+00  8.00946198e-01  0.00000000e+00 
 1.20274748e-04  1.79548452e+00  8.00962198e-01  0.00000000e+00 
 1.22274748e-04  1.80437451e+00  8.00978198e-01  0.00000000e+00 
 1.24274748e-04  1.79548479e+00  8.00994198e-01  0.00000000e+00 
 1.26274748e-04  1.80437424e+00  8.01010198e-01  0.00000000e+00 
 1.28274748e-04  1.79548507e+00  8.01026198e-01  0.00000000e+00 
 1.30274748e-04  1.80437398e+00  8.01042198e-01  0.00000000e+00 
 1.32274748e-04  1.79548534e+00  8.01058198e-01  0.00000000e+00 
 1.34274748e-04  1.80437372e+00  8.01074198e-01  0.00000000e+00 
 1.36274748e-04  1.79548562e+00  8.01090198e-01  0.00000000e+00 
 1.38274748e-04  1.80437345e+00  8.01106198e-01  0.00000000e+00 
 1.40274748e-04  1.79548589e+00  8.01122198e-01  0.00000000e+00 
 1.42274748e-04  1.80437319e+00  8.01138198e-01  0.00000000e+00 
 1.44274748e-04  1.79548617e+00  8.01154198e-01  0.00000000e+00 
 1.46274748e-04  1.80437293e+00  8.01170198e-01  0.00000000e+00 
 1.48274748e-04  1.79548644e+00  8.01186198e-01  0.00000000e+00 
 1.50274748e-04  1.80437266e+00  8.01202198e-01  0.00000000e+00 
 1.52274748e-04  1.79548672e+00  8.01218198e-01  0.00000000e+00 
 1.54274748e-04  1.80437240e+00  8.01234198e-01  0.00000000e+00 
 1.56274748e-04  1.79548699e+00  8.01250198e-01  0.00000000e+00 
 1.58274748e-04  1.80437213e+00  8.01266198e-01  0.00000000e+00 
 1.60274748e-04  1.79548727e+00  8.01282198e-01  0.00000000e+00 
 1.62274748e-04  1.80437187e+00  8.01298198e-01  0.00000000e+00 
 1.64274748e-04  1.79548754e+00  8.01314198e-01  0.00000000e+00 
 1.66274748e-04  1.80437161e+00  8.01330198e-01  0.00000000e+00 
 1.68274748e-04  1.79548782e+00  8.01346198e-01  0.00000000e+00 
 1.70274748e-04  1.80437134e+00  8.01362198e-01  0.00000000e+00 
 1.72274748e-04  1.79548809e+00  8.01378198e-01  0.00000000e+00 
 1.74274748e-04  1.80437108e+00  8.01394198e-01  0.00000000e+00 
 1.76274748e-04  1.79548836e+00  8.01410198e-01  0.00000000e+00 
 1.78274748e-04  1.80437082e+00  8.01426198e-01  0.00000000e+00 
 1.80274748e-04  1.79548864e+00  8.01442198e-01  0.00000000e+00 
 1.82274748e-04  1.80437055e+00  8.01458198e-01  0.00000000e+00 
 1.84274748e-04  1.79548891e+00  8.01474198e-01  0.00000000e+00 
 1.86274748e-04  1.80437029e+00  8.01490198e-01  0.00000000e+00 
 1.88274748e-04  1.79548919e+00  8.01506198e-01  0.00000000e+00 
 1.90274748e-04  1.80437003e+00  8.01522198e-01  0.00000000e+00 
 1.92274748e-04  1.79548946e+00  8.01538198e-01  0.00000000e+00 
 1.94274748e-04  1.80436976e+00  8.01554198e-01  0.00000000e+00 
 1.96274748e-04  1.79548974e+00  8.01570198e-01  0.00000000e+00 
 1.98274748e-04  1.80436950e+00  8.01586198e-01  0.00000000e+00 
 2.00000000e-04  1.79549021e+00  8.01600000e-01  0.00000000e+00 
 2.00200000e-04  8.07808586e-05 -9.83984000e-02  9.00000000e-01 
 2.00600000e-04 -7.72158790e-05 -9.83952000e-02  9.00000000e-01 
 2.00929016e-04  7.72347142e-05 -9.83925679e-02  9.00000000e-01 
 2.01292049e-04 -7.71971189e-05 -9.83896636e-02  9.00000000e-01 
 2.02018114e-04  7.72218796e-05 -9.83838551e-02  9.00000000e-01 
 2.03470246e-04 -7.71904037e-05 -9.83722380e-02  9.00000000e-01 
 2.05470246e-04  7.72180815e-05 -9.83562380e-02  9.00000000e-01 
 2.07470246e-04 -7.73175678e-05 -9.83402380e-02  9.00000000e-01 
 2.09470246e-04  7.71341818e-05 -9.83242380e-02  9.00000000e-01 
 2.11470246e-04 -7.73142209e-05 -9.83082380e-02  9.00000000e-01 
 2.13470246e-04  7.71310603e-05 -9.82922380e-02  9.00000000e-01 
 2.15470246e-04 -7.73109199e-05 -9.82762380e-02  9.00000000e-01 
 2.17470246e-04  7.71278832e-05 -9.82602380e-02  9.00000000e-01 
 2.19470246e-04 -7.73076201e-05 -9.82442380e-02  9.00000000e-01 
 2.21470246e-04  7.71247048e-05 -9.82282380e-02  9.00000000e-01 
 2.23470246e-04 -7.73043215e-05 -9.82122380e-02  9.00000000e-01 
 2.25470246e-04  7.71215253e-05 -9.81962380e-02  9.00000000e-01 
 2.27470246e-04 -7.73010242e-05 -9.81802380e-02  9.00000000e-01 
 2.29470246e-04  7.71183445e-05 -9.81642380e-02  9.00000000e-01 
 2.31470246e-04 -7.72977281e-05 -9.81482380e-02  9.00000000e-01 
 2.33470246e-04  7.71151625e-05 -9.81322380e-02  9.00000000e-01 
 2.35470246e-04 -7.72944331e-05 -9.81162380e-02  9.00000000e-01 
 2.37470246e-04  7.71119795e-05 -9.81002380e-02  9.00000000e-01 
 2.39470246e-04 -7.72911393e-05 -9.80842380e-02  9.00000000e-01 
 2.41470246e-04  7.71087953e-05 -9.80682380e-02  9.00000000e-01 
 2.43470246e-04 -7.72878466e-05 -9.80522380e-02  9.00000000e-01 
 2.45470246e-04  7.71056100e-05 -9.80362380e-02  9.00000000e-01 
 2.47470246e-04 -7.72845549e-05 -9.80202380e-02  9.00000000e-01 
 2.49470246e-04  7.71024238e-05 -9.80042380e-02  9.00000000e-01 
 2.51470246e-04 -7.72812643e-05 -9.79882380e-02  9.00000000e-01 
 2.53470246e-04  7.70992365e-05 -9.79722380e-02  9.00000000e-01 
 2.55470246e-04 -7.72779748e-05 -9.79562380e-02  9.00000000e-01 
 2.57470246e-04  7.70960482e-05 -9.79402380e-02  9.00000000e-01 
 2.59470246e-04 -7.72746862e-05 -9.79242380e-02  9.00000000e-01 
 2.61470246e-04  7.70928589e-05 -9.79082380e-02  9.00000000e-01 
 2.63470246e-04 -7.72713986e-05 -9.78922380e-02  9.00000000e-01 
 2.65470246e-04  7.70896688e-05 -9.78762380e-02  9.00000000e-01 
 2.67470246e-04 -7.72681119e-05 -9.78602380e-02  9.00000000e-01 
 2.69470246e-04  7.70864777e-05 -9.78442380e-02  9.00000000e-01 
 2.71470246e-04 -7.72648262e-05 -9.78282380e-02  9.00000000e-01 
 2.73470246e-04  7.70832858e-05 -9.78122380e-02  9.00000000e-01 
 2.75470246e-04 -7.72615413e-05 -9.77962380e-02  9.00000000e-01 
 2.77470246e-04  7.70800930e-05 -9.77802380e-02  9.00000000e-01 
 2.79470246e-04 -7.72582573e-05 -9.77642380e-02  9.00000000e-01 
 2.81470246e-04  7.70768993e-05 -9.77482380e-02  9.00000000e-01 
 2.83470246e-04 -7.72549742e-05 -9.77322380e-02  9.00000000e-01 
 2.85470246e-04  7.70737049e-05 -9.77162380e-02  9.00000000e-01 
 2.87470246e-04 -7.72516919e-05 -9.77002380e-02  9.00000000e-01 
 2.89470246e-04  7.70705097e-05 -9.76842380e-02  9.00000000e-01 
 2.91470246e-04 -7.72484105e-05 -9.76682380e-02  9.00000000e-01 
 2.93470246e-04  7.70673137e-05 -9.76522380e-02  9.00000000e-01 
 2.95470246e-04 -7.72451298e-05 -9.76362380e-02  9.00000000e-01 
 2.97470246e-04  7.70641169e-05 -9.76202380e-02  9.00000000e-01 
 2.99470246e-04 -7.72418499e-05 -9.76042380e-02  9.00000000e-01 
 3.01470246e-04  7.70609195e-05 -9.75882380e-02  9.00000000e-01 
 3.03470246e-04 -7.72385707e-05 -9.75722380e-02  9.00000000e-01 
 3.05470246e-04  7.70577213e-05 -9.75562380e-02  9.00000000e-01 
 3.07470246e-04 -7.72352923e-05 -9.75402380e-02  9.00000000e-01 
 3.09470246e-04  7.70545225e-05 -9.75242380e-02  9.00000000e-01 
 3.11470246e-04 -7.72320146e-05 -9.75082380e-02  9.00000000e-01 
 3.13470246e-04  7.70513230e-05 -9.74922380e-02  9.00000000e-01 
 3.15470246e-04 -7.72287377e-05 -9.74762380e-02  9.00000000e-01 
 3.17470246e-04  7.70481229e-05 -9.74602380e-02  9.00000000e-01 
 3.19470246e-04 -7.72254614e-05 -9.74442380e-02  9.00000000e-01 
 3.21470246e-04  7.70449221e-05 -9.74282380e-02  9.00000000e-01 
 3.23470246e-04 -7.72221857e-05 -9.74122380e-02  9.00000000e-01 
 3.25470246e-04  7.70417207e-05 -9.73962380e-02  9.00000000e-01 
 3.27470246e-04 -7.72189108e-05 -9.73802380e-02  9.00000000e-01 
 3.29470246e-04  7.70385187e-05 -9.73642380e-02  9.00000000e-01 
 3.31470246e-04 -7.72156364e-05 -9.73482380e-02  9.00000000e-01 
 3.33470246e-04  7.70353162e-05 -9.73322380e-02  9.00000000e-01 
 3.35470246e-04 -7.72123627e-05 -9.73162380e-02  9.00000000e-01 
 3.37470246e-04  7.70321131e-05 -9.73002380e-02  9.00000000e-01 
 3.39470246e-04 -7.72090896e-05 -9.72842380e-02  9.00000000e-01 
 3.41470246e-04  7.70289094e-05 -9.72682380e-02  9.00000000e-01 
 3.43470246e-04 -7.72058172e-05 -9.72522380e-02  9.00000000e-01 
 3.45470246e-04  7.70257053e-05 -9.72362380e-02  9.00000000e-01 
 3.47470246e-04 -7.72025453e-05 -9.72202380e-02  9.00000000e-01 
 3.49470246e-04  7.70225006e-05 -9.72042380e-02  9.00000000e-01 
 3.51470246e-04 -7.71992739e-05 -9.71882380e-02  9.00000000e-01 
 3.53470246e-04  7.70192954e-05 -9.71722380e-02  9.00000000e-01 
 3.55470246e-04 -7.71960032e-05 -9.71562380e-02  9.00000000e-01 
 3.57470246e-04  7.70160897e-05 -9.71402380e-02  9.00000000e-01 
 3.59470246e-04 -7.71927329e-05 -9.71242380e-02  9.00000000e-01 
 3.61470246e-04  7.70128835e-05 -9.71082380e-02  9.00000000e-01 
 3.63470246e-04 -7.71894632e-05 -9.70922380e-02  9.00000000e-01 
 3.65470246e-04  7.70096769e-05 -9.70762380e-02  9.00000000e-01 
 3.67470246e-04 -7.71861941e-05 -9.70602380e-02  9.00000000e-01 
 3.69470246e-04  7.70064699e-05 -9.70442380e-02  9.00000000e-01 
 3.71470246e-04 -7.71829254e-05 -9.70282380e-02  9.00000000e-01 
 3.73470246e-04  7.70032624e-05 -9.70122380e-02  9.00000000e-01 
 3.75470246e-04 -7.71796573e-05 -9.69962380e-02  9.00000000e-01 
 3.77470246e-04  7.70000545e-05 -9.69802380e-02  9.00000000e-01 
 3.79470246e-04 -7.71763896e-05 -9.69642380e-02  9.00000000e-01 
 3.81470246e-04  7.69968462e-05 -9.69482380e-02  9.00000000e-01 
 3.83470246e-04 -7.71731225e-05 -9.69322380e-02  9.00000000e-01 
 3.85470246e-04  7.69936375e-05 -9.69162380e-02  9.00000000e-01 
 3.87470246e-04 -7.71698558e-05 -9.69002380e-02  9.00000000e-01 
 3.89470246e-04  7.69904284e-05 -9.68842380e-02  9.00000000e-01 
 3.91470246e-04 -7.71665896e-05 -9.68682380e-02  9.00000000e-01 
 3.93470246e-04  7.69872189e-05 -9.68522380e-02  9.00000000e-01 
 3.95470246e-04 -7.71633238e-05 -9.68362380e-02  9.00000000e-01 
 3.97470246e-04  7.69840091e-05 -9.68202380e-02  9.00000000e-01 
 3.99470246e-04 -7.71600585e-05 -9.68042380e-02  9.00000000e-01 
 4.01470246e-04  7.69807989e-05 -9.67882380e-02  9.00000000e-01 
 4.03470246e-04 -7.71567936e-05 -9.67722380e-02  9.00000000e-01 
 4.05470246e-04  7.69775884e-05 -9.67562380e-02  9.00000000e-01 
 4.07470246e-04 -7.71535291e-05 -9.67402380e-02  9.00000000e-01 
 4.09470246e-04  7.69743775e-05 -9.67242380e-02  9.00000000e-01 
 4.11470246e-04 -7.71502651e-05 -9.67082380e-02  9.00000000e-01 
 4.13470246e-04  7.69711664e-05 -9.66922380e-02  9.00000000e-01 
 4.15470246e-04 -7.71470014e-05 -9.66762380e-02  9.00000000e-01 
 4.17470246e-04  7.69679549e-05 -9.66602380e-02  9.00000000e-01 
 4.19470246e-04 -7.71437382e-05 -9.66442380e-02  9.00000000e-01 
 4.21470246e-04  7.69647431e-05 -9.66282380e-02  9.00000000e-01 
 4.23470246e-04 -7.71404754e-05 -9.66122380e-02  9.00000000e-01 
 4.25470246e-04  7.69615310e-05 -9.65962380e-02  9.00000000e-01 
 4.27470246e-04 -7.71372129e-05 -9.65802380e-02  9.00000000e-01 
 4.29470246e-04  7.69583186e-05 -9.65642380e-02  9.00000000e-01 
 4.31470246e-04 -7.71339509e-05 -9.65482380e-02  9.00000000e-01 
 4.33470246e-04  7.69551060e-05 -9.65322380e-02  9.00000000e-01 
 4.35470246e-04 -7.71306892e-05 -9.65162380e-02  9.00000000e-01 
 4.37470246e-04  7.69518931e-05 -9.65002380e-02  9.00000000e-01 
 4.39470246e-04 -7.71274279e-05 -9.64842380e-02  9.00000000e-01 
 4.41470246e-04  7.69486799e-05 -9.64682380e-02  9.00000000e-01 
 4.43470246e-04 -7.71241669e-05 -9.64522380e-02  9.00000000e-01 
 4.45470246e-04  7.69454665e-05 -9.64362380e-02  9.00000000e-01 
 4.47470246e-04 -7.71209063e-05 -9.64202380e-02  9.00000000e-01 
 4.49470246e-04  7.69422528e-05 -9.64042380e-02  9.00000000e-01 
 4.51470246e-04 -7.71176461e-05 -9.63882380e-02  9.00000000e-01 
 4.53470246e-04  7.69390389e-05 -9.63722380e-02  9.00000000e-01 
 4.55470246e-04 -7.71143862e-05 -9.63562380e-02  9.00000000e-01 
 4.57470246e-04  7.69358248e-05 -9.63402380e-02  9.00000000e-01 
 4.59470246e-04 -7.71111266e-05 -9.63242380e-02  9.00000000e-01 
 4.61470246e-04  7.69326104e-05 -9.63082380e-02  9.00000000e-01 
 4.63470246e-04 -7.71078674e-05 -9.62922380e-02  9.00000000e-01 
 4.65470246e-04  7.69293959e-05 -9.62762380e-02  9.00000000e-01 
 4.67470246e-04 -7.71046085e-05 -9.62602380e-02  9.00000000e-01 
 4.69470246e-04  7.69261811e-05 -9.62442380e-02  9.00000000e-01 
 4.71470246e-04 -7.71013499e-05 -9.62282380e-02  9.00000000e-01 
 4.73470246e-04  7.69229661e-05 -9.62122380e-02  9.00000000e-01 
 4.75470246e-04 -7.70980916e-05 -9.61962380e-02  9.00000000e-01 
 4.77470246e-04  7.69197510e-05 -9.61802380e-02  9.00000000e-01 
 4.79470246e-04 -7.70948337e-05 -9.61642380e-02  9.00000000e-01 
 4.81470246e-04  7.69165356e-05 -9.61482380e-02  9.00000000e-01 
 4.83470246e-04 -7.70915760e-05 -9.61322380e-02  9.00000000e-01 
 4.85470246e-04  7.69133201e-05 -9.61162380e-02  9.00000000e-01 
 4.87470246e-04 -7.70883187e-05 -9.61002380e-02  9.00000000e-01 
 4.89470246e-04  7.69101044e-05 -9.60842380e-02  9.00000000e-01 
 4.91470246e-04 -7.70850617e-05 -9.60682380e-02  9.00000000e-01 
 4.93470246e-04  7.69068886e-05 -9.60522380e-02  9.00000000e-01 
 4.95470246e-04 -7.70818049e-05 -9.60362380e-02  9.00000000e-01 
 4.97470246e-04  7.69036725e-05 -9.60202380e-02  9.00000000e-01 
 4.99470246e-04 -7.70785484e-05 -9.60042380e-02  9.00000000e-01 
 5.00100100e-04  7.69405558e-05 -9.59991992e-02  9.00000000e-01 
 5.00100110e-04  3.71237597e-05 -9.59991991e-02  9.00000000e-01 
 5.00100130e-04  4.07297692e-06 -9.59991990e-02  9.00000000e-01 
 5.00100170e-04  1.06162072e-05 -9.59991986e-02  9.00000000e-01 
 5.00100200e-04  5.18844507e-05 -9.59991984e-02  9.00000000e-01 
 5.00100208e-04 -2.94413874e-05 -9.59991983e-02  9.00000000e-01 
 5.00100224e-04 -3.16779252e-04 -9.59991982e-02  9.00000000e-01 
 5.00100256e-04 -1.56406910e-04 -9.59991980e-02  9.00000000e-01 
 5.00100320e-04  9.24635265e-03 -9.59991974e-02  9.00000000e-01 
 5.00100387e-04 -1.17180808e-02 -9.59991969e-02  9.00000000e-01 
 5.00100459e-04  9.89043238e-03 -9.59991963e-02  9.00000000e-01 
 5.00100604e-04 -8.45505037e-03 -9.59991952e-02  9.00000000e-01 
 5.00100736e-04  7.12733875e-03 -9.59991941e-02  9.00000000e-01 
 5.00101001e-04 -6.43384448e-03 -9.59991920e-02  9.00000000e-01 
 5.00101471e-04  6.12677854e-03 -9.59991882e-02  9.00000000e-01 
 5.00102247e-04 -5.89562441e-03 -9.59991820e-02  9.00000000e-01 
 5.00103798e-04  5.82322208e-03 -9.59991696e-02  9.00000000e-01 
 5.00106704e-04 -5.74900692e-03 -9.59991464e-02  9.00000000e-01 
