 time            v(Q)            v(A)-v(B)       v(B)           
 0.00000000e+00  4.64710675e-09  4.00000000e-01  0.00000000e+00 
 1.00000000e-09  4.64711048e-09  4.00000004e-01  0.00000000e+00 
 2.00000000e-09  4.64711044e-09  4.00000008e-01  0.00000000e+00 
 4.00000000e-09  4.64711050e-09  4.00000016e-01  0.00000000e+00 
 8.00000000e-09  4.64711043e-09  4.00000032e-01  0.00000000e+00 
 1.60000000e-08  4.64711049e-09  4.00000064e-01  0.00000000e+00 
 3.20000000e-08  4.64711042e-09  4.00000128e-01  0.00000000e+00 
 6.40000000e-08  4.64711040e-09  4.00000256e-01  0.00000000e+00 
 1.00000000e-07  4.64711037e-09  4.00000400e-01  0.00000000e+00 
 1.00010000e-07  1.47191965e-05  4.00000400e-01  0.00000000e+00 
 1.00030000e-07 -5.91233179e-06  4.00000400e-01  0.00000000e+00 
 1.00070000e-07 -9.25575425e-06  4.00000400e-01  0.00000000e+00 
 1.00100000e-07 -1.22241621e-06  4.00000400e-01  0.00000000e+00 
 1.00108000e-07  3.69167676e-06  4.00000400e-01  0.00000000e+00 
 1.00124000e-07  7.14487357e-06  4.00000400e-01  0.00000000e+00 
 1.00156000e-07 -6.84191772e-07  4.00000401e-01  0.00000000e+00 
 1.00220000e-07  9.91735689e-07  4.00000401e-01  0.00000000e+00 
 1.00348000e-07 -8.54333122e-07  4.00000401e-01  0.00000000e+00 
 1.00604000e-07  7.06543273e-07  4.00000402e-01  0.00000000e+00 
 1.01116000e-07 -6.29333102e-07  4.00000404e-01  0.00000000e+00 
 1.02140000e-07  6.04766210e-07  4.00000409e-01  0.00000000e+00 
 1.04188000e-07 -5.78692256e-07  4.00000417e-01  0.00000000e+00 
 1.08284000e-07  5.79614002e-07  4.00000433e-01  0.00000000e+00 
 1.16476000e-07 -5.66136573e-07  4.00000466e-01  0.00000000e+00 
 1.32860000e-07  5.73343141e-07  4.00000531e-01  0.00000000e+00 
 1.65628000e-07 -5.63002715e-07  4.00000663e-01  0.00000000e+00 
 2.31164000e-07  5.71776603e-07  4.00000925e-01  0.00000000e+00 
 3.62236000e-07 -5.62219550e-07  4.00001449e-01  0.00000000e+00 
 6.24380000e-07  5.71385044e-07  4.00002498e-01  0.00000000e+00 
 1.14866800e-06 -5.62023778e-07  4.00004595e-01  0.00000000e+00 
 2.19724400e-06  5.71287158e-07  4.00008789e-01  0.00000000e+00 
 4.19724400e-06 -5.61974045e-07  4.00016789e-01  0.00000000e+00 
 6.19724400e-06  5.71241594e-07  4.00024789e-01  0.00000000e+00 
 8.19724400e-06 -5.61939828e-07  4.00032789e-01  0.00000000e+00 
 1.01972440e-05  5.71207376e-07  4.00040789e-01  0.00000000e+00 
 1.21972440e-05 -5.61905612e-07  4.00048789e-01  0.00000000e+00 
 1.41972440e-05  5.71173159e-07  4.00056789e-01  0.00000000e+00 
 1.61972440e-05 -5.61871395e-07  4.00064789e-01  0.00000000e+00 
 1.81972440e-05  5.71138943e-07  4.00072789e-01  0.00000000e+00 
 2.01972440e-05 -5.61837179e-07  4.00080789e-01  0.00000000e+00 
 2.21972440e-05  5.71104727e-07  4.00088789e-01  0.00000000e+00 
 2.41972440e-05 -5.61802962e-07  4.00096789e-01  0.00000000e+00 
 2.61972440e-05  5.71070511e-07  4.00104789e-01  0.00000000e+00 
 2.81972440e-05 -5.61768746e-07  4.00112789e-01  0.00000000e+00 
 3.01972440e-05  5.71036295e-07  4.00120789e-01  0.00000000e+00 
 3.21972440e-05 -5.61734530e-07  4.00128789e-01  0.00000000e+00 
 3.41972440e-05  5.71002080e-07  4.00136789e-01  0.00000000e+00 
 3.61972440e-05 -5.61700315e-07  4.00144789e-01  0.00000000e+00 
 3.81972440e-05  5.70967865e-07  4.00152789e-01  0.00000000e+00 
 4.01972440e-05 -5.61666099e-07  4.00160789e-01  0.00000000e+00 
 4.21972440e-05  5.70933650e-07  4.00168789e-01  0.00000000e+00 
 4.41972440e-05 -5.61631884e-07  4.00176789e-01  0.00000000e+00 
 4.61972440e-05  5.70899435e-07  4.00184789e-01  0.00000000e+00 
 4.81972440e-05 -5.61597669e-07  4.00192789e-01  0.00000000e+00 
 5.01972440e-05  5.70865221e-07  4.00200789e-01  0.00000000e+00 
 5.21972440e-05 -5.61563455e-07  4.00208789e-01  0.00000000e+00 
 5.41972440e-05  5.70831007e-07  4.00216789e-01  0.00000000e+00 
 5.61972440e-05 -5.61529240e-07  4.00224789e-01  0.00000000e+00 
 5.81972440e-05  5.70796793e-07  4.00232789e-01  0.00000000e+00 
 6.01972440e-05 -5.61495026e-07  4.00240789e-01  0.00000000e+00 
 6.21972440e-05  5.70762579e-07  4.00248789e-01  0.00000000e+00 
 6.41972440e-05 -5.61460812e-07  4.00256789e-01  0.00000000e+00 
 6.61972440e-05  5.70728365e-07  4.00264789e-01  0.00000000e+00 
 6.81972440e-05 -5.61426598e-07  4.00272789e-01  0.00000000e+00 
 7.01972440e-05  5.70694152e-07  4.00280789e-01  0.00000000e+00 
 7.21972440e-05 -5.61392384e-07  4.00288789e-01  0.00000000e+00 
 7.41972440e-05  5.70659939e-07  4.00296789e-01  0.00000000e+00 
 7.61972440e-05 -5.61358171e-07  4.00304789e-01  0.00000000e+00 
 7.81972440e-05  5.70625726e-07  4.00312789e-01  0.00000000e+00 
 8.01972440e-05 -5.61323958e-07  4.00320789e-01  0.00000000e+00 
 8.21972440e-05  5.70591514e-07  4.00328789e-01  0.00000000e+00 
 8.41972440e-05 -5.61289745e-07  4.00336789e-01  0.00000000e+00 
 8.61972440e-05  5.70557301e-07  4.00344789e-01  0.00000000e+00 
 8.81972440e-05 -5.61255532e-07  4.00352789e-01  0.00000000e+00 
 9.01972440e-05  5.70523089e-07  4.00360789e-01  0.00000000e+00 
 9.21972440e-05 -5.61221320e-07  4.00368789e-01  0.00000000e+00 
 9.41972440e-05  5.70488877e-07  4.00376789e-01  0.00000000e+00 
 9.61972440e-05 -5.61187108e-07  4.00384789e-01  0.00000000e+00 
 9.81972440e-05  5.70454665e-07  4.00392789e-01  0.00000000e+00 
 1.00197244e-04 -5.61152896e-07  4.00400789e-01  0.00000000e+00 
 1.02197244e-04  5.70420454e-07  4.00408789e-01  0.00000000e+00 
 1.04197244e-04 -5.61118684e-07  4.00416789e-01  0.00000000e+00 
 1.06197244e-04  5.70386243e-07  4.00424789e-01  0.00000000e+00 
 1.08197244e-04 -5.61084472e-07  4.00432789e-01  0.00000000e+00 
 1.10197244e-04  5.70352032e-07  4.00440789e-01  0.00000000e+00 
 1.12197244e-04 -5.61050261e-07  4.00448789e-01  0.00000000e+00 
 1.14197244e-04  5.70317821e-07  4.00456789e-01  0.00000000e+00 
 1.16197244e-04 -5.61016050e-07  4.00464789e-01  0.00000000e+00 
 1.18197244e-04  5.70283610e-07  4.00472789e-01  0.00000000e+00 
 1.20197244e-04 -5.60981839e-07  4.00480789e-01  0.00000000e+00 
 1.22197244e-04  5.70249400e-07  4.00488789e-01  0.00000000e+00 
 1.24197244e-04 -5.60947629e-07  4.00496789e-01  0.00000000e+00 
 1.26197244e-04  5.70215190e-07  4.00504789e-01  0.00000000e+00 
 1.28197244e-04 -5.60913418e-07  4.00512789e-01  0.00000000e+00 
 1.30197244e-04  5.70180980e-07  4.00520789e-01  0.00000000e+00 
 1.32197244e-04 -5.60879208e-07  4.00528789e-01  0.00000000e+00 
 1.34197244e-04  5.70146770e-07  4.00536789e-01  0.00000000e+00 
 1.36197244e-04 -5.60844998e-07  4.00544789e-01  0.00000000e+00 
 1.38197244e-04  5.70112561e-07  4.00552789e-01  0.00000000e+00 
 1.40197244e-04 -5.60810788e-07  4.00560789e-01  0.00000000e+00 
 1.42197244e-04  5.70078352e-07  4.00568789e-01  0.00000000e+00 
 1.44197244e-04 -5.60776579e-07  4.00576789e-01  0.00000000e+00 
 1.46197244e-04  5.70044143e-07  4.00584789e-01  0.00000000e+00 
 1.48197244e-04 -5.60742370e-07  4.00592789e-01  0.00000000e+00 
 1.50197244e-04  5.70009934e-07  4.00600789e-01  0.00000000e+00 
 1.52197244e-04 -5.60708161e-07  4.00608789e-01  0.00000000e+00 
 1.54197244e-04  5.69975725e-07  4.00616789e-01  0.00000000e+00 
 1.56197244e-04 -5.60673952e-07  4.00624789e-01  0.00000000e+00 
 1.58197244e-04  5.69941517e-07  4.00632789e-01  0.00000000e+00 
 1.60197244e-04 -5.60639743e-07  4.00640789e-01  0.00000000e+00 
 1.62197244e-04  5.69907309e-07  4.00648789e-01  0.00000000e+00 
 1.64197244e-04 -5.60605535e-07  4.00656789e-01  0.00000000e+00 
 1.66197244e-04  5.69873101e-07  4.00664789e-01  0.00000000e+00 
 1.68197244e-04 -5.60571327e-07  4.00672789e-01  0.00000000e+00 
 1.70197244e-04  5.69838894e-07  4.00680789e-01  0.00000000e+00 
 1.72197244e-04 -5.60537119e-07  4.00688789e-01  0.00000000e+00 
 1.74197244e-04  5.69804686e-07  4.00696789e-01  0.00000000e+00 
 1.76197244e-04 -5.60502911e-07  4.00704789e-01  0.00000000e+00 
 1.78197244e-04  5.69770479e-07  4.00712789e-01  0.00000000e+00 
 1.80197244e-04 -5.60468704e-07  4.00720789e-01  0.00000000e+00 
 1.82197244e-04  5.69736272e-07  4.00728789e-01  0.00000000e+00 
 1.84197244e-04 -5.60434497e-07  4.00736789e-01  0.00000000e+00 
 1.86197244e-04  5.69702066e-07  4.00744789e-01  0.00000000e+00 
 1.88197244e-04 -5.60400290e-07  4.00752789e-01  0.00000000e+00 
 1.90197244e-04  5.69667859e-07  4.00760789e-01  0.00000000e+00 
 1.92197244e-04 -5.60366083e-07  4.00768789e-01  0.00000000e+00 
 1.94197244e-04  5.69633653e-07  4.00776789e-01  0.00000000e+00 
 1.96197244e-04 -5.60331876e-07  4.00784789e-01  0.00000000e+00 
 1.98197244e-04  5.69599447e-07  4.00792789e-01  0.00000000e+00 
 2.00000000e-04 -5.60295799e-07  4.00800000e-01  0.00000000e+00 
 2.00200000e-04  4.60494322e-09 -9.91992000e-02  5.00000000e-01 
 2.00600000e-04  4.68927817e-09 -9.91976000e-02  5.00000000e-01 
 2.01091232e-04  4.60493216e-09 -9.91956351e-02  5.00000000e-01 
 2.01644385e-04  4.68928460e-09 -9.91934225e-02  5.00000000e-01 
 2.02750691e-04  4.60492893e-09 -9.91889972e-02  5.00000000e-01 
 2.04750691e-04  4.68928548e-09 -9.91809972e-02  5.00000000e-01 
 2.06750691e-04  4.60492824e-09 -9.91729972e-02  5.00000000e-01 
 2.08750691e-04  4.68928583e-09 -9.91649972e-02  5.00000000e-01 
 2.10750691e-04  4.60492799e-09 -9.91569972e-02  5.00000000e-01 
 2.12750691e-04  4.68928579e-09 -9.91489972e-02  5.00000000e-01 
 2.14750691e-04  4.60492811e-09 -9.91409972e-02  5.00000000e-01 
 2.16750691e-04  4.68928545e-09 -9.91329972e-02  5.00000000e-01 
 2.18750691e-04  4.60492855e-09 -9.91249972e-02  5.00000000e-01 
 2.20750691e-04  4.68928480e-09 -9.91169972e-02  5.00000000e-01 
 2.22750691e-04  4.60492942e-09 -9.91089972e-02  5.00000000e-01 
 2.24750691e-04  4.68928381e-09 -9.91009972e-02  5.00000000e-01 
 2.26750691e-04  4.60493053e-09 -9.90929972e-02  5.00000000e-01 
 2.28750691e-04  4.68928250e-09 -9.90849972e-02  5.00000000e-01 
 2.30750691e-04  4.60493203e-09 -9.90769972e-02  5.00000000e-01 
 2.32750691e-04  4.68928082e-09 -9.90689972e-02  5.00000000e-01 
 2.34750691e-04  4.60493384e-09 -9.90609972e-02  5.00000000e-01 
 2.36750691e-04  4.68927878e-09 -9.90529972e-02  5.00000000e-01 
 2.38750691e-04  4.60493600e-09 -9.90449972e-02  5.00000000e-01 
 2.40750691e-04  4.68927648e-09 -9.90369972e-02  5.00000000e-01 
 2.42750691e-04  4.60493853e-09 -9.90289972e-02  5.00000000e-01 
 2.44750691e-04  4.68927377e-09 -9.90209972e-02  5.00000000e-01 
 2.46750691e-04  4.60494137e-09 -9.90129972e-02  5.00000000e-01 
 2.48750691e-04  4.68927081e-09 -9.90049972e-02  5.00000000e-01 
 2.50750691e-04  4.60494452e-09 -9.89969972e-02  5.00000000e-01 
 2.52750691e-04  4.68926748e-09 -9.89889972e-02  5.00000000e-01 
 2.54750691e-04  4.60494808e-09 -9.89809972e-02  5.00000000e-01 
 2.56750691e-04  4.68926380e-09 -9.89729972e-02  5.00000000e-01 
 2.58750691e-04  4.60495188e-09 -9.89649972e-02  5.00000000e-01 
 2.60750691e-04  4.68925986e-09 -9.89569972e-02  5.00000000e-01 
 2.62750691e-04  4.60495599e-09 -9.89489972e-02  5.00000000e-01 
 2.64750691e-04  4.68925547e-09 -9.89409972e-02  5.00000000e-01 
 2.66750691e-04  4.60496052e-09 -9.89329972e-02  5.00000000e-01 
 2.68750691e-04  4.68925087e-09 -9.89249972e-02  5.00000000e-01 
 2.70750691e-04  4.60496535e-09 -9.89169972e-02  5.00000000e-01 
 2.72750691e-04  4.68924586e-09 -9.89089972e-02  5.00000000e-01 
 2.74750691e-04  4.60497047e-09 -9.89009972e-02  5.00000000e-01 
 2.76750691e-04  4.68924057e-09 -9.88929972e-02  5.00000000e-01 
 2.78750691e-04  4.60497595e-09 -9.88849972e-02  5.00000000e-01 
 2.80750691e-04  4.68923490e-09 -9.88769972e-02  5.00000000e-01 
 2.82750691e-04  4.60498179e-09 -9.88689972e-02  5.00000000e-01 
 2.84750691e-04  4.68922895e-09 -9.88609972e-02  5.00000000e-01 
 2.86750691e-04  4.60498787e-09 -9.88529972e-02  5.00000000e-01 
 2.88750691e-04  4.68922268e-09 -9.88449972e-02  5.00000000e-01 
 2.90750691e-04  4.60499435e-09 -9.88369972e-02  5.00000000e-01 
 2.92750691e-04  4.68921608e-09 -9.88289972e-02  5.00000000e-01 
 2.94750691e-04  4.60500108e-09 -9.88209972e-02  5.00000000e-01 
 2.96750691e-04  4.68920913e-09 -9.88129972e-02  5.00000000e-01 
 2.98750691e-04  4.60500823e-09 -9.88049972e-02  5.00000000e-01 
 3.00750691e-04  4.68920187e-09 -9.87969972e-02  5.00000000e-01 
 3.02750691e-04  4.60501565e-09 -9.87889972e-02  5.00000000e-01 
 3.04750691e-04  4.68919426e-09 -9.87809972e-02  5.00000000e-01 
 3.06750691e-04  4.60502337e-09 -9.87729972e-02  5.00000000e-01 
 3.08750691e-04  4.68918642e-09 -9.87649972e-02  5.00000000e-01 
 3.10750691e-04  4.60503139e-09 -9.87569972e-02  5.00000000e-01 
 3.12750691e-04  4.68917817e-09 -9.87489972e-02  5.00000000e-01 
 3.14750691e-04  4.60503981e-09 -9.87409972e-02  5.00000000e-01 
 3.16750691e-04  4.68916963e-09 -9.87329972e-02  5.00000000e-01 
 3.18750691e-04  4.60504851e-09 -9.87249972e-02  5.00000000e-01 
 3.20750691e-04  4.68916076e-09 -9.87169972e-02  5.00000000e-01 
 3.22750691e-04  4.60505751e-09 -9.87089972e-02  5.00000000e-01 
 3.24750691e-04  4.68915159e-09 -9.87009972e-02  5.00000000e-01 
 3.26750691e-04  4.60506686e-09 -9.86929972e-02  5.00000000e-01 
 3.28750691e-04  4.68914207e-09 -9.86849972e-02  5.00000000e-01 
 3.30750691e-04  4.60507650e-09 -9.86769972e-02  5.00000000e-01 
 3.32750691e-04  4.68913226e-09 -9.86689972e-02  5.00000000e-01 
 3.34750691e-04  4.60508648e-09 -9.86609972e-02  5.00000000e-01 
 3.36750691e-04  4.68912216e-09 -9.86529972e-02  5.00000000e-01 
 3.38750691e-04  4.60509673e-09 -9.86449972e-02  5.00000000e-01 
 3.40750691e-04  4.68911174e-09 -9.86369972e-02  5.00000000e-01 
 3.42750691e-04  4.60510734e-09 -9.86289972e-02  5.00000000e-01 
 3.44750691e-04  4.68910096e-09 -9.86209972e-02  5.00000000e-01 
 3.46750691e-04  4.60511823e-09 -9.86129972e-02  5.00000000e-01 
 3.48750691e-04  4.68908990e-09 -9.86049972e-02  5.00000000e-01 
 3.50750691e-04  4.60512945e-09 -9.85969972e-02  5.00000000e-01 
 3.52750691e-04  4.68907851e-09 -9.85889972e-02  5.00000000e-01 
 3.54750691e-04  4.60514103e-09 -9.85809972e-02  5.00000000e-01 
 3.56750691e-04  4.68906682e-09 -9.85729972e-02  5.00000000e-01 
 3.58750691e-04  4.60515287e-09 -9.85649972e-02  5.00000000e-01 
 3.60750691e-04  4.68905485e-09 -9.85569972e-02  5.00000000e-01 
 3.62750691e-04  4.60516501e-09 -9.85489972e-02  5.00000000e-01 
 3.64750691e-04  4.68904256e-09 -9.85409972e-02  5.00000000e-01 
 3.66750691e-04  4.60517748e-09 -9.85329972e-02  5.00000000e-01 
 3.68750691e-04  4.68902991e-09 -9.85249972e-02  5.00000000e-01 
 3.70750691e-04  4.60519024e-09 -9.85169972e-02  5.00000000e-01 
 3.72750691e-04  4.68901700e-09 -9.85089972e-02  5.00000000e-01 
 3.74750691e-04  4.60520332e-09 -9.85009972e-02  5.00000000e-01 
 3.76750691e-04  4.68900374e-09 -9.84929972e-02  5.00000000e-01 
 3.78750691e-04  4.60521667e-09 -9.84849972e-02  5.00000000e-01 
 3.80750691e-04  4.68899022e-09 -9.84769972e-02  5.00000000e-01 
 3.82750691e-04  4.60523043e-09 -9.84689972e-02  5.00000000e-01 
 3.84750691e-04  4.68897635e-09 -9.84609972e-02  5.00000000e-01 
 3.86750691e-04  4.60524441e-09 -9.84529972e-02  5.00000000e-01 
 3.88750691e-04  4.68896221e-09 -9.84449972e-02  5.00000000e-01 
 3.90750691e-04  4.60525872e-09 -9.84369972e-02  5.00000000e-01 
 3.92750691e-04  4.68894774e-09 -9.84289972e-02  5.00000000e-01 
 3.94750691e-04  4.60527335e-09 -9.84209972e-02  5.00000000e-01 
 3.96750691e-04  4.68893294e-09 -9.84129972e-02  5.00000000e-01 
 3.98750691e-04  4.60528826e-09 -9.84049972e-02  5.00000000e-01 
 4.00750691e-04  4.68891787e-09 -9.83969972e-02  5.00000000e-01 
 4.02750691e-04  4.60530350e-09 -9.83889972e-02  5.00000000e-01 
 4.04750691e-04  4.68890251e-09 -9.83809972e-02  5.00000000e-01 
 4.06750691e-04  4.60531902e-09 -9.83729972e-02  5.00000000e-01 
 4.08750691e-04  4.68888683e-09 -9.83649972e-02  5.00000000e-01 
 4.10750691e-04  4.60533486e-09 -9.83569972e-02  5.00000000e-01 
 4.12750691e-04  4.68887088e-09 -9.83489972e-02  5.00000000e-01 
 4.14750691e-04  4.60535098e-09 -9.83409972e-02  5.00000000e-01 
 4.16750691e-04  4.68885460e-09 -9.83329972e-02  5.00000000e-01 
 4.18750691e-04  4.60536736e-09 -9.83249972e-02  5.00000000e-01 
 4.20750691e-04  4.68883800e-09 -9.83169972e-02  5.00000000e-01 
 4.22750691e-04  4.60538413e-09 -9.83089972e-02  5.00000000e-01 
 4.24750691e-04  4.68882113e-09 -9.83009972e-02  5.00000000e-01 
 4.26750691e-04  4.60540110e-09 -9.82929972e-02  5.00000000e-01 
 4.28750691e-04  4.68880398e-09 -9.82849972e-02  5.00000000e-01 
 4.30750691e-04  4.60541846e-09 -9.82769972e-02  5.00000000e-01 
 4.32750691e-04  4.68878647e-09 -9.82689972e-02  5.00000000e-01 
 4.34750691e-04  4.60543609e-09 -9.82609972e-02  5.00000000e-01 
 4.36750691e-04  4.68876868e-09 -9.82529972e-02  5.00000000e-01 
 4.38750691e-04  4.60545398e-09 -9.82449972e-02  5.00000000e-01 
 4.40750691e-04  4.68875068e-09 -9.82369972e-02  5.00000000e-01 
 4.42750691e-04  4.60547219e-09 -9.82289972e-02  5.00000000e-01 
 4.44750691e-04  4.68873225e-09 -9.82209972e-02  5.00000000e-01 
 4.46750691e-04  4.60549073e-09 -9.82129972e-02  5.00000000e-01 
 4.48750691e-04  4.68871362e-09 -9.82049972e-02  5.00000000e-01 
 4.50750691e-04  4.60550953e-09 -9.81969972e-02  5.00000000e-01 
 4.52750691e-04  4.68869471e-09 -9.81889972e-02  5.00000000e-01 
 4.54750691e-04  4.60552859e-09 -9.81809972e-02  5.00000000e-01 
 4.56750691e-04  4.68867543e-09 -9.81729972e-02  5.00000000e-01 
 4.58750691e-04  4.60554797e-09 -9.81649972e-02  5.00000000e-01 
 4.60750691e-04  4.68865589e-09 -9.81569972e-02  5.00000000e-01 
 4.62750691e-04  4.60556773e-09 -9.81489972e-02  5.00000000e-01 
 4.64750691e-04  4.68863609e-09 -9.81409972e-02  5.00000000e-01 
 4.66750691e-04  4.60558763e-09 -9.81329972e-02  5.00000000e-01 
 4.68750691e-04  4.68861597e-09 -9.81249972e-02  5.00000000e-01 
 4.70750691e-04  4.60560791e-09 -9.81169972e-02  5.00000000e-01 
 4.72750691e-04  4.68859554e-09 -9.81089972e-02  5.00000000e-01 
 4.74750691e-04  4.60562845e-09 -9.81009972e-02  5.00000000e-01 
 4.76750691e-04  4.68857484e-09 -9.80929972e-02  5.00000000e-01 
 4.78750691e-04  4.60564930e-09 -9.80849972e-02  5.00000000e-01 
 4.80750691e-04  4.68855390e-09 -9.80769972e-02  5.00000000e-01 
 4.82750691e-04  4.60567051e-09 -9.80689972e-02  5.00000000e-01 
 4.84750691e-04  4.68853257e-09 -9.80609972e-02  5.00000000e-01 
 4.86750691e-04  4.60569188e-09 -9.80529972e-02  5.00000000e-01 
 4.88750691e-04  4.68851105e-09 -9.80449972e-02  5.00000000e-01 
 4.90750691e-04  4.60571361e-09 -9.80369972e-02  5.00000000e-01 
 4.92750691e-04  4.68848921e-09 -9.80289972e-02  5.00000000e-01 
 4.94750691e-04  4.60573556e-09 -9.80209972e-02  5.00000000e-01 
 4.96750691e-04  4.68846706e-09 -9.80129972e-02  5.00000000e-01 
 4.98750691e-04  4.60575791e-09 -9.80049972e-02  5.00000000e-01 
 5.00100100e-04  4.68843914e-09 -9.79995996e-02  5.00000000e-01 
 5.00100110e-04 -4.51133700e-06 -9.79995996e-02  5.00000000e-01 
 5.00100130e-04 -3.87991197e-07 -9.79995995e-02  5.00000000e-01 
 5.00100170e-04 -4.19286824e-06 -9.79995993e-02  5.00000000e-01 
 5.00100200e-04  1.27047869e-05 -9.79995992e-02  5.00000000e-01 
 5.00100208e-04  2.58448522e-05 -9.79995992e-02  5.00000000e-01 
 5.00100224e-04 -4.17966923e-06 -9.79995991e-02  5.00000000e-01 
 5.00100256e-04 -1.40161800e-05 -9.79995990e-02  5.00000000e-01 
 5.00100320e-04  1.25947909e-05 -9.79995987e-02  5.00000000e-01 
 5.00100448e-04 -1.22537185e-05 -9.79995982e-02  5.00000000e-01 
 5.00100704e-04  1.21234181e-05 -9.79995972e-02  5.00000000e-01 
 5.00101216e-04 -1.20425047e-05 -9.79995951e-02  5.00000000e-01 
 5.00102240e-04  1.20149116e-05 -9.79995910e-02  5.00000000e-01 
 5.00104288e-04 -1.19866853e-05 -9.79995828e-02  5.00000000e-01 
 5.00108384e-04  1.19865618e-05 -9.79995665e-02  5.00000000e-01 
 5.00116576e-04 -1.19723990e-05 -9.79995337e-02  5.00000000e-01 
 5.00132960e-04  1.19793886e-05 -9.79994682e-02  5.00000000e-01 
 5.00165728e-04 -1.19688054e-05 -9.79993371e-02  5.00000000e-01 
 5.00231264e-04  1.19775898e-05 -9.79990749e-02  5.00000000e-01 
 5.00362336e-04 -1.19679055e-05 -9.79985507e-02  5.00000000e-01 
 5.00624480e-04  1.19771397e-05 -9.79975021e-02  5.00000000e-01 
 5.01148768e-04 -1.19676805e-05 -9.79954049e-02  5.00000000e-01 
 5.02197344e-04  1.19770272e-05 -9.79912106e-02  5.00000000e-01 
