 time            v(Q)            v(A)-v(B)       v(B)           
 0.00000000e+00  4.64710670e-09  1.60000000e+00  0.00000000e+00 
 1.00000000e-09  4.64711471e-09  1.60000000e+00  0.00000000e+00 
 2.00000000e-09  4.64711473e-09  1.60000001e+00  0.00000000e+00 
 4.00000000e-09  4.64711479e-09  1.60000002e+00  0.00000000e+00 
 8.00000000e-09  4.64711473e-09  1.60000003e+00  0.00000000e+00 
 1.60000000e-08  4.64711472e-09  1.60000006e+00  0.00000000e+00 
 3.20000000e-08  4.64711469e-09  1.60000013e+00  0.00000000e+00 
 6.40000000e-08  4.64711465e-09  1.60000026e+00  0.00000000e+00 
 1.00000000e-07  4.64711459e-09  1.60000040e+00  0.00000000e+00 
 1.00010000e-07  1.64594156e-05  1.60000040e+00  0.00000000e+00 
 1.00030000e-07 -5.50785762e-06  1.60000040e+00  0.00000000e+00 
 1.00070000e-07 -4.25491296e-05  1.60000040e+00  0.00000000e+00 
 1.00100000e-07 -1.49460673e-04  1.60000040e+00  0.00000000e+00 
 1.00108000e-07 -2.87573286e-04  1.60000040e+00  0.00000000e+00 
 1.00124000e-07  2.83881194e-05  1.60000040e+00  0.00000000e+00 
 1.00156000e-07  7.22261532e-03  1.60000040e+00  0.00000000e+00 
 1.00211958e-07 -4.41893600e-01  1.60000040e+00  0.00000000e+00 
 1.00265826e-07  3.40676950e-01  1.60000040e+00  0.00000000e+00 
 1.00341826e-07  1.52218284e+00  1.60000040e+00  0.00000000e+00 
 1.00464310e-07  1.73250337e+00  1.60000040e+00  0.00000000e+00 
 1.00581085e-07  1.69448665e+00  1.60000040e+00  0.00000000e+00 
 1.00810944e-07  1.69927519e+00  1.60000040e+00  0.00000000e+00 
 1.01126721e-07  1.70345750e+00  1.60000040e+00  0.00000000e+00 
 1.01651739e-07  1.69568608e+00  1.60000041e+00  0.00000000e+00 
 1.02528968e-07  1.70514053e+00  1.60000041e+00  0.00000000e+00 
 1.04003614e-07  1.69489141e+00  1.60000042e+00  0.00000000e+00 
 1.06952904e-07  1.70553855e+00  1.60000043e+00  0.00000000e+00 
 1.12663126e-07  1.69470057e+00  1.60000045e+00  0.00000000e+00 
 1.23734197e-07  1.70563796e+00  1.60000049e+00  0.00000000e+00 
 1.45876339e-07  1.69465259e+00  1.60000058e+00  0.00000000e+00 
 1.90160624e-07  1.70566273e+00  1.60000076e+00  0.00000000e+00 
 2.78729194e-07  1.69464073e+00  1.60000111e+00  0.00000000e+00 
 4.55866333e-07  1.70566889e+00  1.60000182e+00  0.00000000e+00 
 8.10140612e-07  1.69463777e+00  1.60000324e+00  0.00000000e+00 
 1.51868917e-06  1.70567043e+00  1.60000607e+00  0.00000000e+00 
 2.93578628e-06  1.69463703e+00  1.60001174e+00  0.00000000e+00 
 4.93578628e-06  1.70568825e+00  1.60001974e+00  0.00000000e+00 
 6.93578628e-06  1.69463635e+00  1.60002774e+00  0.00000000e+00 
 8.93578628e-06  1.70567893e+00  1.60003574e+00  0.00000000e+00 
 1.09357863e-05  1.69463600e+00  1.60004374e+00  0.00000000e+00 
 1.29357863e-05  1.70567928e+00  1.60005174e+00  0.00000000e+00 
 1.49357863e-05  1.69463565e+00  1.60005974e+00  0.00000000e+00 
 1.69357863e-05  1.70567965e+00  1.60006774e+00  0.00000000e+00 
 1.89357863e-05  1.69463531e+00  1.60007574e+00  0.00000000e+00 
 2.09357863e-05  1.70568001e+00  1.60008374e+00  0.00000000e+00 
 2.29357863e-05  1.69463496e+00  1.60009174e+00  0.00000000e+00 
 2.49357863e-05  1.70568037e+00  1.60009974e+00  0.00000000e+00 
 2.69357863e-05  1.69463461e+00  1.60010774e+00  0.00000000e+00 
 2.89357863e-05  1.70568073e+00  1.60011574e+00  0.00000000e+00 
 3.09357863e-05  1.69463426e+00  1.60012374e+00  0.00000000e+00 
 3.29357863e-05  1.70568110e+00  1.60013174e+00  0.00000000e+00 
 3.49357863e-05  1.69463391e+00  1.60013974e+00  0.00000000e+00 
 3.69357863e-05  1.70568146e+00  1.60014774e+00  0.00000000e+00 
 3.89357863e-05  1.69463357e+00  1.60015574e+00  0.00000000e+00 
 4.09357863e-05  1.70568182e+00  1.60016374e+00  0.00000000e+00 
 4.29357863e-05  1.69463322e+00  1.60017174e+00  0.00000000e+00 
 4.49357863e-05  1.70568218e+00  1.60017974e+00  0.00000000e+00 
 4.69357863e-05  1.69463287e+00  1.60018774e+00  0.00000000e+00 
 4.89357863e-05  1.70568254e+00  1.60019574e+00  0.00000000e+00 
 5.09357863e-05  1.69463252e+00  1.60020374e+00  0.00000000e+00 
 5.29357863e-05  1.70568291e+00  1.60021174e+00  0.00000000e+00 
 5.49357863e-05  1.69463217e+00  1.60021974e+00  0.00000000e+00 
 5.69357863e-05  1.70568327e+00  1.60022774e+00  0.00000000e+00 
 5.89357863e-05  1.69463183e+00  1.60023574e+00  0.00000000e+00 
 6.09357863e-05  1.70568363e+00  1.60024374e+00  0.00000000e+00 
 6.29357863e-05  1.69463148e+00  1.60025174e+00  0.00000000e+00 
 6.49357863e-05  1.70568399e+00  1.60025974e+00  0.00000000e+00 
 6.69357863e-05  1.69463113e+00  1.60026774e+00  0.00000000e+00 
 6.89357863e-05  1.70568435e+00  1.60027574e+00  0.00000000e+00 
 7.09357863e-05  1.69463079e+00  1.60028374e+00  0.00000000e+00 
 7.29357863e-05  1.70568472e+00  1.60029174e+00  0.00000000e+00 
 7.49357863e-05  1.69463044e+00  1.60029974e+00  0.00000000e+00 
 7.69357863e-05  1.70568508e+00  1.60030774e+00  0.00000000e+00 
 7.89357863e-05  1.69463009e+00  1.60031574e+00  0.00000000e+00 
 8.09357863e-05  1.70568544e+00  1.60032374e+00  0.00000000e+00 
 8.29357863e-05  1.69462974e+00  1.60033174e+00  0.00000000e+00 
 8.49357863e-05  1.70568580e+00  1.60033974e+00  0.00000000e+00 
 8.69357863e-05  1.69462940e+00  1.60034774e+00  0.00000000e+00 
 8.89357863e-05  1.70568616e+00  1.60035574e+00  0.00000000e+00 
 9.09357863e-05  1.69462905e+00  1.60036374e+00  0.00000000e+00 
 9.29357863e-05  1.70568652e+00  1.60037174e+00  0.00000000e+00 
 9.49357863e-05  1.69462870e+00  1.60037974e+00  0.00000000e+00 
 9.69357863e-05  1.70568688e+00  1.60038774e+00  0.00000000e+00 
 9.89357863e-05  1.69462836e+00  1.60039574e+00  0.00000000e+00 
 1.00935786e-04  1.70568724e+00  1.60040374e+00  0.00000000e+00 
 1.02935786e-04  1.69462801e+00  1.60041174e+00  0.00000000e+00 
 1.04935786e-04  1.70568761e+00  1.60041974e+00  0.00000000e+00 
 1.06935786e-04  1.69462766e+00  1.60042774e+00  0.00000000e+00 
 1.08935786e-04  1.70568797e+00  1.60043574e+00  0.00000000e+00 
 1.10935786e-04  1.69462732e+00  1.60044374e+00  0.00000000e+00 
 1.12935786e-04  1.70568833e+00  1.60045174e+00  0.00000000e+00 
 1.14935786e-04  1.69462697e+00  1.60045974e+00  0.00000000e+00 
 1.16935786e-04  1.70568869e+00  1.60046774e+00  0.00000000e+00 
 1.18935786e-04  1.69462662e+00  1.60047574e+00  0.00000000e+00 
 1.20935786e-04  1.70568905e+00  1.60048374e+00  0.00000000e+00 
 1.22935786e-04  1.69462628e+00  1.60049174e+00  0.00000000e+00 
 1.24935786e-04  1.70568941e+00  1.60049974e+00  0.00000000e+00 
 1.26935786e-04  1.69462593e+00  1.60050774e+00  0.00000000e+00 
 1.28935786e-04  1.70568977e+00  1.60051574e+00  0.00000000e+00 
 1.30935786e-04  1.69462558e+00  1.60052374e+00  0.00000000e+00 
 1.32935786e-04  1.70569013e+00  1.60053174e+00  0.00000000e+00 
 1.34935786e-04  1.69462524e+00  1.60053974e+00  0.00000000e+00 
 1.36935786e-04  1.70569049e+00  1.60054774e+00  0.00000000e+00 
 1.38935786e-04  1.69462489e+00  1.60055574e+00  0.00000000e+00 
 1.40935786e-04  1.70569085e+00  1.60056374e+00  0.00000000e+00 
 1.42935786e-04  1.69462454e+00  1.60057174e+00  0.00000000e+00 
 1.44935786e-04  1.70569121e+00  1.60057974e+00  0.00000000e+00 
 1.46935786e-04  1.69462420e+00  1.60058774e+00  0.00000000e+00 
 1.48935786e-04  1.70569157e+00  1.60059574e+00  0.00000000e+00 
 1.50935786e-04  1.69462385e+00  1.60060374e+00  0.00000000e+00 
 1.52935786e-04  1.70569193e+00  1.60061174e+00  0.00000000e+00 
 1.54935786e-04  1.69462351e+00  1.60061974e+00  0.00000000e+00 
 1.56935786e-04  1.70569229e+00  1.60062774e+00  0.00000000e+00 
 1.58935786e-04  1.69462316e+00  1.60063574e+00  0.00000000e+00 
 1.60935786e-04  1.70569265e+00  1.60064374e+00  0.00000000e+00 
 1.62935786e-04  1.69462281e+00  1.60065174e+00  0.00000000e+00 
 1.64935786e-04  1.70569301e+00  1.60065974e+00  0.00000000e+00 
 1.66935786e-04  1.69462247e+00  1.60066774e+00  0.00000000e+00 
 1.68935786e-04  1.70569337e+00  1.60067574e+00  0.00000000e+00 
 1.70935786e-04  1.69462212e+00  1.60068374e+00  0.00000000e+00 
 1.72935786e-04  1.70569373e+00  1.60069174e+00  0.00000000e+00 
 1.74935786e-04  1.69462178e+00  1.60069974e+00  0.00000000e+00 
 1.76935786e-04  1.70569409e+00  1.60070774e+00  0.00000000e+00 
 1.78935786e-04  1.69462143e+00  1.60071574e+00  0.00000000e+00 
 1.80935786e-04  1.70569445e+00  1.60072374e+00  0.00000000e+00 
 1.82935786e-04  1.69462109e+00  1.60073174e+00  0.00000000e+00 
 1.84935786e-04  1.70569481e+00  1.60073974e+00  0.00000000e+00 
 1.86935786e-04  1.69462074e+00  1.60074774e+00  0.00000000e+00 
 1.88935786e-04  1.70569517e+00  1.60075574e+00  0.00000000e+00 
 1.90935786e-04  1.69462039e+00  1.60076374e+00  0.00000000e+00 
 1.92935786e-04  1.70569553e+00  1.60077174e+00  0.00000000e+00 
 1.94935786e-04  1.69462005e+00  1.60077974e+00  0.00000000e+00 
 1.96935786e-04  1.70569589e+00  1.60078774e+00  0.00000000e+00 
 1.98935786e-04  1.69461970e+00  1.60079574e+00  0.00000000e+00 
 2.00000000e-04  1.70569067e+00  1.60080000e+00  0.00000000e+00 
 2.00200000e-04  1.69999944e+00 -9.91992000e-02  1.70000000e+00 
 2.00600000e-04  1.70000051e+00 -9.91976000e-02  1.70000000e+00 
 2.01001832e-04  1.69999944e+00 -9.91959927e-02  1.70000000e+00 
 2.01391878e-04  1.70000051e+00 -9.91944325e-02  1.70000000e+00 
 2.02171971e-04  1.69999944e+00 -9.91913121e-02  1.70000000e+00 
 2.03732156e-04  1.70000051e+00 -9.91850714e-02  1.70000000e+00 
 2.05732156e-04  1.69999944e+00 -9.91770714e-02  1.70000000e+00 
 2.07732156e-04  1.70000051e+00 -9.91690714e-02  1.70000000e+00 
 2.09732156e-04  1.69999944e+00 -9.91610714e-02  1.70000000e+00 
 2.11732156e-04  1.70000051e+00 -9.91530714e-02  1.70000000e+00 
 2.13732156e-04  1.69999944e+00 -9.91450714e-02  1.70000000e+00 
 2.15732156e-04  1.70000051e+00 -9.91370714e-02  1.70000000e+00 
 2.17732156e-04  1.69999944e+00 -9.91290714e-02  1.70000000e+00 
 2.19732156e-04  1.70000051e+00 -9.91210714e-02  1.70000000e+00 
 2.21732156e-04  1.69999944e+00 -9.91130714e-02  1.70000000e+00 
 2.23732156e-04  1.70000051e+00 -9.91050714e-02  1.70000000e+00 
 2.25732156e-04  1.69999944e+00 -9.90970714e-02  1.70000000e+00 
 2.27732156e-04  1.70000051e+00 -9.90890714e-02  1.70000000e+00 
 2.29732156e-04  1.69999944e+00 -9.90810714e-02  1.70000000e+00 
 2.31732156e-04  1.70000051e+00 -9.90730714e-02  1.70000000e+00 
 2.33732156e-04  1.69999944e+00 -9.90650714e-02  1.70000000e+00 
 2.35732156e-04  1.70000051e+00 -9.90570714e-02  1.70000000e+00 
 2.37732156e-04  1.69999944e+00 -9.90490714e-02  1.70000000e+00 
 2.39732156e-04  1.70000051e+00 -9.90410714e-02  1.70000000e+00 
 2.41732156e-04  1.69999944e+00 -9.90330714e-02  1.70000000e+00 
 2.43732156e-04  1.70000051e+00 -9.90250714e-02  1.70000000e+00 
 2.45732156e-04  1.69999944e+00 -9.90170714e-02  1.70000000e+00 
 2.47732156e-04  1.70000051e+00 -9.90090714e-02  1.70000000e+00 
 2.49732156e-04  1.69999944e+00 -9.90010714e-02  1.70000000e+00 
 2.51732156e-04  1.70000051e+00 -9.89930714e-02  1.70000000e+00 
 2.53732156e-04  1.69999944e+00 -9.89850714e-02  1.70000000e+00 
 2.55732156e-04  1.70000051e+00 -9.89770714e-02  1.70000000e+00 
 2.57732156e-04  1.69999944e+00 -9.89690714e-02  1.70000000e+00 
 2.59732156e-04  1.70000051e+00 -9.89610714e-02  1.70000000e+00 
 2.61732156e-04  1.69999944e+00 -9.89530714e-02  1.70000000e+00 
 2.63732156e-04  1.70000051e+00 -9.89450714e-02  1.70000000e+00 
 2.65732156e-04  1.69999944e+00 -9.89370714e-02  1.70000000e+00 
 2.67732156e-04  1.70000051e+00 -9.89290714e-02  1.70000000e+00 
 2.69732156e-04  1.69999944e+00 -9.89210714e-02  1.70000000e+00 
 2.71732156e-04  1.70000051e+00 -9.89130714e-02  1.70000000e+00 
 2.73732156e-04  1.69999944e+00 -9.89050714e-02  1.70000000e+00 
 2.75732156e-04  1.70000051e+00 -9.88970714e-02  1.70000000e+00 
 2.77732156e-04  1.69999944e+00 -9.88890714e-02  1.70000000e+00 
 2.79732156e-04  1.70000051e+00 -9.88810714e-02  1.70000000e+00 
 2.81732156e-04  1.69999944e+00 -9.88730714e-02  1.70000000e+00 
 2.83732156e-04  1.70000051e+00 -9.88650714e-02  1.70000000e+00 
 2.85732156e-04  1.69999944e+00 -9.88570714e-02  1.70000000e+00 
 2.87732156e-04  1.70000051e+00 -9.88490714e-02  1.70000000e+00 
 2.89732156e-04  1.69999944e+00 -9.88410714e-02  1.70000000e+00 
 2.91732156e-04  1.70000051e+00 -9.88330714e-02  1.70000000e+00 
 2.93732156e-04  1.69999944e+00 -9.88250714e-02  1.70000000e+00 
 2.95732156e-04  1.70000051e+00 -9.88170714e-02  1.70000000e+00 
 2.97732156e-04  1.69999944e+00 -9.88090714e-02  1.70000000e+00 
 2.99732156e-04  1.70000051e+00 -9.88010714e-02  1.70000000e+00 
 3.01732156e-04  1.69999944e+00 -9.87930714e-02  1.70000000e+00 
 3.03732156e-04  1.70000051e+00 -9.87850714e-02  1.70000000e+00 
 3.05732156e-04  1.69999944e+00 -9.87770714e-02  1.70000000e+00 
 3.07732156e-04  1.70000051e+00 -9.87690714e-02  1.70000000e+00 
 3.09732156e-04  1.69999944e+00 -9.87610714e-02  1.70000000e+00 
 3.11732156e-04  1.70000051e+00 -9.87530714e-02  1.70000000e+00 
 3.13732156e-04  1.69999944e+00 -9.87450714e-02  1.70000000e+00 
 3.15732156e-04  1.70000051e+00 -9.87370714e-02  1.70000000e+00 
 3.17732156e-04  1.69999944e+00 -9.87290714e-02  1.70000000e+00 
 3.19732156e-04  1.70000051e+00 -9.87210714e-02  1.70000000e+00 
 3.21732156e-04  1.69999944e+00 -9.87130714e-02  1.70000000e+00 
 3.23732156e-04  1.70000051e+00 -9.87050714e-02  1.70000000e+00 
 3.25732156e-04  1.69999944e+00 -9.86970714e-02  1.70000000e+00 
 3.27732156e-04  1.70000051e+00 -9.86890714e-02  1.70000000e+00 
 3.29732156e-04  1.69999944e+00 -9.86810714e-02  1.70000000e+00 
 3.31732156e-04  1.70000051e+00 -9.86730714e-02  1.70000000e+00 
 3.33732156e-04  1.69999944e+00 -9.86650714e-02  1.70000000e+00 
 3.35732156e-04  1.70000051e+00 -9.86570714e-02  1.70000000e+00 
 3.37732156e-04  1.69999944e+00 -9.86490714e-02  1.70000000e+00 
 3.39732156e-04  1.70000051e+00 -9.86410714e-02  1.70000000e+00 
 3.41732156e-04  1.69999944e+00 -9.86330714e-02  1.70000000e+00 
 3.43732156e-04  1.70000051e+00 -9.86250714e-02  1.70000000e+00 
 3.45732156e-04  1.69999944e+00 -9.86170714e-02  1.70000000e+00 
 3.47732156e-04  1.70000051e+00 -9.86090714e-02  1.70000000e+00 
 3.49732156e-04  1.69999944e+00 -9.86010714e-02  1.70000000e+00 
 3.51732156e-04  1.70000051e+00 -9.85930714e-02  1.70000000e+00 
 3.53732156e-04  1.69999944e+00 -9.85850714e-02  1.70000000e+00 
 3.55732156e-04  1.70000051e+00 -9.85770714e-02  1.70000000e+00 
 3.57732156e-04  1.69999944e+00 -9.85690714e-02  1.70000000e+00 
 3.59732156e-04  1.70000051e+00 -9.85610714e-02  1.70000000e+00 
 3.61732156e-04  1.69999944e+00 -9.85530714e-02  1.70000000e+00 
 3.63732156e-04  1.70000051e+00 -9.85450714e-02  1.70000000e+00 
 3.65732156e-04  1.69999944e+00 -9.85370714e-02  1.70000000e+00 
 3.67732156e-04  1.70000051e+00 -9.85290714e-02  1.70000000e+00 
 3.69732156e-04  1.69999944e+00 -9.85210714e-02  1.70000000e+00 
 3.71732156e-04  1.70000051e+00 -9.85130714e-02  1.70000000e+00 
 3.73732156e-04  1.69999944e+00 -9.85050714e-02  1.70000000e+00 
 3.75732156e-04  1.70000051e+00 -9.84970714e-02  1.70000000e+00 
 3.77732156e-04  1.69999944e+00 -9.84890714e-02  1.70000000e+00 
 3.79732156e-04  1.70000051e+00 -9.84810714e-02  1.70000000e+00 
 3.81732156e-04  1.69999944e+00 -9.84730714e-02  1.70000000e+00 
 3.83732156e-04  1.70000051e+00 -9.84650714e-02  1.70000000e+00 
 3.85732156e-04  1.69999944e+00 -9.84570714e-02  1.70000000e+00 
 3.87732156e-04  1.70000051e+00 -9.84490714e-02  1.70000000e+00 
 3.89732156e-04  1.69999944e+00 -9.84410714e-02  1.70000000e+00 
 3.91732156e-04  1.70000051e+00 -9.84330714e-02  1.70000000e+00 
 3.93732156e-04  1.69999944e+00 -9.84250714e-02  1.70000000e+00 
 3.95732156e-04  1.70000051e+00 -9.84170714e-02  1.70000000e+00 
 3.97732156e-04  1.69999944e+00 -9.84090714e-02  1.70000000e+00 
 3.99732156e-04  1.70000051e+00 -9.84010714e-02  1.70000000e+00 
 4.01732156e-04  1.69999944e+00 -9.83930714e-02  1.70000000e+00 
 4.03732156e-04  1.70000051e+00 -9.83850714e-02  1.70000000e+00 
 4.05732156e-04  1.69999944e+00 -9.83770714e-02  1.70000000e+00 
 4.07732156e-04  1.70000051e+00 -9.83690714e-02  1.70000000e+00 
 4.09732156e-04  1.69999944e+00 -9.83610714e-02  1.70000000e+00 
 4.11732156e-04  1.70000051e+00 -9.83530714e-02  1.70000000e+00 
 4.13732156e-04  1.69999944e+00 -9.83450714e-02  1.70000000e+00 
 4.15732156e-04  1.70000051e+00 -9.83370714e-02  1.70000000e+00 
 4.17732156e-04  1.69999944e+00 -9.83290714e-02  1.70000000e+00 
 4.19732156e-04  1.70000051e+00 -9.83210714e-02  1.70000000e+00 
 4.21732156e-04  1.69999944e+00 -9.83130714e-02  1.70000000e+00 
 4.23732156e-04  1.70000051e+00 -9.83050714e-02  1.70000000e+00 
 4.25732156e-04  1.69999944e+00 -9.82970714e-02  1.70000000e+00 
 4.27732156e-04  1.70000051e+00 -9.82890714e-02  1.70000000e+00 
 4.29732156e-04  1.69999944e+00 -9.82810714e-02  1.70000000e+00 
 4.31732156e-04  1.70000051e+00 -9.82730714e-02  1.70000000e+00 
 4.33732156e-04  1.69999944e+00 -9.82650714e-02  1.70000000e+00 
 4.35732156e-04  1.70000051e+00 -9.82570714e-02  1.70000000e+00 
 4.37732156e-04  1.69999944e+00 -9.82490714e-02  1.70000000e+00 
 4.39732156e-04  1.70000051e+00 -9.82410714e-02  1.70000000e+00 
 4.41732156e-04  1.69999944e+00 -9.82330714e-02  1.70000000e+00 
 4.43732156e-04  1.70000051e+00 -9.82250714e-02  1.70000000e+00 
 4.45732156e-04  1.69999944e+00 -9.82170714e-02  1.70000000e+00 
 4.47732156e-04  1.70000051e+00 -9.82090714e-02  1.70000000e+00 
 4.49732156e-04  1.69999944e+00 -9.82010714e-02  1.70000000e+00 
 4.51732156e-04  1.70000050e+00 -9.81930714e-02  1.70000000e+00 
 4.53732156e-04  1.69999944e+00 -9.81850714e-02  1.70000000e+00 
 4.55732156e-04  1.70000050e+00 -9.81770714e-02  1.70000000e+00 
 4.57732156e-04  1.69999944e+00 -9.81690714e-02  1.70000000e+00 
 4.59732156e-04  1.70000050e+00 -9.81610714e-02  1.70000000e+00 
 4.61732156e-04  1.69999944e+00 -9.81530714e-02  1.70000000e+00 
 4.63732156e-04  1.70000050e+00 -9.81450714e-02  1.70000000e+00 
 4.65732156e-04  1.69999944e+00 -9.81370714e-02  1.70000000e+00 
 4.67732156e-04  1.70000050e+00 -9.81290714e-02  1.70000000e+00 
 4.69732156e-04  1.69999944e+00 -9.81210714e-02  1.70000000e+00 
 4.71732156e-04  1.70000050e+00 -9.81130714e-02  1.70000000e+00 
 4.73732156e-04  1.69999944e+00 -9.81050714e-02  1.70000000e+00 
 4.75732156e-04  1.70000050e+00 -9.80970714e-02  1.70000000e+00 
 4.77732156e-04  1.69999944e+00 -9.80890714e-02  1.70000000e+00 
 4.79732156e-04  1.70000050e+00 -9.80810714e-02  1.70000000e+00 
 4.81732156e-04  1.69999944e+00 -9.80730714e-02  1.70000000e+00 
 4.83732156e-04  1.70000050e+00 -9.80650714e-02  1.70000000e+00 
 4.85732156e-04  1.69999944e+00 -9.80570714e-02  1.70000000e+00 
 4.87732156e-04  1.70000050e+00 -9.80490714e-02  1.70000000e+00 
 4.89732156e-04  1.69999944e+00 -9.80410714e-02  1.70000000e+00 
 4.91732156e-04  1.70000050e+00 -9.80330714e-02  1.70000000e+00 
 4.93732156e-04  1.69999944e+00 -9.80250714e-02  1.70000000e+00 
 4.95732156e-04  1.70000050e+00 -9.80170714e-02  1.70000000e+00 
 4.97732156e-04  1.69999944e+00 -9.80090714e-02  1.70000000e+00 
 4.99732156e-04  1.70000050e+00 -9.80010714e-02  1.70000000e+00 
 5.00100100e-04  1.69999944e+00 -9.79995996e-02  1.70000000e+00 
 5.00100110e-04  1.69996596e+00 -9.79995996e-02  1.70000000e+00 
 5.00100130e-04  1.69998663e+00 -9.79995995e-02  1.70000000e+00 
 5.00100170e-04  1.69995938e+00 -9.79995993e-02  1.70000000e+00 
 5.00100200e-04  1.70018683e+00 -9.79995992e-02  1.70000000e+00 
 5.00100208e-04  1.70031574e+00 -9.79995992e-02  1.70000000e+00 
 5.00100224e-04  1.70027757e+00 -9.79995991e-02  1.70000000e+00 
 5.00100256e-04  1.69984639e+00 -9.79995990e-02  1.70000000e+00 
 5.00100320e-04  1.69846416e+00 -9.79995987e-02  1.70000000e+00 
 5.00100448e-04  1.70285276e+00 -9.79995982e-02  1.70000000e+00 
 5.00100569e-04  1.69934229e+00 -9.79995977e-02  1.70000000e+00 
 5.00100739e-04  1.70006518e+00 -9.79995970e-02  1.70000000e+00 
 5.00100963e-04  1.70014126e+00 -9.79995961e-02  1.70000000e+00 
 5.00101412e-04  1.69979431e+00 -9.79995944e-02  1.70000000e+00 
 5.00102180e-04  1.70023089e+00 -9.79995913e-02  1.70000000e+00 
 5.00103519e-04  1.69975483e+00 -9.79995859e-02  1.70000000e+00 
 5.00106058e-04  1.70025120e+00 -9.79995758e-02  1.70000000e+00 
