 time            v(Q)            v(A)-v(B)       v(B)           
 0.00000000e+00  4.64710424e-09  2.00000000e-01  0.00000000e+00 
 1.00000000e-09  4.64722301e-09  2.00000004e-01  0.00000000e+00 
 2.00000000e-09  4.64722362e-09  2.00000008e-01  0.00000000e+00 
 4.00000000e-09  4.64722363e-09  2.00000016e-01  0.00000000e+00 
 8.00000000e-09  4.64722350e-09  2.00000032e-01  0.00000000e+00 
 1.60000000e-08  4.64722331e-09  2.00000064e-01  0.00000000e+00 
 3.20000000e-08  4.64722298e-09  2.00000128e-01  0.00000000e+00 
 6.40000000e-08  4.64722230e-09  2.00000256e-01  0.00000000e+00 
 1.00000000e-07  4.64722144e-09  2.00000400e-01  0.00000000e+00 
 1.00010000e-07  1.43881265e-05  2.00000400e-01  0.00000000e+00 
 1.00030000e-07 -6.02572173e-06  2.00000400e-01  0.00000000e+00 
 1.00070000e-07 -8.97669340e-06  2.00000400e-01  0.00000000e+00 
 1.00100000e-07 -9.83746063e-07  2.00000400e-01  0.00000000e+00 
 1.00108000e-07  4.05303962e-06  2.00000400e-01  0.00000000e+00 
 1.00124000e-07  7.32924710e-06  2.00000400e-01  0.00000000e+00 
 1.00156000e-07 -1.04740066e-06  2.00000401e-01  0.00000000e+00 
 1.00220000e-07  1.09889724e-06  2.00000401e-01  0.00000000e+00 
 1.00348000e-07 -9.98221286e-07  2.00000401e-01  0.00000000e+00 
 1.00604000e-07  8.85047301e-07  2.00000402e-01  0.00000000e+00 
 1.01116000e-07 -8.20193421e-07  2.00000404e-01  0.00000000e+00 
 1.02140000e-07  8.01442997e-07  2.00000409e-01  0.00000000e+00 
 1.04188000e-07 -7.78241595e-07  2.00000417e-01  0.00000000e+00 
 1.08284000e-07  7.80594326e-07  2.00000433e-01  0.00000000e+00 
 1.16476000e-07 -7.67830297e-07  2.00000466e-01  0.00000000e+00 
 1.32860000e-07  7.75393426e-07  2.00000531e-01  0.00000000e+00 
 1.65628000e-07 -7.65230994e-07  2.00000663e-01  0.00000000e+00 
 2.31164000e-07  7.74094029e-07  2.00000925e-01  0.00000000e+00 
 3.62236000e-07 -7.64581377e-07  2.00001449e-01  0.00000000e+00 
 6.24380000e-07  7.73769225e-07  2.00002498e-01  0.00000000e+00 
 1.14866800e-06 -7.64419000e-07  2.00004595e-01  0.00000000e+00 
 2.19724400e-06  7.73688002e-07  2.00008789e-01  0.00000000e+00 
 4.19724400e-06 -7.64377787e-07  2.00016789e-01  0.00000000e+00 
 6.19724400e-06  7.73651447e-07  2.00024789e-01  0.00000000e+00 
 8.19724400e-06 -7.64349433e-07  2.00032789e-01  0.00000000e+00 
 1.01972440e-05  7.73623046e-07  2.00040789e-01  0.00000000e+00 
 1.21972440e-05 -7.64321064e-07  2.00048789e-01  0.00000000e+00 
 1.41972440e-05  7.73594656e-07  2.00056789e-01  0.00000000e+00 
 1.61972440e-05 -7.64292689e-07  2.00064789e-01  0.00000000e+00 
 1.81972440e-05  7.73566271e-07  2.00072789e-01  0.00000000e+00 
 2.01972440e-05 -7.64264310e-07  2.00080789e-01  0.00000000e+00 
 2.21972440e-05  7.73537887e-07  2.00088789e-01  0.00000000e+00 
 2.41972440e-05 -7.64235930e-07  2.00096789e-01  0.00000000e+00 
 2.61972440e-05  7.73509506e-07  2.00104789e-01  0.00000000e+00 
 2.81972440e-05 -7.64207550e-07  2.00112789e-01  0.00000000e+00 
 3.01972440e-05  7.73481124e-07  2.00120789e-01  0.00000000e+00 
 3.21972440e-05 -7.64179169e-07  2.00128789e-01  0.00000000e+00 
 3.41972440e-05  7.73452743e-07  2.00136789e-01  0.00000000e+00 
 3.61972440e-05 -7.64150789e-07  2.00144789e-01  0.00000000e+00 
 3.81972440e-05  7.73424363e-07  2.00152789e-01  0.00000000e+00 
 4.01972440e-05 -7.64122408e-07  2.00160789e-01  0.00000000e+00 
 4.21972440e-05  7.73395982e-07  2.00168789e-01  0.00000000e+00 
 4.41972440e-05 -7.64094028e-07  2.00176789e-01  0.00000000e+00 
 4.61972440e-05  7.73367602e-07  2.00184789e-01  0.00000000e+00 
 4.81972440e-05 -7.64065648e-07  2.00192789e-01  0.00000000e+00 
 5.01972440e-05  7.73339222e-07  2.00200789e-01  0.00000000e+00 
 5.21972440e-05 -7.64037268e-07  2.00208789e-01  0.00000000e+00 
 5.41972440e-05  7.73310842e-07  2.00216789e-01  0.00000000e+00 
 5.61972440e-05 -7.64008888e-07  2.00224789e-01  0.00000000e+00 
 5.81972440e-05  7.73282462e-07  2.00232789e-01  0.00000000e+00 
 6.01972440e-05 -7.63980508e-07  2.00240789e-01  0.00000000e+00 
 6.21972440e-05  7.73254082e-07  2.00248789e-01  0.00000000e+00 
 6.41972440e-05 -7.63952129e-07  2.00256789e-01  0.00000000e+00 
 6.61972440e-05  7.73225703e-07  2.00264789e-01  0.00000000e+00 
 6.81972440e-05 -7.63923749e-07  2.00272789e-01  0.00000000e+00 
 7.01972440e-05  7.73197323e-07  2.00280789e-01  0.00000000e+00 
 7.21972440e-05 -7.63895370e-07  2.00288789e-01  0.00000000e+00 
 7.41972440e-05  7.73168944e-07  2.00296789e-01  0.00000000e+00 
 7.61972440e-05 -7.63866991e-07  2.00304789e-01  0.00000000e+00 
 7.81972440e-05  7.73140565e-07  2.00312789e-01  0.00000000e+00 
 8.01972440e-05 -7.63838612e-07  2.00320789e-01  0.00000000e+00 
 8.21972440e-05  7.73112186e-07  2.00328789e-01  0.00000000e+00 
 8.41972440e-05 -7.63810233e-07  2.00336789e-01  0.00000000e+00 
 8.61972440e-05  7.73083807e-07  2.00344789e-01  0.00000000e+00 
 8.81972440e-05 -7.63781855e-07  2.00352789e-01  0.00000000e+00 
 9.01972440e-05  7.73055429e-07  2.00360789e-01  0.00000000e+00 
 9.21972440e-05 -7.63753476e-07  2.00368789e-01  0.00000000e+00 
 9.41972440e-05  7.73027050e-07  2.00376789e-01  0.00000000e+00 
 9.61972440e-05 -7.63725098e-07  2.00384789e-01  0.00000000e+00 
 9.81972440e-05  7.72998672e-07  2.00392789e-01  0.00000000e+00 
 1.00197244e-04 -7.63696720e-07  2.00400789e-01  0.00000000e+00 
 1.02197244e-04  7.72970294e-07  2.00408789e-01  0.00000000e+00 
 1.04197244e-04 -7.63668342e-07  2.00416789e-01  0.00000000e+00 
 1.06197244e-04  7.72941916e-07  2.00424789e-01  0.00000000e+00 
 1.08197244e-04 -7.63639964e-07  2.00432789e-01  0.00000000e+00 
 1.10197244e-04  7.72913538e-07  2.00440789e-01  0.00000000e+00 
 1.12197244e-04 -7.63611587e-07  2.00448789e-01  0.00000000e+00 
 1.14197244e-04  7.72885161e-07  2.00456789e-01  0.00000000e+00 
 1.16197244e-04 -7.63583209e-07  2.00464789e-01  0.00000000e+00 
 1.18197244e-04  7.72856783e-07  2.00472789e-01  0.00000000e+00 
 1.20197244e-04 -7.63554832e-07  2.00480789e-01  0.00000000e+00 
 1.22197244e-04  7.72828406e-07  2.00488789e-01  0.00000000e+00 
 1.24197244e-04 -7.63526455e-07  2.00496789e-01  0.00000000e+00 
 1.26197244e-04  7.72800029e-07  2.00504789e-01  0.00000000e+00 
 1.28197244e-04 -7.63498078e-07  2.00512789e-01  0.00000000e+00 
 1.30197244e-04  7.72771652e-07  2.00520789e-01  0.00000000e+00 
 1.32197244e-04 -7.63469701e-07  2.00528789e-01  0.00000000e+00 
 1.34197244e-04  7.72743275e-07  2.00536789e-01  0.00000000e+00 
 1.36197244e-04 -7.63441324e-07  2.00544789e-01  0.00000000e+00 
 1.38197244e-04  7.72714898e-07  2.00552789e-01  0.00000000e+00 
 1.40197244e-04 -7.63412948e-07  2.00560789e-01  0.00000000e+00 
 1.42197244e-04  7.72686522e-07  2.00568789e-01  0.00000000e+00 
 1.44197244e-04 -7.63384571e-07  2.00576789e-01  0.00000000e+00 
 1.46197244e-04  7.72658145e-07  2.00584789e-01  0.00000000e+00 
 1.48197244e-04 -7.63356195e-07  2.00592789e-01  0.00000000e+00 
 1.50197244e-04  7.72629769e-07  2.00600789e-01  0.00000000e+00 
 1.52197244e-04 -7.63327819e-07  2.00608789e-01  0.00000000e+00 
 1.54197244e-04  7.72601393e-07  2.00616789e-01  0.00000000e+00 
 1.56197244e-04 -7.63299443e-07  2.00624789e-01  0.00000000e+00 
 1.58197244e-04  7.72573017e-07  2.00632789e-01  0.00000000e+00 
 1.60197244e-04 -7.63271067e-07  2.00640789e-01  0.00000000e+00 
 1.62197244e-04  7.72544642e-07  2.00648789e-01  0.00000000e+00 
 1.64197244e-04 -7.63242692e-07  2.00656789e-01  0.00000000e+00 
 1.66197244e-04  7.72516266e-07  2.00664789e-01  0.00000000e+00 
 1.68197244e-04 -7.63214316e-07  2.00672789e-01  0.00000000e+00 
 1.70197244e-04  7.72487891e-07  2.00680789e-01  0.00000000e+00 
 1.72197244e-04 -7.63185941e-07  2.00688789e-01  0.00000000e+00 
 1.74197244e-04  7.72459515e-07  2.00696789e-01  0.00000000e+00 
 1.76197244e-04 -7.63157566e-07  2.00704789e-01  0.00000000e+00 
 1.78197244e-04  7.72431140e-07  2.00712789e-01  0.00000000e+00 
 1.80197244e-04 -7.63129191e-07  2.00720789e-01  0.00000000e+00 
 1.82197244e-04  7.72402765e-07  2.00728789e-01  0.00000000e+00 
 1.84197244e-04 -7.63100816e-07  2.00736789e-01  0.00000000e+00 
 1.86197244e-04  7.72374391e-07  2.00744789e-01  0.00000000e+00 
 1.88197244e-04 -7.63072442e-07  2.00752789e-01  0.00000000e+00 
 1.90197244e-04  7.72346016e-07  2.00760789e-01  0.00000000e+00 
 1.92197244e-04 -7.63044067e-07  2.00768789e-01  0.00000000e+00 
 1.94197244e-04  7.72317642e-07  2.00776789e-01  0.00000000e+00 
 1.96197244e-04 -7.63015693e-07  2.00784789e-01  0.00000000e+00 
 1.98197244e-04  7.72289267e-07  2.00792789e-01  0.00000000e+00 
 2.00000000e-04 -7.62985767e-07  2.00800000e-01  0.00000000e+00 
 2.00200000e-04  4.61248925e-09 -9.91992000e-02  3.00000000e-01 
 2.00600000e-04  4.68172462e-09 -9.91976000e-02  3.00000000e-01 
 2.01231990e-04  4.61249062e-09 -9.91950720e-02  3.00000000e-01 
 2.01899014e-04  4.68172303e-09 -9.91924039e-02  3.00000000e-01 
 2.03233060e-04  4.61249172e-09 -9.91870678e-02  3.00000000e-01 
 2.05233060e-04  4.68172211e-09 -9.91790678e-02  3.00000000e-01 
 2.07233060e-04  4.61249224e-09 -9.91710678e-02  3.00000000e-01 
 2.09233060e-04  4.68172130e-09 -9.91630678e-02  3.00000000e-01 
 2.11233060e-04  4.61249292e-09 -9.91550678e-02  3.00000000e-01 
 2.13233060e-04  4.68172048e-09 -9.91470678e-02  3.00000000e-01 
 2.15233060e-04  4.61249369e-09 -9.91390678e-02  3.00000000e-01 
 2.17233060e-04  4.68171961e-09 -9.91310678e-02  3.00000000e-01 
 2.19233060e-04  4.61249457e-09 -9.91230678e-02  3.00000000e-01 
 2.21233060e-04  4.68171873e-09 -9.91150678e-02  3.00000000e-01 
 2.23233060e-04  4.61249552e-09 -9.91070678e-02  3.00000000e-01 
 2.25233060e-04  4.68171774e-09 -9.90990678e-02  3.00000000e-01 
 2.27233060e-04  4.61249650e-09 -9.90910678e-02  3.00000000e-01 
 2.29233060e-04  4.68171671e-09 -9.90830678e-02  3.00000000e-01 
 2.31233060e-04  4.61249760e-09 -9.90750678e-02  3.00000000e-01 
 2.33233060e-04  4.68171558e-09 -9.90670678e-02  3.00000000e-01 
 2.35233060e-04  4.61249867e-09 -9.90590678e-02  3.00000000e-01 
 2.37233060e-04  4.68171442e-09 -9.90510678e-02  3.00000000e-01 
 2.39233060e-04  4.61249993e-09 -9.90430678e-02  3.00000000e-01 
 2.41233060e-04  4.68171317e-09 -9.90350678e-02  3.00000000e-01 
 2.43233060e-04  4.61250114e-09 -9.90270678e-02  3.00000000e-01 
 2.45233060e-04  4.68171188e-09 -9.90190678e-02  3.00000000e-01 
 2.47233060e-04  4.61250254e-09 -9.90110678e-02  3.00000000e-01 
 2.49233060e-04  4.68171054e-09 -9.90030678e-02  3.00000000e-01 
 2.51233060e-04  4.61250396e-09 -9.89950678e-02  3.00000000e-01 
 2.53233060e-04  4.68170903e-09 -9.89870678e-02  3.00000000e-01 
 2.55233060e-04  4.61250546e-09 -9.89790678e-02  3.00000000e-01 
 2.57233060e-04  4.68170755e-09 -9.89710678e-02  3.00000000e-01 
 2.59233060e-04  4.61250697e-09 -9.89630678e-02  3.00000000e-01 
 2.61233060e-04  4.68170595e-09 -9.89550678e-02  3.00000000e-01 
 2.63233060e-04  4.61250855e-09 -9.89470678e-02  3.00000000e-01 
 2.65233060e-04  4.68170433e-09 -9.89390678e-02  3.00000000e-01 
 2.67233060e-04  4.61251026e-09 -9.89310678e-02  3.00000000e-01 
 2.69233060e-04  4.68170260e-09 -9.89230678e-02  3.00000000e-01 
 2.71233060e-04  4.61251204e-09 -9.89150678e-02  3.00000000e-01 
 2.73233060e-04  4.68170081e-09 -9.89070678e-02  3.00000000e-01 
 2.75233060e-04  4.61251380e-09 -9.88990678e-02  3.00000000e-01 
 2.77233060e-04  4.68169899e-09 -9.88910678e-02  3.00000000e-01 
 2.79233060e-04  4.61251572e-09 -9.88830678e-02  3.00000000e-01 
 2.81233060e-04  4.68169707e-09 -9.88750678e-02  3.00000000e-01 
 2.83233060e-04  4.61251767e-09 -9.88670678e-02  3.00000000e-01 
 2.85233060e-04  4.68169502e-09 -9.88590678e-02  3.00000000e-01 
 2.87233060e-04  4.61251964e-09 -9.88510678e-02  3.00000000e-01 
 2.89233060e-04  4.68169302e-09 -9.88430678e-02  3.00000000e-01 
 2.91233060e-04  4.61252173e-09 -9.88350678e-02  3.00000000e-01 
 2.93233060e-04  4.68169090e-09 -9.88270678e-02  3.00000000e-01 
 2.95233060e-04  4.61252391e-09 -9.88190678e-02  3.00000000e-01 
 2.97233060e-04  4.68168868e-09 -9.88110678e-02  3.00000000e-01 
 2.99233060e-04  4.61252615e-09 -9.88030678e-02  3.00000000e-01 
 3.01233060e-04  4.68168640e-09 -9.87950678e-02  3.00000000e-01 
 3.03233060e-04  4.61252841e-09 -9.87870678e-02  3.00000000e-01 
 3.05233060e-04  4.68168411e-09 -9.87790678e-02  3.00000000e-01 
 3.07233060e-04  4.61253079e-09 -9.87710678e-02  3.00000000e-01 
 3.09233060e-04  4.68168174e-09 -9.87630678e-02  3.00000000e-01 
 3.11233060e-04  4.61253326e-09 -9.87550678e-02  3.00000000e-01 
 3.13233060e-04  4.68167924e-09 -9.87470678e-02  3.00000000e-01 
 3.15233060e-04  4.61253573e-09 -9.87390678e-02  3.00000000e-01 
 3.17233060e-04  4.68167673e-09 -9.87310678e-02  3.00000000e-01 
 3.19233060e-04  4.61253822e-09 -9.87230678e-02  3.00000000e-01 
 3.21233060e-04  4.68167416e-09 -9.87150678e-02  3.00000000e-01 
 3.23233060e-04  4.61254090e-09 -9.87070678e-02  3.00000000e-01 
 3.25233060e-04  4.68167149e-09 -9.86990678e-02  3.00000000e-01 
 3.27233060e-04  4.61254354e-09 -9.86910678e-02  3.00000000e-01 
 3.29233060e-04  4.68166876e-09 -9.86830678e-02  3.00000000e-01 
 3.31233060e-04  4.61254631e-09 -9.86750678e-02  3.00000000e-01 
 3.33233060e-04  4.68166601e-09 -9.86670678e-02  3.00000000e-01 
 3.35233060e-04  4.61254910e-09 -9.86590678e-02  3.00000000e-01 
 3.37233060e-04  4.68166313e-09 -9.86510678e-02  3.00000000e-01 
 3.39233060e-04  4.61255207e-09 -9.86430678e-02  3.00000000e-01 
 3.41233060e-04  4.68166023e-09 -9.86350678e-02  3.00000000e-01 
 3.43233060e-04  4.61255501e-09 -9.86270678e-02  3.00000000e-01 
 3.45233060e-04  4.68165721e-09 -9.86190678e-02  3.00000000e-01 
 3.47233060e-04  4.61255800e-09 -9.86110678e-02  3.00000000e-01 
 3.49233060e-04  4.68165418e-09 -9.86030678e-02  3.00000000e-01 
 3.51233060e-04  4.61256108e-09 -9.85950678e-02  3.00000000e-01 
 3.53233060e-04  4.68165106e-09 -9.85870678e-02  3.00000000e-01 
 3.55233060e-04  4.61256428e-09 -9.85790678e-02  3.00000000e-01 
 3.57233060e-04  4.68164787e-09 -9.85710678e-02  3.00000000e-01 
 3.59233060e-04  4.61256750e-09 -9.85630678e-02  3.00000000e-01 
 3.61233060e-04  4.68164456e-09 -9.85550678e-02  3.00000000e-01 
 3.63233060e-04  4.61257080e-09 -9.85470678e-02  3.00000000e-01 
 3.65233060e-04  4.68164123e-09 -9.85390678e-02  3.00000000e-01 
 3.67233060e-04  4.61257417e-09 -9.85310678e-02  3.00000000e-01 
 3.69233060e-04  4.68163788e-09 -9.85230678e-02  3.00000000e-01 
 3.71233060e-04  4.61257755e-09 -9.85150678e-02  3.00000000e-01 
 3.73233060e-04  4.68163446e-09 -9.85070678e-02  3.00000000e-01 
 3.75233060e-04  4.61258101e-09 -9.84990678e-02  3.00000000e-01 
 3.77233060e-04  4.68163092e-09 -9.84910678e-02  3.00000000e-01 
 3.79233060e-04  4.61258459e-09 -9.84830678e-02  3.00000000e-01 
 3.81233060e-04  4.68162729e-09 -9.84750678e-02  3.00000000e-01 
 3.83233060e-04  4.61258825e-09 -9.84670678e-02  3.00000000e-01 
 3.85233060e-04  4.68162365e-09 -9.84590678e-02  3.00000000e-01 
 3.87233060e-04  4.61259192e-09 -9.84510678e-02  3.00000000e-01 
 3.89233060e-04  4.68161995e-09 -9.84430678e-02  3.00000000e-01 
 3.91233060e-04  4.61259572e-09 -9.84350678e-02  3.00000000e-01 
 3.93233060e-04  4.68161617e-09 -9.84270678e-02  3.00000000e-01 
 3.95233060e-04  4.61259954e-09 -9.84190678e-02  3.00000000e-01 
 3.97233060e-04  4.68161230e-09 -9.84110678e-02  3.00000000e-01 
 3.99233060e-04  4.61260338e-09 -9.84030678e-02  3.00000000e-01 
 4.01233060e-04  4.68160832e-09 -9.83950678e-02  3.00000000e-01 
 4.03233060e-04  4.61260735e-09 -9.83870678e-02  3.00000000e-01 
 4.05233060e-04  4.68160438e-09 -9.83790678e-02  3.00000000e-01 
 4.07233060e-04  4.61261143e-09 -9.83710678e-02  3.00000000e-01 
 4.09233060e-04  4.68160031e-09 -9.83630678e-02  3.00000000e-01 
 4.11233060e-04  4.61261549e-09 -9.83550678e-02  3.00000000e-01 
 4.13233060e-04  4.68159617e-09 -9.83470678e-02  3.00000000e-01 
 4.15233060e-04  4.61261960e-09 -9.83390678e-02  3.00000000e-01 
 4.17233060e-04  4.68159201e-09 -9.83310678e-02  3.00000000e-01 
 4.19233060e-04  4.61262385e-09 -9.83230678e-02  3.00000000e-01 
 4.21233060e-04  4.68158772e-09 -9.83150678e-02  3.00000000e-01 
 4.23233060e-04  4.61262818e-09 -9.83070678e-02  3.00000000e-01 
 4.25233060e-04  4.68158341e-09 -9.82990678e-02  3.00000000e-01 
 4.27233060e-04  4.61263253e-09 -9.82910678e-02  3.00000000e-01 
 4.29233060e-04  4.68157904e-09 -9.82830678e-02  3.00000000e-01 
 4.31233060e-04  4.61263692e-09 -9.82750678e-02  3.00000000e-01 
 4.33233060e-04  4.68157454e-09 -9.82670678e-02  3.00000000e-01 
 4.35233060e-04  4.61264142e-09 -9.82590678e-02  3.00000000e-01 
 4.37233060e-04  4.68157002e-09 -9.82510678e-02  3.00000000e-01 
 4.39233060e-04  4.61264597e-09 -9.82430678e-02  3.00000000e-01 
 4.41233060e-04  4.68156542e-09 -9.82350678e-02  3.00000000e-01 
 4.43233060e-04  4.61265061e-09 -9.82270678e-02  3.00000000e-01 
 4.45233060e-04  4.68156081e-09 -9.82190678e-02  3.00000000e-01 
 4.47233060e-04  4.61265530e-09 -9.82110678e-02  3.00000000e-01 
 4.49233060e-04  4.68155608e-09 -9.82030678e-02  3.00000000e-01 
 4.51233060e-04  4.61266008e-09 -9.81950678e-02  3.00000000e-01 
 4.53233060e-04  4.68155133e-09 -9.81870678e-02  3.00000000e-01 
 4.55233060e-04  4.61266485e-09 -9.81790678e-02  3.00000000e-01 
 4.57233060e-04  4.68154645e-09 -9.81710678e-02  3.00000000e-01 
 4.59233060e-04  4.61266977e-09 -9.81630678e-02  3.00000000e-01 
 4.61233060e-04  4.68154150e-09 -9.81550678e-02  3.00000000e-01 
 4.63233060e-04  4.61267470e-09 -9.81470678e-02  3.00000000e-01 
 4.65233060e-04  4.68153653e-09 -9.81390678e-02  3.00000000e-01 
 4.67233060e-04  4.61267971e-09 -9.81310678e-02  3.00000000e-01 
 4.69233060e-04  4.68153149e-09 -9.81230678e-02  3.00000000e-01 
 4.71233060e-04  4.61268479e-09 -9.81150678e-02  3.00000000e-01 
 4.73233060e-04  4.68152637e-09 -9.81070678e-02  3.00000000e-01 
 4.75233060e-04  4.61268994e-09 -9.80990678e-02  3.00000000e-01 
 4.77233060e-04  4.68152119e-09 -9.80910678e-02  3.00000000e-01 
 4.79233060e-04  4.61269515e-09 -9.80830678e-02  3.00000000e-01 
 4.81233060e-04  4.68151595e-09 -9.80750678e-02  3.00000000e-01 
 4.83233060e-04  4.61270044e-09 -9.80670678e-02  3.00000000e-01 
 4.85233060e-04  4.68151062e-09 -9.80590678e-02  3.00000000e-01 
 4.87233060e-04  4.61270581e-09 -9.80510678e-02  3.00000000e-01 
 4.89233060e-04  4.68150522e-09 -9.80430678e-02  3.00000000e-01 
 4.91233060e-04  4.61271124e-09 -9.80350678e-02  3.00000000e-01 
 4.93233060e-04  4.68149974e-09 -9.80270678e-02  3.00000000e-01 
 4.95233060e-04  4.61271670e-09 -9.80190678e-02  3.00000000e-01 
 4.97233060e-04  4.68149426e-09 -9.80110678e-02  3.00000000e-01 
 4.99233060e-04  4.61272220e-09 -9.80030678e-02  3.00000000e-01 
 5.00100100e-04  4.68148499e-09 -9.79995996e-02  3.00000000e-01 
 5.00100110e-04 -3.62897657e-06 -9.79995996e-02  3.00000000e-01 
 5.00100130e-04 -3.02209511e-07 -9.79995995e-02  3.00000000e-01 
 5.00100170e-04 -3.08455592e-06 -9.79995993e-02  3.00000000e-01 
 5.00100200e-04  1.00376906e-05 -9.79995992e-02  3.00000000e-01 
 5.00100208e-04  2.13016099e-05 -9.79995992e-02  3.00000000e-01 
 5.00100224e-04 -2.35842378e-06 -9.79995991e-02  3.00000000e-01 
 5.00100256e-04 -1.51475127e-05 -9.79995990e-02  3.00000000e-01 
 5.00100320e-04  1.45126721e-05 -9.79995987e-02  3.00000000e-01 
 5.00100448e-04 -1.40990110e-05 -9.79995982e-02  3.00000000e-01 
 5.00100704e-04  1.39381779e-05 -9.79995972e-02  3.00000000e-01 
 5.00101216e-04 -1.38448376e-05 -9.79995951e-02  3.00000000e-01 
 5.00102240e-04  1.38118196e-05 -9.79995910e-02  3.00000000e-01 
 5.00104288e-04 -1.37810053e-05 -9.79995828e-02  3.00000000e-01 
 5.00108384e-04  1.37796671e-05 -9.79995665e-02  3.00000000e-01 
 5.00116576e-04 -1.37648693e-05 -9.79995337e-02  3.00000000e-01 
 5.00132960e-04  1.37715811e-05 -9.79994682e-02  3.00000000e-01 
 5.00165728e-04 -1.37608224e-05 -9.79993371e-02  3.00000000e-01 
 5.00231264e-04  1.37715501e-05 -9.79990749e-02  3.00000000e-01 
 5.00362336e-04 -1.37598031e-05 -9.79985507e-02  3.00000000e-01 
 5.00624480e-04  1.37708671e-05 -9.79975021e-02  3.00000000e-01 
 5.01148768e-04 -1.37595483e-05 -9.79954049e-02  3.00000000e-01 
 5.02197344e-04  1.37706975e-05 -9.79912106e-02  3.00000000e-01 
