 time            v(Q)            v(A)-v(B)       v(B)           
 0.00000000e+00  4.64710585e-09  1.40000000e+00  0.00000000e+00 
 1.00000000e-09  4.64715225e-09  1.40000000e+00  0.00000000e+00 
 2.00000000e-09  4.64715248e-09  1.40000001e+00  0.00000000e+00 
 4.00000000e-09  4.64715251e-09  1.40000002e+00  0.00000000e+00 
 8.00000000e-09  4.64715243e-09  1.40000003e+00  0.00000000e+00 
 1.60000000e-08  4.64715236e-09  1.40000006e+00  0.00000000e+00 
 3.20000000e-08  4.64715222e-09  1.40000013e+00  0.00000000e+00 
 6.40000000e-08  4.64715196e-09  1.40000026e+00  0.00000000e+00 
 1.00000000e-07  4.64715158e-09  1.40000040e+00  0.00000000e+00 
 1.00010000e-07  1.64565473e-05  1.40000040e+00  0.00000000e+00 
 1.00030000e-07 -5.56158140e-06  1.40000040e+00  0.00000000e+00 
 1.00070000e-07 -4.02867562e-05  1.40000040e+00  0.00000000e+00 
 1.00100000e-07 -1.32957238e-04  1.40000040e+00  0.00000000e+00 
 1.00108000e-07 -2.27440029e-04  1.40000040e+00  0.00000000e+00 
 1.00124000e-07 -2.47409356e-04  1.40000040e+00  0.00000000e+00 
 1.00156000e-07  6.26171729e-03  1.40000040e+00  0.00000000e+00 
 1.00211178e-07 -4.10146330e-01  1.40000040e+00  0.00000000e+00 
 1.00270980e-07  4.21185062e-01  1.40000040e+00  0.00000000e+00 
 1.00347296e-07  1.53751602e+00  1.40000040e+00  0.00000000e+00 
 1.00474636e-07  1.73412873e+00  1.40000040e+00  0.00000000e+00 
 1.00597244e-07  1.69228485e+00  1.40000040e+00  0.00000000e+00 
 1.00828798e-07  1.70106487e+00  1.40000040e+00  0.00000000e+00 
 1.01171369e-07  1.70174568e+00  1.40000040e+00  0.00000000e+00 
 1.01721554e-07  1.69731183e+00  1.40000041e+00  0.00000000e+00 
 1.02674021e-07  1.70356137e+00  1.40000041e+00  0.00000000e+00 
 1.04286229e-07  1.69645904e+00  1.40000042e+00  0.00000000e+00 
 1.07510644e-07  1.70402190e+00  1.40000043e+00  0.00000000e+00 
 1.13872619e-07  1.69625339e+00  1.40000046e+00  0.00000000e+00 
 1.25702937e-07  1.70412801e+00  1.40000050e+00  0.00000000e+00 
 1.49363573e-07  1.69619976e+00  1.40000060e+00  0.00000000e+00 
 1.96684845e-07  1.70416134e+00  1.40000079e+00  0.00000000e+00 
 2.91327388e-07  1.69618651e+00  1.40000117e+00  0.00000000e+00 
 4.80612475e-07  1.70416845e+00  1.40000192e+00  0.00000000e+00 
 8.59182649e-07  1.69618320e+00  1.40000344e+00  0.00000000e+00 
 1.61632300e-06  1.70417022e+00  1.40000647e+00  0.00000000e+00 
 3.13060369e-06  1.69618238e+00  1.40001252e+00  0.00000000e+00 
 5.13060369e-06  1.70415051e+00  1.40002052e+00  0.00000000e+00 
 7.13060369e-06  1.69618169e+00  1.40002852e+00  0.00000000e+00 
 9.13060369e-06  1.70414580e+00  1.40003652e+00  0.00000000e+00 
 1.11306037e-05  1.69618127e+00  1.40004452e+00  0.00000000e+00 
 1.31306037e-05  1.70414623e+00  1.40005252e+00  0.00000000e+00 
 1.51306037e-05  1.69618086e+00  1.40006052e+00  0.00000000e+00 
 1.71306037e-05  1.70414667e+00  1.40006852e+00  0.00000000e+00 
 1.91306037e-05  1.69618044e+00  1.40007652e+00  0.00000000e+00 
 2.11306037e-05  1.70414710e+00  1.40008452e+00  0.00000000e+00 
 2.31306037e-05  1.69618002e+00  1.40009252e+00  0.00000000e+00 
 2.51306037e-05  1.70414753e+00  1.40010052e+00  0.00000000e+00 
 2.71306037e-05  1.69617960e+00  1.40010852e+00  0.00000000e+00 
 2.91306037e-05  1.70414797e+00  1.40011652e+00  0.00000000e+00 
 3.11306037e-05  1.69617918e+00  1.40012452e+00  0.00000000e+00 
 3.31306037e-05  1.70414840e+00  1.40013252e+00  0.00000000e+00 
 3.51306037e-05  1.69617876e+00  1.40014052e+00  0.00000000e+00 
 3.71306037e-05  1.70414883e+00  1.40014852e+00  0.00000000e+00 
 3.91306037e-05  1.69617835e+00  1.40015652e+00  0.00000000e+00 
 4.11306037e-05  1.70414926e+00  1.40016452e+00  0.00000000e+00 
 4.31306037e-05  1.69617793e+00  1.40017252e+00  0.00000000e+00 
 4.51306037e-05  1.70414970e+00  1.40018052e+00  0.00000000e+00 
 4.71306037e-05  1.69617751e+00  1.40018852e+00  0.00000000e+00 
 4.91306037e-05  1.70415013e+00  1.40019652e+00  0.00000000e+00 
 5.11306037e-05  1.69617709e+00  1.40020452e+00  0.00000000e+00 
 5.31306037e-05  1.70415056e+00  1.40021252e+00  0.00000000e+00 
 5.51306037e-05  1.69617667e+00  1.40022052e+00  0.00000000e+00 
 5.71306037e-05  1.70415099e+00  1.40022852e+00  0.00000000e+00 
 5.91306037e-05  1.69617626e+00  1.40023652e+00  0.00000000e+00 
 6.11306037e-05  1.70415143e+00  1.40024452e+00  0.00000000e+00 
 6.31306037e-05  1.69617584e+00  1.40025252e+00  0.00000000e+00 
 6.51306037e-05  1.70415186e+00  1.40026052e+00  0.00000000e+00 
 6.71306037e-05  1.69617542e+00  1.40026852e+00  0.00000000e+00 
 6.91306037e-05  1.70415229e+00  1.40027652e+00  0.00000000e+00 
 7.11306037e-05  1.69617500e+00  1.40028452e+00  0.00000000e+00 
 7.31306037e-05  1.70415272e+00  1.40029252e+00  0.00000000e+00 
 7.51306037e-05  1.69617459e+00  1.40030052e+00  0.00000000e+00 
 7.71306037e-05  1.70415316e+00  1.40030852e+00  0.00000000e+00 
 7.91306037e-05  1.69617417e+00  1.40031652e+00  0.00000000e+00 
 8.11306037e-05  1.70415359e+00  1.40032452e+00  0.00000000e+00 
 8.31306037e-05  1.69617375e+00  1.40033252e+00  0.00000000e+00 
 8.51306037e-05  1.70415402e+00  1.40034052e+00  0.00000000e+00 
 8.71306037e-05  1.69617333e+00  1.40034852e+00  0.00000000e+00 
 8.91306037e-05  1.70415445e+00  1.40035652e+00  0.00000000e+00 
 9.11306037e-05  1.69617292e+00  1.40036452e+00  0.00000000e+00 
 9.31306037e-05  1.70415488e+00  1.40037252e+00  0.00000000e+00 
 9.51306037e-05  1.69617250e+00  1.40038052e+00  0.00000000e+00 
 9.71306037e-05  1.70415532e+00  1.40038852e+00  0.00000000e+00 
 9.91306037e-05  1.69617208e+00  1.40039652e+00  0.00000000e+00 
 1.01130604e-04  1.70415575e+00  1.40040452e+00  0.00000000e+00 
 1.03130604e-04  1.69617167e+00  1.40041252e+00  0.00000000e+00 
 1.05130604e-04  1.70415618e+00  1.40042052e+00  0.00000000e+00 
 1.07130604e-04  1.69617125e+00  1.40042852e+00  0.00000000e+00 
 1.09130604e-04  1.70415661e+00  1.40043652e+00  0.00000000e+00 
 1.11130604e-04  1.69617083e+00  1.40044452e+00  0.00000000e+00 
 1.13130604e-04  1.70415704e+00  1.40045252e+00  0.00000000e+00 
 1.15130604e-04  1.69617042e+00  1.40046052e+00  0.00000000e+00 
 1.17130604e-04  1.70415747e+00  1.40046852e+00  0.00000000e+00 
 1.19130604e-04  1.69617000e+00  1.40047652e+00  0.00000000e+00 
 1.21130604e-04  1.70415791e+00  1.40048452e+00  0.00000000e+00 
 1.23130604e-04  1.69616958e+00  1.40049252e+00  0.00000000e+00 
 1.25130604e-04  1.70415834e+00  1.40050052e+00  0.00000000e+00 
 1.27130604e-04  1.69616917e+00  1.40050852e+00  0.00000000e+00 
 1.29130604e-04  1.70415877e+00  1.40051652e+00  0.00000000e+00 
 1.31130604e-04  1.69616875e+00  1.40052452e+00  0.00000000e+00 
 1.33130604e-04  1.70415920e+00  1.40053252e+00  0.00000000e+00 
 1.35130604e-04  1.69616833e+00  1.40054052e+00  0.00000000e+00 
 1.37130604e-04  1.70415963e+00  1.40054852e+00  0.00000000e+00 
 1.39130604e-04  1.69616792e+00  1.40055652e+00  0.00000000e+00 
 1.41130604e-04  1.70416006e+00  1.40056452e+00  0.00000000e+00 
 1.43130604e-04  1.69616750e+00  1.40057252e+00  0.00000000e+00 
 1.45130604e-04  1.70416049e+00  1.40058052e+00  0.00000000e+00 
 1.47130604e-04  1.69616708e+00  1.40058852e+00  0.00000000e+00 
 1.49130604e-04  1.70416092e+00  1.40059652e+00  0.00000000e+00 
 1.51130604e-04  1.69616667e+00  1.40060452e+00  0.00000000e+00 
 1.53130604e-04  1.70416136e+00  1.40061252e+00  0.00000000e+00 
 1.55130604e-04  1.69616625e+00  1.40062052e+00  0.00000000e+00 
 1.57130604e-04  1.70416179e+00  1.40062852e+00  0.00000000e+00 
 1.59130604e-04  1.69616584e+00  1.40063652e+00  0.00000000e+00 
 1.61130604e-04  1.70416222e+00  1.40064452e+00  0.00000000e+00 
 1.63130604e-04  1.69616542e+00  1.40065252e+00  0.00000000e+00 
 1.65130604e-04  1.70416265e+00  1.40066052e+00  0.00000000e+00 
 1.67130604e-04  1.69616500e+00  1.40066852e+00  0.00000000e+00 
 1.69130604e-04  1.70416308e+00  1.40067652e+00  0.00000000e+00 
 1.71130604e-04  1.69616459e+00  1.40068452e+00  0.00000000e+00 
 1.73130604e-04  1.70416351e+00  1.40069252e+00  0.00000000e+00 
 1.75130604e-04  1.69616417e+00  1.40070052e+00  0.00000000e+00 
 1.77130604e-04  1.70416394e+00  1.40070852e+00  0.00000000e+00 
 1.79130604e-04  1.69616376e+00  1.40071652e+00  0.00000000e+00 
 1.81130604e-04  1.70416437e+00  1.40072452e+00  0.00000000e+00 
 1.83130604e-04  1.69616334e+00  1.40073252e+00  0.00000000e+00 
 1.85130604e-04  1.70416480e+00  1.40074052e+00  0.00000000e+00 
 1.87130604e-04  1.69616292e+00  1.40074852e+00  0.00000000e+00 
 1.89130604e-04  1.70416523e+00  1.40075652e+00  0.00000000e+00 
 1.91130604e-04  1.69616251e+00  1.40076452e+00  0.00000000e+00 
 1.93130604e-04  1.70416566e+00  1.40077252e+00  0.00000000e+00 
 1.95130604e-04  1.69616209e+00  1.40078052e+00  0.00000000e+00 
 1.97130604e-04  1.70416609e+00  1.40078852e+00  0.00000000e+00 
 1.99130604e-04  1.69616168e+00  1.40079652e+00  0.00000000e+00 
 2.00000000e-04  1.70416227e+00  1.40080000e+00  0.00000000e+00 
 2.00082570e-04  1.69999847e+00 -9.91996697e-02  1.50000000e+00 
 2.00247709e-04  1.70000148e+00 -9.91990092e-02  1.50000000e+00 
 2.00399237e-04  1.69999847e+00 -9.91984031e-02  1.50000000e+00 
 2.00572697e-04  1.70000147e+00 -9.91977092e-02  1.50000000e+00 
 2.00919616e-04  1.69999847e+00 -9.91963215e-02  1.50000000e+00 
 2.01613456e-04  1.70000147e+00 -9.91935462e-02  1.50000000e+00 
 2.03001135e-04  1.69999847e+00 -9.91879955e-02  1.50000000e+00 
 2.05001135e-04  1.70000147e+00 -9.91799955e-02  1.50000000e+00 
 2.07001135e-04  1.69999848e+00 -9.91719955e-02  1.50000000e+00 
 2.09001135e-04  1.70000147e+00 -9.91639955e-02  1.50000000e+00 
 2.11001135e-04  1.69999848e+00 -9.91559955e-02  1.50000000e+00 
 2.13001135e-04  1.70000147e+00 -9.91479955e-02  1.50000000e+00 
 2.15001135e-04  1.69999848e+00 -9.91399955e-02  1.50000000e+00 
 2.17001135e-04  1.70000147e+00 -9.91319955e-02  1.50000000e+00 
 2.19001135e-04  1.69999848e+00 -9.91239955e-02  1.50000000e+00 
 2.21001135e-04  1.70000147e+00 -9.91159955e-02  1.50000000e+00 
 2.23001135e-04  1.69999848e+00 -9.91079955e-02  1.50000000e+00 
 2.25001135e-04  1.70000147e+00 -9.90999955e-02  1.50000000e+00 
 2.27001135e-04  1.69999848e+00 -9.90919955e-02  1.50000000e+00 
 2.29001135e-04  1.70000147e+00 -9.90839955e-02  1.50000000e+00 
 2.31001135e-04  1.69999848e+00 -9.90759955e-02  1.50000000e+00 
 2.33001135e-04  1.70000147e+00 -9.90679955e-02  1.50000000e+00 
 2.35001135e-04  1.69999848e+00 -9.90599955e-02  1.50000000e+00 
 2.37001135e-04  1.70000147e+00 -9.90519955e-02  1.50000000e+00 
 2.39001135e-04  1.69999848e+00 -9.90439955e-02  1.50000000e+00 
 2.41001135e-04  1.70000147e+00 -9.90359955e-02  1.50000000e+00 
 2.43001135e-04  1.69999848e+00 -9.90279955e-02  1.50000000e+00 
 2.45001135e-04  1.70000147e+00 -9.90199955e-02  1.50000000e+00 
 2.47001135e-04  1.69999848e+00 -9.90119955e-02  1.50000000e+00 
 2.49001135e-04  1.70000147e+00 -9.90039955e-02  1.50000000e+00 
 2.51001135e-04  1.69999848e+00 -9.89959955e-02  1.50000000e+00 
 2.53001135e-04  1.70000147e+00 -9.89879955e-02  1.50000000e+00 
 2.55001135e-04  1.69999848e+00 -9.89799955e-02  1.50000000e+00 
 2.57001135e-04  1.70000147e+00 -9.89719955e-02  1.50000000e+00 
 2.59001135e-04  1.69999848e+00 -9.89639955e-02  1.50000000e+00 
 2.61001135e-04  1.70000147e+00 -9.89559955e-02  1.50000000e+00 
 2.63001135e-04  1.69999848e+00 -9.89479955e-02  1.50000000e+00 
 2.65001135e-04  1.70000147e+00 -9.89399955e-02  1.50000000e+00 
 2.67001135e-04  1.69999848e+00 -9.89319955e-02  1.50000000e+00 
 2.69001135e-04  1.70000147e+00 -9.89239955e-02  1.50000000e+00 
 2.71001135e-04  1.69999848e+00 -9.89159955e-02  1.50000000e+00 
 2.73001135e-04  1.70000147e+00 -9.89079955e-02  1.50000000e+00 
 2.75001135e-04  1.69999848e+00 -9.88999955e-02  1.50000000e+00 
 2.77001135e-04  1.70000147e+00 -9.88919955e-02  1.50000000e+00 
 2.79001135e-04  1.69999848e+00 -9.88839955e-02  1.50000000e+00 
 2.81001135e-04  1.70000147e+00 -9.88759955e-02  1.50000000e+00 
 2.83001135e-04  1.69999848e+00 -9.88679955e-02  1.50000000e+00 
 2.85001135e-04  1.70000147e+00 -9.88599955e-02  1.50000000e+00 
 2.87001135e-04  1.69999848e+00 -9.88519955e-02  1.50000000e+00 
 2.89001135e-04  1.70000147e+00 -9.88439955e-02  1.50000000e+00 
 2.91001135e-04  1.69999848e+00 -9.88359955e-02  1.50000000e+00 
 2.93001135e-04  1.70000147e+00 -9.88279955e-02  1.50000000e+00 
 2.95001135e-04  1.69999848e+00 -9.88199955e-02  1.50000000e+00 
 2.97001135e-04  1.70000147e+00 -9.88119955e-02  1.50000000e+00 
 2.99001135e-04  1.69999848e+00 -9.88039955e-02  1.50000000e+00 
 3.01001135e-04  1.70000147e+00 -9.87959955e-02  1.50000000e+00 
 3.03001135e-04  1.69999848e+00 -9.87879955e-02  1.50000000e+00 
 3.05001135e-04  1.70000147e+00 -9.87799955e-02  1.50000000e+00 
 3.07001135e-04  1.69999848e+00 -9.87719955e-02  1.50000000e+00 
 3.09001135e-04  1.70000147e+00 -9.87639955e-02  1.50000000e+00 
 3.11001135e-04  1.69999848e+00 -9.87559955e-02  1.50000000e+00 
 3.13001135e-04  1.70000147e+00 -9.87479955e-02  1.50000000e+00 
 3.15001135e-04  1.69999848e+00 -9.87399955e-02  1.50000000e+00 
 3.17001135e-04  1.70000147e+00 -9.87319955e-02  1.50000000e+00 
 3.19001135e-04  1.69999848e+00 -9.87239955e-02  1.50000000e+00 
 3.21001135e-04  1.70000147e+00 -9.87159955e-02  1.50000000e+00 
 3.23001135e-04  1.69999848e+00 -9.87079955e-02  1.50000000e+00 
 3.25001135e-04  1.70000147e+00 -9.86999955e-02  1.50000000e+00 
 3.27001135e-04  1.69999848e+00 -9.86919955e-02  1.50000000e+00 
 3.29001135e-04  1.70000147e+00 -9.86839955e-02  1.50000000e+00 
 3.31001135e-04  1.69999848e+00 -9.86759955e-02  1.50000000e+00 
 3.33001135e-04  1.70000147e+00 -9.86679955e-02  1.50000000e+00 
 3.35001135e-04  1.69999848e+00 -9.86599955e-02  1.50000000e+00 
 3.37001135e-04  1.70000147e+00 -9.86519955e-02  1.50000000e+00 
 3.39001135e-04  1.69999848e+00 -9.86439955e-02  1.50000000e+00 
 3.41001135e-04  1.70000146e+00 -9.86359955e-02  1.50000000e+00 
 3.43001135e-04  1.69999848e+00 -9.86279955e-02  1.50000000e+00 
 3.45001135e-04  1.70000146e+00 -9.86199955e-02  1.50000000e+00 
 3.47001135e-04  1.69999848e+00 -9.86119955e-02  1.50000000e+00 
 3.49001135e-04  1.70000146e+00 -9.86039955e-02  1.50000000e+00 
 3.51001135e-04  1.69999848e+00 -9.85959955e-02  1.50000000e+00 
 3.53001135e-04  1.70000146e+00 -9.85879955e-02  1.50000000e+00 
 3.55001135e-04  1.69999848e+00 -9.85799955e-02  1.50000000e+00 
 3.57001135e-04  1.70000146e+00 -9.85719955e-02  1.50000000e+00 
 3.59001135e-04  1.69999848e+00 -9.85639955e-02  1.50000000e+00 
 3.61001135e-04  1.70000146e+00 -9.85559955e-02  1.50000000e+00 
 3.63001135e-04  1.69999848e+00 -9.85479955e-02  1.50000000e+00 
 3.65001135e-04  1.70000146e+00 -9.85399955e-02  1.50000000e+00 
 3.67001135e-04  1.69999848e+00 -9.85319955e-02  1.50000000e+00 
 3.69001135e-04  1.70000146e+00 -9.85239955e-02  1.50000000e+00 
 3.71001135e-04  1.69999848e+00 -9.85159955e-02  1.50000000e+00 
 3.73001135e-04  1.70000146e+00 -9.85079955e-02  1.50000000e+00 
 3.75001135e-04  1.69999848e+00 -9.84999955e-02  1.50000000e+00 
 3.77001135e-04  1.70000146e+00 -9.84919955e-02  1.50000000e+00 
 3.79001135e-04  1.69999848e+00 -9.84839955e-02  1.50000000e+00 
 3.81001135e-04  1.70000146e+00 -9.84759955e-02  1.50000000e+00 
 3.83001135e-04  1.69999848e+00 -9.84679955e-02  1.50000000e+00 
 3.85001135e-04  1.70000146e+00 -9.84599955e-02  1.50000000e+00 
 3.87001135e-04  1.69999848e+00 -9.84519955e-02  1.50000000e+00 
 3.89001135e-04  1.70000146e+00 -9.84439955e-02  1.50000000e+00 
 3.91001135e-04  1.69999848e+00 -9.84359955e-02  1.50000000e+00 
 3.93001135e-04  1.70000146e+00 -9.84279955e-02  1.50000000e+00 
 3.95001135e-04  1.69999848e+00 -9.84199955e-02  1.50000000e+00 
 3.97001135e-04  1.70000146e+00 -9.84119955e-02  1.50000000e+00 
 3.99001135e-04  1.69999848e+00 -9.84039955e-02  1.50000000e+00 
 4.01001135e-04  1.70000146e+00 -9.83959955e-02  1.50000000e+00 
 4.03001135e-04  1.69999848e+00 -9.83879955e-02  1.50000000e+00 
 4.05001135e-04  1.70000146e+00 -9.83799955e-02  1.50000000e+00 
 4.07001135e-04  1.69999848e+00 -9.83719955e-02  1.50000000e+00 
 4.09001135e-04  1.70000146e+00 -9.83639955e-02  1.50000000e+00 
 4.11001135e-04  1.69999848e+00 -9.83559955e-02  1.50000000e+00 
 4.13001135e-04  1.70000146e+00 -9.83479955e-02  1.50000000e+00 
 4.15001135e-04  1.69999848e+00 -9.83399955e-02  1.50000000e+00 
 4.17001135e-04  1.70000146e+00 -9.83319955e-02  1.50000000e+00 
 4.19001135e-04  1.69999848e+00 -9.83239955e-02  1.50000000e+00 
 4.21001135e-04  1.70000146e+00 -9.83159955e-02  1.50000000e+00 
 4.23001135e-04  1.69999849e+00 -9.83079955e-02  1.50000000e+00 
 4.25001135e-04  1.70000146e+00 -9.82999955e-02  1.50000000e+00 
 4.27001135e-04  1.69999849e+00 -9.82919955e-02  1.50000000e+00 
 4.29001135e-04  1.70000146e+00 -9.82839955e-02  1.50000000e+00 
 4.31001135e-04  1.69999849e+00 -9.82759955e-02  1.50000000e+00 
 4.33001135e-04  1.70000146e+00 -9.82679955e-02  1.50000000e+00 
 4.35001135e-04  1.69999849e+00 -9.82599955e-02  1.50000000e+00 
 4.37001135e-04  1.70000146e+00 -9.82519955e-02  1.50000000e+00 
 4.39001135e-04  1.69999849e+00 -9.82439955e-02  1.50000000e+00 
 4.41001135e-04  1.70000146e+00 -9.82359955e-02  1.50000000e+00 
 4.43001135e-04  1.69999849e+00 -9.82279955e-02  1.50000000e+00 
 4.45001135e-04  1.70000146e+00 -9.82199955e-02  1.50000000e+00 
 4.47001135e-04  1.69999849e+00 -9.82119955e-02  1.50000000e+00 
 4.49001135e-04  1.70000146e+00 -9.82039955e-02  1.50000000e+00 
 4.51001135e-04  1.69999849e+00 -9.81959955e-02  1.50000000e+00 
 4.53001135e-04  1.70000146e+00 -9.81879955e-02  1.50000000e+00 
 4.55001135e-04  1.69999849e+00 -9.81799955e-02  1.50000000e+00 
 4.57001135e-04  1.70000146e+00 -9.81719955e-02  1.50000000e+00 
 4.59001135e-04  1.69999849e+00 -9.81639955e-02  1.50000000e+00 
 4.61001135e-04  1.70000146e+00 -9.81559955e-02  1.50000000e+00 
 4.63001135e-04  1.69999849e+00 -9.81479955e-02  1.50000000e+00 
 4.65001135e-04  1.70000146e+00 -9.81399955e-02  1.50000000e+00 
 4.67001135e-04  1.69999849e+00 -9.81319955e-02  1.50000000e+00 
 4.69001135e-04  1.70000146e+00 -9.81239955e-02  1.50000000e+00 
 4.71001135e-04  1.69999849e+00 -9.81159955e-02  1.50000000e+00 
 4.73001135e-04  1.70000146e+00 -9.81079955e-02  1.50000000e+00 
 4.75001135e-04  1.69999849e+00 -9.80999955e-02  1.50000000e+00 
 4.77001135e-04  1.70000146e+00 -9.80919955e-02  1.50000000e+00 
 4.79001135e-04  1.69999849e+00 -9.80839955e-02  1.50000000e+00 
 4.81001135e-04  1.70000146e+00 -9.80759955e-02  1.50000000e+00 
 4.83001135e-04  1.69999849e+00 -9.80679955e-02  1.50000000e+00 
 4.85001135e-04  1.70000146e+00 -9.80599955e-02  1.50000000e+00 
 4.87001135e-04  1.69999849e+00 -9.80519955e-02  1.50000000e+00 
 4.89001135e-04  1.70000146e+00 -9.80439955e-02  1.50000000e+00 
 4.91001135e-04  1.69999849e+00 -9.80359955e-02  1.50000000e+00 
 4.93001135e-04  1.70000146e+00 -9.80279955e-02  1.50000000e+00 
 4.95001135e-04  1.69999849e+00 -9.80199955e-02  1.50000000e+00 
 4.97001135e-04  1.70000146e+00 -9.80119955e-02  1.50000000e+00 
 4.99001135e-04  1.69999849e+00 -9.80039955e-02  1.50000000e+00 
 5.00100100e-04  1.70000146e+00 -9.79995996e-02  1.50000000e+00 
 5.00100110e-04  1.69996633e+00 -9.79995996e-02  1.50000000e+00 
 5.00100130e-04  1.69998748e+00 -9.79995995e-02  1.50000000e+00 
 5.00100170e-04  1.69996095e+00 -9.79995993e-02  1.50000000e+00 
 5.00100200e-04  1.70018620e+00 -9.79995992e-02  1.50000000e+00 
 5.00100208e-04  1.70031487e+00 -9.79995992e-02  1.50000000e+00 
 5.00100224e-04  1.70027781e+00 -9.79995991e-02  1.50000000e+00 
 5.00100256e-04  1.69984564e+00 -9.79995990e-02  1.50000000e+00 
 5.00100320e-04  1.69848421e+00 -9.79995987e-02  1.50000000e+00 
 5.00100448e-04  1.70298219e+00 -9.79995982e-02  1.50000000e+00 
 5.00100570e-04  1.69931081e+00 -9.79995977e-02  1.50000000e+00 
 5.00100739e-04  1.70005846e+00 -9.79995970e-02  1.50000000e+00 
 5.00100965e-04  1.70015641e+00 -9.79995961e-02  1.50000000e+00 
 5.00101416e-04  1.69977531e+00 -9.79995943e-02  1.50000000e+00 
 5.00102175e-04  1.70025143e+00 -9.79995913e-02  1.50000000e+00 
 5.00103507e-04  1.69973342e+00 -9.79995860e-02  1.50000000e+00 
