 time            v(Q)            v(A)-v(B)       v(B)           
 0.00000000e+00  4.64710160e-09  1.00000000e-01  0.00000000e+00 
 1.00000000e-09  4.64733831e-09  1.00000004e-01  0.00000000e+00 
 2.00000000e-09  4.64733952e-09  1.00000008e-01  0.00000000e+00 
 4.00000000e-09  4.64733946e-09  1.00000016e-01  0.00000000e+00 
 8.00000000e-09  4.64733921e-09  1.00000032e-01  0.00000000e+00 
 1.60000000e-08  4.64733897e-09  1.00000064e-01  0.00000000e+00 
 3.20000000e-08  4.64733820e-09  1.00000128e-01  0.00000000e+00 
 6.40000000e-08  4.64733681e-09  1.00000256e-01  0.00000000e+00 
 1.00000000e-07  4.64733516e-09  1.00000400e-01  0.00000000e+00 
 1.00010000e-07  1.42508468e-05  1.00000400e-01  0.00000000e+00 
 1.00030000e-07 -6.08065046e-06  1.00000400e-01  0.00000000e+00 
 1.00070000e-07 -8.80292696e-06  1.00000400e-01  0.00000000e+00 
 1.00100000e-07 -9.42807887e-07  1.00000400e-01  0.00000000e+00 
 1.00108000e-07  4.19305830e-06  1.00000400e-01  0.00000000e+00 
 1.00124000e-07  7.39933094e-06  1.00000400e-01  0.00000000e+00 
 1.00156000e-07 -1.28821738e-06  1.00000401e-01  0.00000000e+00 
 1.00220000e-07  1.20717145e-06  1.00000401e-01  0.00000000e+00 
 1.00348000e-07 -1.07624114e-06  1.00000401e-01  0.00000000e+00 
 1.00604000e-07  9.60936548e-07  1.00000402e-01  0.00000000e+00 
 1.01116000e-07 -8.94778204e-07  1.00000404e-01  0.00000000e+00 
 1.02140000e-07  8.75341689e-07  1.00000409e-01  0.00000000e+00 
 1.04188000e-07 -8.51802858e-07  1.00000417e-01  0.00000000e+00 
 1.08284000e-07  8.53990817e-07  1.00000433e-01  0.00000000e+00 
 1.16476000e-07 -8.41144101e-07  1.00000466e-01  0.00000000e+00 
 1.32860000e-07  8.48667076e-07  1.00000531e-01  0.00000000e+00 
 1.65628000e-07 -8.38483635e-07  1.00000663e-01  0.00000000e+00 
 2.31164000e-07  8.47337153e-07  1.00000925e-01  0.00000000e+00 
 3.62236000e-07 -8.37818777e-07  1.00001449e-01  0.00000000e+00 
 6.24380000e-07  8.47004722e-07  1.00002498e-01  0.00000000e+00 
 1.14866800e-06 -8.37652607e-07  1.00004595e-01  0.00000000e+00 
 2.19724400e-06  8.46921568e-07  1.00008789e-01  0.00000000e+00 
 4.19724400e-06 -8.37610469e-07  1.00016789e-01  0.00000000e+00 
 6.19724400e-06  8.46881993e-07  1.00024789e-01  0.00000000e+00 
 8.19724400e-06 -8.37581477e-07  1.00032789e-01  0.00000000e+00 
 1.01972440e-05  8.46852910e-07  1.00040789e-01  0.00000000e+00 
 1.21972440e-05 -8.37552456e-07  1.00048789e-01  0.00000000e+00 
 1.41972440e-05  8.46823846e-07  1.00056789e-01  0.00000000e+00 
 1.61972440e-05 -8.37523422e-07  1.00064789e-01  0.00000000e+00 
 1.81972440e-05  8.46794792e-07  1.00072789e-01  0.00000000e+00 
 2.01972440e-05 -8.37494381e-07  1.00080789e-01  0.00000000e+00 
 2.21972440e-05  8.46765743e-07  1.00088789e-01  0.00000000e+00 
 2.41972440e-05 -8.37465337e-07  1.00096789e-01  0.00000000e+00 
 2.61972440e-05  8.46736695e-07  1.00104789e-01  0.00000000e+00 
 2.81972440e-05 -8.37436293e-07  1.00112789e-01  0.00000000e+00 
 3.01972440e-05  8.46707649e-07  1.00120789e-01  0.00000000e+00 
 3.21972440e-05 -8.37407248e-07  1.00128789e-01  0.00000000e+00 
 3.41972440e-05  8.46678603e-07  1.00136789e-01  0.00000000e+00 
 3.61972440e-05 -8.37378203e-07  1.00144789e-01  0.00000000e+00 
 3.81972440e-05  8.46649558e-07  1.00152789e-01  0.00000000e+00 
 4.01972440e-05 -8.37349158e-07  1.00160789e-01  0.00000000e+00 
 4.21972440e-05  8.46620513e-07  1.00168789e-01  0.00000000e+00 
 4.41972440e-05 -8.37320113e-07  1.00176789e-01  0.00000000e+00 
 4.61972440e-05  8.46591468e-07  1.00184789e-01  0.00000000e+00 
 4.81972440e-05 -8.37291068e-07  1.00192789e-01  0.00000000e+00 
 5.01972440e-05  8.46562423e-07  1.00200789e-01  0.00000000e+00 
 5.21972440e-05 -8.37262024e-07  1.00208789e-01  0.00000000e+00 
 5.41972440e-05  8.46533379e-07  1.00216789e-01  0.00000000e+00 
 5.61972440e-05 -8.37232979e-07  1.00224789e-01  0.00000000e+00 
 5.81972440e-05  8.46504335e-07  1.00232789e-01  0.00000000e+00 
 6.01972440e-05 -8.37203935e-07  1.00240789e-01  0.00000000e+00 
 6.21972440e-05  8.46475291e-07  1.00248789e-01  0.00000000e+00 
 6.41972440e-05 -8.37174891e-07  1.00256789e-01  0.00000000e+00 
 6.61972440e-05  8.46446247e-07  1.00264789e-01  0.00000000e+00 
 6.81972440e-05 -8.37145848e-07  1.00272789e-01  0.00000000e+00 
 7.01972440e-05  8.46417203e-07  1.00280789e-01  0.00000000e+00 
 7.21972440e-05 -8.37116804e-07  1.00288789e-01  0.00000000e+00 
 7.41972440e-05  8.46388160e-07  1.00296789e-01  0.00000000e+00 
 7.61972440e-05 -8.37087761e-07  1.00304789e-01  0.00000000e+00 
 7.81972440e-05  8.46359117e-07  1.00312789e-01  0.00000000e+00 
 8.01972440e-05 -8.37058718e-07  1.00320789e-01  0.00000000e+00 
 8.21972440e-05  8.46330074e-07  1.00328789e-01  0.00000000e+00 
 8.41972440e-05 -8.37029675e-07  1.00336789e-01  0.00000000e+00 
 8.61972440e-05  8.46301031e-07  1.00344789e-01  0.00000000e+00 
 8.81972440e-05 -8.37000632e-07  1.00352789e-01  0.00000000e+00 
 9.01972440e-05  8.46271988e-07  1.00360789e-01  0.00000000e+00 
 9.21972440e-05 -8.36971589e-07  1.00368789e-01  0.00000000e+00 
 9.41972440e-05  8.46242946e-07  1.00376789e-01  0.00000000e+00 
 9.61972440e-05 -8.36942547e-07  1.00384789e-01  0.00000000e+00 
 9.81972440e-05  8.46213904e-07  1.00392789e-01  0.00000000e+00 
 1.00197244e-04 -8.36913505e-07  1.00400789e-01  0.00000000e+00 
 1.02197244e-04  8.46184861e-07  1.00408789e-01  0.00000000e+00 
 1.04197244e-04 -8.36884463e-07  1.00416789e-01  0.00000000e+00 
 1.06197244e-04  8.46155820e-07  1.00424789e-01  0.00000000e+00 
 1.08197244e-04 -8.36855421e-07  1.00432789e-01  0.00000000e+00 
 1.10197244e-04  8.46126778e-07  1.00440789e-01  0.00000000e+00 
 1.12197244e-04 -8.36826379e-07  1.00448789e-01  0.00000000e+00 
 1.14197244e-04  8.46097736e-07  1.00456789e-01  0.00000000e+00 
 1.16197244e-04 -8.36797338e-07  1.00464789e-01  0.00000000e+00 
 1.18197244e-04  8.46068695e-07  1.00472789e-01  0.00000000e+00 
 1.20197244e-04 -8.36768297e-07  1.00480789e-01  0.00000000e+00 
 1.22197244e-04  8.46039654e-07  1.00488789e-01  0.00000000e+00 
 1.24197244e-04 -8.36739256e-07  1.00496789e-01  0.00000000e+00 
 1.26197244e-04  8.46010613e-07  1.00504789e-01  0.00000000e+00 
 1.28197244e-04 -8.36710215e-07  1.00512789e-01  0.00000000e+00 
 1.30197244e-04  8.45981573e-07  1.00520789e-01  0.00000000e+00 
 1.32197244e-04 -8.36681174e-07  1.00528789e-01  0.00000000e+00 
 1.34197244e-04  8.45952532e-07  1.00536789e-01  0.00000000e+00 
 1.36197244e-04 -8.36652134e-07  1.00544789e-01  0.00000000e+00 
 1.38197244e-04  8.45923492e-07  1.00552789e-01  0.00000000e+00 
 1.40197244e-04 -8.36623094e-07  1.00560789e-01  0.00000000e+00 
 1.42197244e-04  8.45894451e-07  1.00568789e-01  0.00000000e+00 
 1.44197244e-04 -8.36594054e-07  1.00576789e-01  0.00000000e+00 
 1.46197244e-04  8.45865412e-07  1.00584789e-01  0.00000000e+00 
 1.48197244e-04 -8.36565014e-07  1.00592789e-01  0.00000000e+00 
 1.50197244e-04  8.45836372e-07  1.00600789e-01  0.00000000e+00 
 1.52197244e-04 -8.36535974e-07  1.00608789e-01  0.00000000e+00 
 1.54197244e-04  8.45807332e-07  1.00616789e-01  0.00000000e+00 
 1.56197244e-04 -8.36506935e-07  1.00624789e-01  0.00000000e+00 
 1.58197244e-04  8.45778293e-07  1.00632789e-01  0.00000000e+00 
 1.60197244e-04 -8.36477895e-07  1.00640789e-01  0.00000000e+00 
 1.62197244e-04  8.45749254e-07  1.00648789e-01  0.00000000e+00 
 1.64197244e-04 -8.36448856e-07  1.00656789e-01  0.00000000e+00 
 1.66197244e-04  8.45720215e-07  1.00664789e-01  0.00000000e+00 
 1.68197244e-04 -8.36419817e-07  1.00672789e-01  0.00000000e+00 
 1.70197244e-04  8.45691176e-07  1.00680789e-01  0.00000000e+00 
 1.72197244e-04 -8.36390779e-07  1.00688789e-01  0.00000000e+00 
 1.74197244e-04  8.45662138e-07  1.00696789e-01  0.00000000e+00 
 1.76197244e-04 -8.36361740e-07  1.00704789e-01  0.00000000e+00 
 1.78197244e-04  8.45633099e-07  1.00712789e-01  0.00000000e+00 
 1.80197244e-04 -8.36332702e-07  1.00720789e-01  0.00000000e+00 
 1.82197244e-04  8.45604061e-07  1.00728789e-01  0.00000000e+00 
 1.84197244e-04 -8.36303664e-07  1.00736789e-01  0.00000000e+00 
 1.86197244e-04  8.45575023e-07  1.00744789e-01  0.00000000e+00 
 1.88197244e-04 -8.36274626e-07  1.00752789e-01  0.00000000e+00 
 1.90197244e-04  8.45545985e-07  1.00760789e-01  0.00000000e+00 
 1.92197244e-04 -8.36245588e-07  1.00768789e-01  0.00000000e+00 
 1.94197244e-04  8.45516948e-07  1.00776789e-01  0.00000000e+00 
 1.96197244e-04 -8.36216551e-07  1.00784789e-01  0.00000000e+00 
 1.98197244e-04  8.45487910e-07  1.00792789e-01  0.00000000e+00 
 2.00000000e-04 -8.36185925e-07  1.00800000e-01  0.00000000e+00 
 2.00200000e-04  4.61190602e-09 -9.91992000e-02  2.00000000e-01 
 2.00600000e-04  4.68230807e-09 -9.91976000e-02  2.00000000e-01 
 2.01400000e-04  4.61190689e-09 -9.91944000e-02  2.00000000e-01 
 2.02173209e-04  4.68230712e-09 -9.91913072e-02  2.00000000e-01 
 2.03719627e-04  4.61190741e-09 -9.91851215e-02  2.00000000e-01 
 2.05719627e-04  4.68230651e-09 -9.91771215e-02  2.00000000e-01 
 2.07719627e-04  4.61190768e-09 -9.91691215e-02  2.00000000e-01 
 2.09719627e-04  4.68230597e-09 -9.91611215e-02  2.00000000e-01 
 2.11719627e-04  4.61190814e-09 -9.91531215e-02  2.00000000e-01 
 2.13719627e-04  4.68230547e-09 -9.91451215e-02  2.00000000e-01 
 2.15719627e-04  4.61190859e-09 -9.91371215e-02  2.00000000e-01 
 2.17719627e-04  4.68230490e-09 -9.91291215e-02  2.00000000e-01 
 2.19719627e-04  4.61190909e-09 -9.91211215e-02  2.00000000e-01 
 2.21719627e-04  4.68230442e-09 -9.91131215e-02  2.00000000e-01 
 2.23719627e-04  4.61190965e-09 -9.91051215e-02  2.00000000e-01 
 2.25719627e-04  4.68230382e-09 -9.90971215e-02  2.00000000e-01 
 2.27719627e-04  4.61191030e-09 -9.90891215e-02  2.00000000e-01 
 2.29719627e-04  4.68230316e-09 -9.90811215e-02  2.00000000e-01 
 2.31719627e-04  4.61191088e-09 -9.90731215e-02  2.00000000e-01 
 2.33719627e-04  4.68230249e-09 -9.90651215e-02  2.00000000e-01 
 2.35719627e-04  4.61191156e-09 -9.90571215e-02  2.00000000e-01 
 2.37719627e-04  4.68230178e-09 -9.90491215e-02  2.00000000e-01 
 2.39719627e-04  4.61191234e-09 -9.90411215e-02  2.00000000e-01 
 2.41719627e-04  4.68230108e-09 -9.90331215e-02  2.00000000e-01 
 2.43719627e-04  4.61191307e-09 -9.90251215e-02  2.00000000e-01 
 2.45719627e-04  4.68230024e-09 -9.90171215e-02  2.00000000e-01 
 2.47719627e-04  4.61191387e-09 -9.90091215e-02  2.00000000e-01 
 2.49719627e-04  4.68229946e-09 -9.90011215e-02  2.00000000e-01 
 2.51719627e-04  4.61191473e-09 -9.89931215e-02  2.00000000e-01 
 2.53719627e-04  4.68229860e-09 -9.89851215e-02  2.00000000e-01 
 2.55719627e-04  4.61191556e-09 -9.89771215e-02  2.00000000e-01 
 2.57719627e-04  4.68229774e-09 -9.89691215e-02  2.00000000e-01 
 2.59719627e-04  4.61191649e-09 -9.89611215e-02  2.00000000e-01 
 2.61719627e-04  4.68229679e-09 -9.89531215e-02  2.00000000e-01 
 2.63719627e-04  4.61191747e-09 -9.89451215e-02  2.00000000e-01 
 2.65719627e-04  4.68229584e-09 -9.89371215e-02  2.00000000e-01 
 2.67719627e-04  4.61191843e-09 -9.89291215e-02  2.00000000e-01 
 2.69719627e-04  4.68229481e-09 -9.89211215e-02  2.00000000e-01 
 2.71719627e-04  4.61191943e-09 -9.89131215e-02  2.00000000e-01 
 2.73719627e-04  4.68229378e-09 -9.89051215e-02  2.00000000e-01 
 2.75719627e-04  4.61192053e-09 -9.88971215e-02  2.00000000e-01 
 2.77719627e-04  4.68229266e-09 -9.88891215e-02  2.00000000e-01 
 2.79719627e-04  4.61192163e-09 -9.88811215e-02  2.00000000e-01 
 2.81719627e-04  4.68229154e-09 -9.88731215e-02  2.00000000e-01 
 2.83719627e-04  4.61192276e-09 -9.88651215e-02  2.00000000e-01 
 2.85719627e-04  4.68229040e-09 -9.88571215e-02  2.00000000e-01 
 2.87719627e-04  4.61192398e-09 -9.88491215e-02  2.00000000e-01 
 2.89719627e-04  4.68228921e-09 -9.88411215e-02  2.00000000e-01 
 2.91719627e-04  4.61192518e-09 -9.88331215e-02  2.00000000e-01 
 2.93719627e-04  4.68228792e-09 -9.88251215e-02  2.00000000e-01 
 2.95719627e-04  4.61192644e-09 -9.88171215e-02  2.00000000e-01 
 2.97719627e-04  4.68228665e-09 -9.88091215e-02  2.00000000e-01 
 2.99719627e-04  4.61192768e-09 -9.88011215e-02  2.00000000e-01 
 3.01719627e-04  4.68228539e-09 -9.87931215e-02  2.00000000e-01 
 3.03719627e-04  4.61192906e-09 -9.87851215e-02  2.00000000e-01 
 3.05719627e-04  4.68228404e-09 -9.87771215e-02  2.00000000e-01 
 3.07719627e-04  4.61193038e-09 -9.87691215e-02  2.00000000e-01 
 3.09719627e-04  4.68228259e-09 -9.87611215e-02  2.00000000e-01 
 3.11719627e-04  4.61193186e-09 -9.87531215e-02  2.00000000e-01 
 3.13719627e-04  4.68228120e-09 -9.87451215e-02  2.00000000e-01 
 3.15719627e-04  4.61193326e-09 -9.87371215e-02  2.00000000e-01 
 3.17719627e-04  4.68227972e-09 -9.87291215e-02  2.00000000e-01 
 3.19719627e-04  4.61193477e-09 -9.87211215e-02  2.00000000e-01 
 3.21719627e-04  4.68227820e-09 -9.87131215e-02  2.00000000e-01 
 3.23719627e-04  4.61193631e-09 -9.87051215e-02  2.00000000e-01 
 3.25719627e-04  4.68227663e-09 -9.86971215e-02  2.00000000e-01 
 3.27719627e-04  4.61193784e-09 -9.86891215e-02  2.00000000e-01 
 3.29719627e-04  4.68227508e-09 -9.86811215e-02  2.00000000e-01 
 3.31719627e-04  4.61193941e-09 -9.86731215e-02  2.00000000e-01 
 3.33719627e-04  4.68227350e-09 -9.86651215e-02  2.00000000e-01 
 3.35719627e-04  4.61194107e-09 -9.86571215e-02  2.00000000e-01 
 3.37719627e-04  4.68227182e-09 -9.86491215e-02  2.00000000e-01 
 3.39719627e-04  4.61194277e-09 -9.86411215e-02  2.00000000e-01 
 3.41719627e-04  4.68227008e-09 -9.86331215e-02  2.00000000e-01 
 3.43719627e-04  4.61194447e-09 -9.86251215e-02  2.00000000e-01 
 3.45719627e-04  4.68226838e-09 -9.86171215e-02  2.00000000e-01 
 3.47719627e-04  4.61194620e-09 -9.86091215e-02  2.00000000e-01 
 3.49719627e-04  4.68226656e-09 -9.86011215e-02  2.00000000e-01 
 3.51719627e-04  4.61194803e-09 -9.85931215e-02  2.00000000e-01 
 3.53719627e-04  4.68226483e-09 -9.85851215e-02  2.00000000e-01 
 3.55719627e-04  4.61194985e-09 -9.85771215e-02  2.00000000e-01 
 3.57719627e-04  4.68226292e-09 -9.85691215e-02  2.00000000e-01 
 3.59719627e-04  4.61195171e-09 -9.85611215e-02  2.00000000e-01 
 3.61719627e-04  4.68226105e-09 -9.85531215e-02  2.00000000e-01 
 3.63719627e-04  4.61195361e-09 -9.85451215e-02  2.00000000e-01 
 3.65719627e-04  4.68225912e-09 -9.85371215e-02  2.00000000e-01 
 3.67719627e-04  4.61195556e-09 -9.85291215e-02  2.00000000e-01 
 3.69719627e-04  4.68225717e-09 -9.85211215e-02  2.00000000e-01 
 3.71719627e-04  4.61195752e-09 -9.85131215e-02  2.00000000e-01 
 3.73719627e-04  4.68225517e-09 -9.85051215e-02  2.00000000e-01 
 3.75719627e-04  4.61195955e-09 -9.84971215e-02  2.00000000e-01 
 3.77719627e-04  4.68225319e-09 -9.84891215e-02  2.00000000e-01 
 3.79719627e-04  4.61196161e-09 -9.84811215e-02  2.00000000e-01 
 3.81719627e-04  4.68225109e-09 -9.84731215e-02  2.00000000e-01 
 3.83719627e-04  4.61196367e-09 -9.84651215e-02  2.00000000e-01 
 3.85719627e-04  4.68224897e-09 -9.84571215e-02  2.00000000e-01 
 3.87719627e-04  4.61196581e-09 -9.84491215e-02  2.00000000e-01 
 3.89719627e-04  4.68224681e-09 -9.84411215e-02  2.00000000e-01 
 3.91719627e-04  4.61196800e-09 -9.84331215e-02  2.00000000e-01 
 3.93719627e-04  4.68224460e-09 -9.84251215e-02  2.00000000e-01 
 3.95719627e-04  4.61197017e-09 -9.84171215e-02  2.00000000e-01 
 3.97719627e-04  4.68224240e-09 -9.84091215e-02  2.00000000e-01 
 3.99719627e-04  4.61197244e-09 -9.84011215e-02  2.00000000e-01 
 4.01719627e-04  4.68224011e-09 -9.83931215e-02  2.00000000e-01 
 4.03719627e-04  4.61197469e-09 -9.83851215e-02  2.00000000e-01 
 4.05719627e-04  4.68223783e-09 -9.83771215e-02  2.00000000e-01 
 4.07719627e-04  4.61197705e-09 -9.83691215e-02  2.00000000e-01 
 4.09719627e-04  4.68223552e-09 -9.83611215e-02  2.00000000e-01 
 4.11719627e-04  4.61197944e-09 -9.83531215e-02  2.00000000e-01 
 4.13719627e-04  4.68223310e-09 -9.83451215e-02  2.00000000e-01 
 4.15719627e-04  4.61198177e-09 -9.83371215e-02  2.00000000e-01 
 4.17719627e-04  4.68223071e-09 -9.83291215e-02  2.00000000e-01 
 4.19719627e-04  4.61198424e-09 -9.83211215e-02  2.00000000e-01 
 4.21719627e-04  4.68222826e-09 -9.83131215e-02  2.00000000e-01 
 4.23719627e-04  4.61198671e-09 -9.83051215e-02  2.00000000e-01 
 4.25719627e-04  4.68222578e-09 -9.82971215e-02  2.00000000e-01 
 4.27719627e-04  4.61198926e-09 -9.82891215e-02  2.00000000e-01 
 4.29719627e-04  4.68222320e-09 -9.82811215e-02  2.00000000e-01 
 4.31719627e-04  4.61199174e-09 -9.82731215e-02  2.00000000e-01 
 4.33719627e-04  4.68222071e-09 -9.82651215e-02  2.00000000e-01 
 4.35719627e-04  4.61199433e-09 -9.82571215e-02  2.00000000e-01 
 4.37719627e-04  4.68221804e-09 -9.82491215e-02  2.00000000e-01 
 4.39719627e-04  4.61199696e-09 -9.82411215e-02  2.00000000e-01 
 4.41719627e-04  4.68221545e-09 -9.82331215e-02  2.00000000e-01 
 4.43719627e-04  4.61199967e-09 -9.82251215e-02  2.00000000e-01 
 4.45719627e-04  4.68221276e-09 -9.82171215e-02  2.00000000e-01 
 4.47719627e-04  4.61200232e-09 -9.82091215e-02  2.00000000e-01 
 4.49719627e-04  4.68221004e-09 -9.82011215e-02  2.00000000e-01 
 4.51719627e-04  4.61200508e-09 -9.81931215e-02  2.00000000e-01 
 4.53719627e-04  4.68220727e-09 -9.81851215e-02  2.00000000e-01 
 4.55719627e-04  4.61200780e-09 -9.81771215e-02  2.00000000e-01 
 4.57719627e-04  4.68220446e-09 -9.81691215e-02  2.00000000e-01 
 4.59719627e-04  4.61201064e-09 -9.81611215e-02  2.00000000e-01 
 4.61719627e-04  4.68220167e-09 -9.81531215e-02  2.00000000e-01 
 4.63719627e-04  4.61201350e-09 -9.81451215e-02  2.00000000e-01 
 4.65719627e-04  4.68219878e-09 -9.81371215e-02  2.00000000e-01 
 4.67719627e-04  4.61201635e-09 -9.81291215e-02  2.00000000e-01 
 4.69719627e-04  4.68219585e-09 -9.81211215e-02  2.00000000e-01 
 4.71719627e-04  4.61201932e-09 -9.81131215e-02  2.00000000e-01 
 4.73719627e-04  4.68219293e-09 -9.81051215e-02  2.00000000e-01 
 4.75719627e-04  4.61202225e-09 -9.80971215e-02  2.00000000e-01 
 4.77719627e-04  4.68218997e-09 -9.80891215e-02  2.00000000e-01 
 4.79719627e-04  4.61202528e-09 -9.80811215e-02  2.00000000e-01 
 4.81719627e-04  4.68218698e-09 -9.80731215e-02  2.00000000e-01 
 4.83719627e-04  4.61202835e-09 -9.80651215e-02  2.00000000e-01 
 4.85719627e-04  4.68218388e-09 -9.80571215e-02  2.00000000e-01 
 4.87719627e-04  4.61203141e-09 -9.80491215e-02  2.00000000e-01 
 4.89719627e-04  4.68218080e-09 -9.80411215e-02  2.00000000e-01 
 4.91719627e-04  4.61203446e-09 -9.80331215e-02  2.00000000e-01 
 4.93719627e-04  4.68217768e-09 -9.80251215e-02  2.00000000e-01 
 4.95719627e-04  4.61203765e-09 -9.80171215e-02  2.00000000e-01 
 4.97719627e-04  4.68217452e-09 -9.80091215e-02  2.00000000e-01 
 4.99719627e-04  4.61204078e-09 -9.80011215e-02  2.00000000e-01 
 5.00100100e-04  4.68216431e-09 -9.79995996e-02  2.00000000e-01 
 5.00100110e-04 -3.48945744e-06 -9.79995996e-02  2.00000000e-01 
 5.00100130e-04 -2.78259332e-07 -9.79995995e-02  2.00000000e-01 
 5.00100170e-04 -2.73911071e-06 -9.79995993e-02  2.00000000e-01 
 5.00100200e-04  9.89185433e-06 -9.79995992e-02  2.00000000e-01 
 5.00100208e-04  1.99997076e-05 -9.79995992e-02  2.00000000e-01 
 5.00100224e-04 -2.20550877e-06 -9.79995991e-02  2.00000000e-01 
 5.00100256e-04 -1.54975514e-05 -9.79995990e-02  2.00000000e-01 
 5.00100320e-04  1.50961459e-05 -9.79995987e-02  2.00000000e-01 
 5.00100448e-04 -1.46447638e-05 -9.79995982e-02  2.00000000e-01 
 5.00100704e-04  1.44743500e-05 -9.79995972e-02  2.00000000e-01 
 5.00101216e-04 -1.43769053e-05 -9.79995951e-02  2.00000000e-01 
 5.00102240e-04  1.43420621e-05 -9.79995910e-02  2.00000000e-01 
 5.00104288e-04 -1.43103661e-05 -9.79995828e-02  2.00000000e-01 
 5.00108384e-04  1.43086126e-05 -9.79995665e-02  2.00000000e-01 
 5.00116576e-04 -1.42935960e-05 -9.79995337e-02  2.00000000e-01 
 5.00132960e-04  1.43002129e-05 -9.79994682e-02  2.00000000e-01 
 5.00165728e-04 -1.42893931e-05 -9.79993371e-02  2.00000000e-01 
 5.00231264e-04  1.42981105e-05 -9.79990749e-02  2.00000000e-01 
 5.00362336e-04 -1.42945915e-05 -9.79985507e-02  2.00000000e-01 
 5.00624480e-04  1.42995565e-05 -9.79975021e-02  2.00000000e-01 
 5.01148768e-04 -1.42944203e-05 -9.79954049e-02  2.00000000e-01 
 5.02197344e-04  1.42993783e-05 -9.79912106e-02  2.00000000e-01 
