 time            v(Q)            v(A)-v(B)       v(B)           
 0.00000000e+00  4.64710528e-09  9.00000000e-01  0.00000000e+00 
 1.00000000e-09  4.64717866e-09  9.00000004e-01  0.00000000e+00 
 2.00000000e-09  4.64717910e-09  9.00000008e-01  0.00000000e+00 
 4.00000000e-09  4.64717910e-09  9.00000016e-01  0.00000000e+00 
 8.00000000e-09  4.64717900e-09  9.00000032e-01  0.00000000e+00 
 1.60000000e-08  4.64717890e-09  9.00000064e-01  0.00000000e+00 
 3.20000000e-08  4.64717863e-09  9.00000128e-01  0.00000000e+00 
 6.40000000e-08  4.64717826e-09  9.00000256e-01  0.00000000e+00 
 1.00000000e-07  4.64717771e-09  9.00000400e-01  0.00000000e+00 
 1.00010000e-07  1.60417425e-05  9.00000400e-01  0.00000000e+00 
 1.00030000e-07 -5.53512545e-06  9.00000400e-01  0.00000000e+00 
 1.00070000e-07 -1.85297359e-05  9.00000400e-01  0.00000000e+00 
 1.00100000e-07 -2.66681067e-05  9.00000400e-01  0.00000000e+00 
 1.00108000e-07  6.28829474e-06  9.00000400e-01  0.00000000e+00 
 1.00124000e-07  2.53584956e-05  9.00000400e-01  0.00000000e+00 
 1.00156000e-07 -1.62293990e-05  9.00000401e-01  0.00000000e+00 
 1.00220000e-07 -4.82758005e-06  9.00000401e-01  0.00000000e+00 
 1.00348000e-07  1.71218973e-03  9.00000401e-01  0.00000000e+00 
 1.00495031e-07  1.45890309e+00  9.00000402e-01  0.00000000e+00 
 1.00635565e-07  1.77711221e+00  9.00000403e-01  0.00000000e+00 
 1.00872425e-07  1.64462384e+00  9.00000403e-01  0.00000000e+00 
 1.01141899e-07  1.73806310e+00  9.00000405e-01  0.00000000e+00 
 1.01609125e-07  1.66636390e+00  9.00000406e-01  0.00000000e+00 
 1.02352507e-07  1.72966503e+00  9.00000409e-01  0.00000000e+00 
 1.03489911e-07  1.67133645e+00  9.00000414e-01  0.00000000e+00 
 1.05469178e-07  1.72698331e+00  9.00000422e-01  0.00000000e+00 
 1.08591938e-07  1.67287631e+00  9.00000434e-01  0.00000000e+00 
 1.13854591e-07  1.72606895e+00  9.00000455e-01  0.00000000e+00 
 1.23145716e-07  1.67339641e+00  9.00000493e-01  0.00000000e+00 
 1.40758743e-07  1.72584787e+00  9.00000563e-01  0.00000000e+00 
 1.71039667e-07  1.67355002e+00  9.00000684e-01  0.00000000e+00 
 2.31601515e-07  1.72579748e+00  9.00000926e-01  0.00000000e+00 
 3.52725211e-07  1.67359205e+00  9.00001411e-01  0.00000000e+00 
 5.94972603e-07  1.72577650e+00  9.00002380e-01  0.00000000e+00 
 1.07946739e-06  1.67360237e+00  9.00004318e-01  0.00000000e+00 
 2.04845696e-06  1.72577105e+00  9.00008194e-01  0.00000000e+00 
 3.98643610e-06  1.67360489e+00  9.00015946e-01  0.00000000e+00 
 5.98643610e-06  1.72557795e+00  9.00023946e-01  0.00000000e+00 
 7.98643610e-06  1.67360648e+00  9.00031946e-01  0.00000000e+00 
 9.98643610e-06  1.72557303e+00  9.00039946e-01  0.00000000e+00 
 1.19864361e-05  1.67360817e+00  9.00047946e-01  0.00000000e+00 
 1.39864361e-05  1.72557141e+00  9.00055946e-01  0.00000000e+00 
 1.59864361e-05  1.67360985e+00  9.00063946e-01  0.00000000e+00 
 1.79864361e-05  1.72556979e+00  9.00071946e-01  0.00000000e+00 
 1.99864361e-05  1.67361154e+00  9.00079946e-01  0.00000000e+00 
 2.19864361e-05  1.72556818e+00  9.00087946e-01  0.00000000e+00 
 2.39864361e-05  1.67361322e+00  9.00095946e-01  0.00000000e+00 
 2.59864361e-05  1.72556656e+00  9.00103946e-01  0.00000000e+00 
 2.79864361e-05  1.67361491e+00  9.00111946e-01  0.00000000e+00 
 2.99864361e-05  1.72556495e+00  9.00119946e-01  0.00000000e+00 
 3.19864361e-05  1.67361660e+00  9.00127946e-01  0.00000000e+00 
 3.39864361e-05  1.72551956e+00  9.00135946e-01  0.00000000e+00 
 3.59864361e-05  1.67361828e+00  9.00143946e-01  0.00000000e+00 
 3.79864361e-05  1.72556166e+00  9.00151946e-01  0.00000000e+00 
 3.99864361e-05  1.67361997e+00  9.00159946e-01  0.00000000e+00 
 4.19864361e-05  1.72556010e+00  9.00167946e-01  0.00000000e+00 
 4.39864361e-05  1.67362165e+00  9.00175946e-01  0.00000000e+00 
 4.59864361e-05  1.72555849e+00  9.00183946e-01  0.00000000e+00 
 4.79864361e-05  1.67362334e+00  9.00191946e-01  0.00000000e+00 
 4.99864361e-05  1.72555688e+00  9.00199946e-01  0.00000000e+00 
 5.19864361e-05  1.67362503e+00  9.00207946e-01  0.00000000e+00 
 5.39864361e-05  1.72555526e+00  9.00215946e-01  0.00000000e+00 
 5.59864361e-05  1.67362671e+00  9.00223946e-01  0.00000000e+00 
 5.79864361e-05  1.72555365e+00  9.00231946e-01  0.00000000e+00 
 5.99864361e-05  1.67362840e+00  9.00239946e-01  0.00000000e+00 
 6.19864361e-05  1.72555204e+00  9.00247946e-01  0.00000000e+00 
 6.39864361e-05  1.67363008e+00  9.00255946e-01  0.00000000e+00 
 6.59864361e-05  1.72555042e+00  9.00263946e-01  0.00000000e+00 
 6.79864361e-05  1.67363177e+00  9.00271946e-01  0.00000000e+00 
 6.99864361e-05  1.72554881e+00  9.00279946e-01  0.00000000e+00 
 7.19864361e-05  1.67363345e+00  9.00287946e-01  0.00000000e+00 
 7.39864361e-05  1.72554720e+00  9.00295946e-01  0.00000000e+00 
 7.59864361e-05  1.67363514e+00  9.00303946e-01  0.00000000e+00 
 7.79864361e-05  1.72554559e+00  9.00311946e-01  0.00000000e+00 
 7.99864361e-05  1.67363682e+00  9.00319946e-01  0.00000000e+00 
 8.19864361e-05  1.72554397e+00  9.00327946e-01  0.00000000e+00 
 8.39864361e-05  1.67363851e+00  9.00335946e-01  0.00000000e+00 
 8.59864361e-05  1.72554236e+00  9.00343946e-01  0.00000000e+00 
 8.79864361e-05  1.67364019e+00  9.00351946e-01  0.00000000e+00 
 8.99864361e-05  1.72554075e+00  9.00359946e-01  0.00000000e+00 
 9.19864361e-05  1.67364187e+00  9.00367946e-01  0.00000000e+00 
 9.39864361e-05  1.72553914e+00  9.00375946e-01  0.00000000e+00 
 9.59864361e-05  1.67364356e+00  9.00383946e-01  0.00000000e+00 
 9.79864361e-05  1.72553753e+00  9.00391946e-01  0.00000000e+00 
 9.99864361e-05  1.67364524e+00  9.00399946e-01  0.00000000e+00 
 1.01986436e-04  1.72553591e+00  9.00407946e-01  0.00000000e+00 
 1.03986436e-04  1.67364692e+00  9.00415946e-01  0.00000000e+00 
 1.05986436e-04  1.72553430e+00  9.00423946e-01  0.00000000e+00 
 1.07986436e-04  1.67364861e+00  9.00431946e-01  0.00000000e+00 
 1.09986436e-04  1.72553269e+00  9.00439946e-01  0.00000000e+00 
 1.11986436e-04  1.67365029e+00  9.00447946e-01  0.00000000e+00 
 1.13986436e-04  1.72553108e+00  9.00455946e-01  0.00000000e+00 
 1.15986436e-04  1.67365197e+00  9.00463946e-01  0.00000000e+00 
 1.17986436e-04  1.72552947e+00  9.00471946e-01  0.00000000e+00 
 1.19986436e-04  1.67365366e+00  9.00479946e-01  0.00000000e+00 
 1.21986436e-04  1.72552786e+00  9.00487946e-01  0.00000000e+00 
 1.23986436e-04  1.67365534e+00  9.00495946e-01  0.00000000e+00 
 1.25986436e-04  1.72552625e+00  9.00503946e-01  0.00000000e+00 
 1.27986436e-04  1.67365702e+00  9.00511946e-01  0.00000000e+00 
 1.29986436e-04  1.72552464e+00  9.00519946e-01  0.00000000e+00 
 1.31986436e-04  1.67365870e+00  9.00527946e-01  0.00000000e+00 
 1.33986436e-04  1.72552303e+00  9.00535946e-01  0.00000000e+00 
 1.35986436e-04  1.67366038e+00  9.00543946e-01  0.00000000e+00 
 1.37986436e-04  1.72552142e+00  9.00551946e-01  0.00000000e+00 
 1.39986436e-04  1.67366207e+00  9.00559946e-01  0.00000000e+00 
 1.41986436e-04  1.72551981e+00  9.00567946e-01  0.00000000e+00 
 1.43986436e-04  1.67366375e+00  9.00575946e-01  0.00000000e+00 
 1.45986436e-04  1.72551820e+00  9.00583946e-01  0.00000000e+00 
 1.47986436e-04  1.67366543e+00  9.00591946e-01  0.00000000e+00 
 1.49986436e-04  1.72551659e+00  9.00599946e-01  0.00000000e+00 
 1.51986436e-04  1.67366711e+00  9.00607946e-01  0.00000000e+00 
 1.53986436e-04  1.72551498e+00  9.00615946e-01  0.00000000e+00 
 1.55986436e-04  1.67366879e+00  9.00623946e-01  0.00000000e+00 
 1.57986436e-04  1.72551338e+00  9.00631946e-01  0.00000000e+00 
 1.59986436e-04  1.67367047e+00  9.00639946e-01  0.00000000e+00 
 1.61986436e-04  1.72551177e+00  9.00647946e-01  0.00000000e+00 
 1.63986436e-04  1.67367215e+00  9.00655946e-01  0.00000000e+00 
 1.65986436e-04  1.72551016e+00  9.00663946e-01  0.00000000e+00 
 1.67986436e-04  1.67367383e+00  9.00671946e-01  0.00000000e+00 
 1.69986436e-04  1.72550855e+00  9.00679946e-01  0.00000000e+00 
 1.71986436e-04  1.67367551e+00  9.00687946e-01  0.00000000e+00 
 1.73986436e-04  1.72550694e+00  9.00695946e-01  0.00000000e+00 
 1.75986436e-04  1.67367719e+00  9.00703946e-01  0.00000000e+00 
 1.77986436e-04  1.72550534e+00  9.00711946e-01  0.00000000e+00 
 1.79986436e-04  1.67367887e+00  9.00719946e-01  0.00000000e+00 
 1.81986436e-04  1.72550373e+00  9.00727946e-01  0.00000000e+00 
 1.83986436e-04  1.67368055e+00  9.00735946e-01  0.00000000e+00 
 1.85986436e-04  1.72550212e+00  9.00743946e-01  0.00000000e+00 
 1.87986436e-04  1.67368223e+00  9.00751946e-01  0.00000000e+00 
 1.89986436e-04  1.72550051e+00  9.00759946e-01  0.00000000e+00 
 1.91986436e-04  1.67368391e+00  9.00767946e-01  0.00000000e+00 
 1.93986436e-04  1.72549891e+00  9.00775946e-01  0.00000000e+00 
 1.95986436e-04  1.67368559e+00  9.00783946e-01  0.00000000e+00 
 1.97986436e-04  1.72549730e+00  9.00791946e-01  0.00000000e+00 
 1.99986436e-04  1.67368727e+00  9.00799946e-01  0.00000000e+00 
 2.00000000e-04  1.72533807e+00  9.00800000e-01  0.00000000e+00 
 2.00001632e-04  1.70017932e+00 -9.91999935e-02  1.00000000e+00 
 2.00004897e-04  1.69982620e+00 -9.91999804e-02  1.00000000e+00 
 2.00008270e-04  1.70016847e+00 -9.91999669e-02  1.00000000e+00 
 2.00012002e-04  1.69983601e+00 -9.91999520e-02  1.00000000e+00 
 2.00019465e-04  1.70016168e+00 -9.91999221e-02  1.00000000e+00 
 2.00032139e-04  1.69983953e+00 -9.91998714e-02  1.00000000e+00 
 2.00057487e-04  1.70015975e+00 -9.91997701e-02  1.00000000e+00 
 2.00108182e-04  1.69984049e+00 -9.91995673e-02  1.00000000e+00 
 2.00209574e-04  1.70015927e+00 -9.91991617e-02  1.00000000e+00 
 2.00412356e-04  1.69984073e+00 -9.91983506e-02  1.00000000e+00 
 2.00817921e-04  1.70015915e+00 -9.91967283e-02  1.00000000e+00 
 2.01629050e-04  1.69984079e+00 -9.91934838e-02  1.00000000e+00 
 2.03251310e-04  1.70015912e+00 -9.91869948e-02  1.00000000e+00 
 2.05251310e-04  1.69984081e+00 -9.91789948e-02  1.00000000e+00 
 2.07251310e-04  1.70015910e+00 -9.91709948e-02  1.00000000e+00 
 2.09251310e-04  1.69984082e+00 -9.91629948e-02  1.00000000e+00 
 2.11251310e-04  1.70015909e+00 -9.91549948e-02  1.00000000e+00 
 2.13251310e-04  1.69984084e+00 -9.91469948e-02  1.00000000e+00 
 2.15251310e-04  1.70015907e+00 -9.91389948e-02  1.00000000e+00 
 2.17251310e-04  1.69984085e+00 -9.91309948e-02  1.00000000e+00 
 2.19251310e-04  1.70015906e+00 -9.91229948e-02  1.00000000e+00 
 2.21251310e-04  1.69984087e+00 -9.91149948e-02  1.00000000e+00 
 2.23251310e-04  1.70015904e+00 -9.91069948e-02  1.00000000e+00 
 2.25251310e-04  1.69984089e+00 -9.90989948e-02  1.00000000e+00 
 2.27251310e-04  1.70015902e+00 -9.90909948e-02  1.00000000e+00 
 2.29251310e-04  1.69984090e+00 -9.90829948e-02  1.00000000e+00 
 2.31251310e-04  1.70015901e+00 -9.90749948e-02  1.00000000e+00 
 2.33251310e-04  1.69984092e+00 -9.90669948e-02  1.00000000e+00 
 2.35251310e-04  1.70015899e+00 -9.90589948e-02  1.00000000e+00 
 2.37251310e-04  1.69984094e+00 -9.90509948e-02  1.00000000e+00 
 2.39251310e-04  1.70015898e+00 -9.90429948e-02  1.00000000e+00 
 2.41251310e-04  1.69984095e+00 -9.90349948e-02  1.00000000e+00 
 2.43251310e-04  1.70015896e+00 -9.90269948e-02  1.00000000e+00 
 2.45251310e-04  1.69984097e+00 -9.90189948e-02  1.00000000e+00 
 2.47251310e-04  1.70015894e+00 -9.90109948e-02  1.00000000e+00 
 2.49251310e-04  1.69984098e+00 -9.90029948e-02  1.00000000e+00 
 2.51251310e-04  1.70015893e+00 -9.89949948e-02  1.00000000e+00 
 2.53251310e-04  1.69984100e+00 -9.89869948e-02  1.00000000e+00 
 2.55251310e-04  1.70015891e+00 -9.89789948e-02  1.00000000e+00 
 2.57251310e-04  1.69984102e+00 -9.89709948e-02  1.00000000e+00 
 2.59251310e-04  1.70015889e+00 -9.89629948e-02  1.00000000e+00 
 2.61251310e-04  1.69984103e+00 -9.89549948e-02  1.00000000e+00 
 2.63251310e-04  1.70015888e+00 -9.89469948e-02  1.00000000e+00 
 2.65251310e-04  1.69984105e+00 -9.89389948e-02  1.00000000e+00 
 2.67251310e-04  1.70015886e+00 -9.89309948e-02  1.00000000e+00 
 2.69251310e-04  1.69984106e+00 -9.89229948e-02  1.00000000e+00 
 2.71251310e-04  1.70015885e+00 -9.89149948e-02  1.00000000e+00 
 2.73251310e-04  1.69984108e+00 -9.89069948e-02  1.00000000e+00 
 2.75251310e-04  1.70015883e+00 -9.88989948e-02  1.00000000e+00 
 2.77251310e-04  1.69984110e+00 -9.88909948e-02  1.00000000e+00 
 2.79251310e-04  1.70015881e+00 -9.88829948e-02  1.00000000e+00 
 2.81251310e-04  1.69984111e+00 -9.88749948e-02  1.00000000e+00 
 2.83251310e-04  1.70015880e+00 -9.88669948e-02  1.00000000e+00 
 2.85251310e-04  1.69984113e+00 -9.88589948e-02  1.00000000e+00 
 2.87251310e-04  1.70015878e+00 -9.88509948e-02  1.00000000e+00 
 2.89251310e-04  1.69984114e+00 -9.88429948e-02  1.00000000e+00 
 2.91251310e-04  1.70015877e+00 -9.88349948e-02  1.00000000e+00 
 2.93251310e-04  1.69984116e+00 -9.88269948e-02  1.00000000e+00 
 2.95251310e-04  1.70015875e+00 -9.88189948e-02  1.00000000e+00 
 2.97251310e-04  1.69984118e+00 -9.88109948e-02  1.00000000e+00 
 2.99251310e-04  1.70015873e+00 -9.88029948e-02  1.00000000e+00 
 3.01251310e-04  1.69984119e+00 -9.87949948e-02  1.00000000e+00 
 3.03251310e-04  1.70015872e+00 -9.87869948e-02  1.00000000e+00 
 3.05251310e-04  1.69984121e+00 -9.87789948e-02  1.00000000e+00 
 3.07251310e-04  1.70015870e+00 -9.87709948e-02  1.00000000e+00 
 3.09251310e-04  1.69984123e+00 -9.87629948e-02  1.00000000e+00 
 3.11251310e-04  1.70015868e+00 -9.87549948e-02  1.00000000e+00 
 3.13251310e-04  1.69984124e+00 -9.87469948e-02  1.00000000e+00 
 3.15251310e-04  1.70015867e+00 -9.87389948e-02  1.00000000e+00 
 3.17251310e-04  1.69984126e+00 -9.87309948e-02  1.00000000e+00 
 3.19251310e-04  1.70015865e+00 -9.87229948e-02  1.00000000e+00 
 3.21251310e-04  1.69984127e+00 -9.87149948e-02  1.00000000e+00 
 3.23251310e-04  1.70015864e+00 -9.87069948e-02  1.00000000e+00 
 3.25251310e-04  1.69984129e+00 -9.86989948e-02  1.00000000e+00 
 3.27251310e-04  1.70015862e+00 -9.86909948e-02  1.00000000e+00 
 3.29251310e-04  1.69984131e+00 -9.86829948e-02  1.00000000e+00 
 3.31251310e-04  1.70015860e+00 -9.86749948e-02  1.00000000e+00 
 3.33251310e-04  1.69984132e+00 -9.86669948e-02  1.00000000e+00 
 3.35251310e-04  1.70015859e+00 -9.86589948e-02  1.00000000e+00 
 3.37251310e-04  1.69984134e+00 -9.86509948e-02  1.00000000e+00 
 3.39251310e-04  1.70015857e+00 -9.86429948e-02  1.00000000e+00 
 3.41251310e-04  1.69984135e+00 -9.86349948e-02  1.00000000e+00 
 3.43251310e-04  1.70015856e+00 -9.86269948e-02  1.00000000e+00 
 3.45251310e-04  1.69984137e+00 -9.86189948e-02  1.00000000e+00 
 3.47251310e-04  1.70015854e+00 -9.86109948e-02  1.00000000e+00 
 3.49251310e-04  1.69984139e+00 -9.86029948e-02  1.00000000e+00 
 3.51251310e-04  1.70015852e+00 -9.85949948e-02  1.00000000e+00 
 3.53251310e-04  1.69984140e+00 -9.85869948e-02  1.00000000e+00 
 3.55251310e-04  1.70015851e+00 -9.85789948e-02  1.00000000e+00 
 3.57251310e-04  1.69984142e+00 -9.85709948e-02  1.00000000e+00 
 3.59251310e-04  1.70015849e+00 -9.85629948e-02  1.00000000e+00 
 3.61251310e-04  1.69984143e+00 -9.85549948e-02  1.00000000e+00 
 3.63251310e-04  1.70015848e+00 -9.85469948e-02  1.00000000e+00 
 3.65251310e-04  1.69984145e+00 -9.85389948e-02  1.00000000e+00 
 3.67251310e-04  1.70015846e+00 -9.85309948e-02  1.00000000e+00 
 3.69251310e-04  1.69984147e+00 -9.85229948e-02  1.00000000e+00 
 3.71251310e-04  1.70015844e+00 -9.85149948e-02  1.00000000e+00 
 3.73251310e-04  1.69984148e+00 -9.85069948e-02  1.00000000e+00 
 3.75251310e-04  1.70015843e+00 -9.84989948e-02  1.00000000e+00 
 3.77251310e-04  1.69984150e+00 -9.84909948e-02  1.00000000e+00 
 3.79251310e-04  1.70015841e+00 -9.84829948e-02  1.00000000e+00 
 3.81251310e-04  1.69984151e+00 -9.84749948e-02  1.00000000e+00 
 3.83251310e-04  1.70015839e+00 -9.84669948e-02  1.00000000e+00 
 3.85251310e-04  1.69984153e+00 -9.84589948e-02  1.00000000e+00 
 3.87251310e-04  1.70015838e+00 -9.84509948e-02  1.00000000e+00 
 3.89251310e-04  1.69984155e+00 -9.84429948e-02  1.00000000e+00 
 3.91251310e-04  1.70015836e+00 -9.84349948e-02  1.00000000e+00 
 3.93251310e-04  1.69984156e+00 -9.84269948e-02  1.00000000e+00 
 3.95251310e-04  1.70015835e+00 -9.84189948e-02  1.00000000e+00 
 3.97251310e-04  1.69984158e+00 -9.84109948e-02  1.00000000e+00 
 3.99251310e-04  1.70015833e+00 -9.84029948e-02  1.00000000e+00 
 4.01251310e-04  1.69984159e+00 -9.83949948e-02  1.00000000e+00 
 4.03251310e-04  1.70015831e+00 -9.83869948e-02  1.00000000e+00 
 4.05251310e-04  1.69984161e+00 -9.83789948e-02  1.00000000e+00 
 4.07251310e-04  1.70015830e+00 -9.83709948e-02  1.00000000e+00 
 4.09251310e-04  1.69984163e+00 -9.83629948e-02  1.00000000e+00 
 4.11251310e-04  1.70015828e+00 -9.83549948e-02  1.00000000e+00 
 4.13251310e-04  1.69984164e+00 -9.83469948e-02  1.00000000e+00 
 4.15251310e-04  1.70015827e+00 -9.83389948e-02  1.00000000e+00 
 4.17251310e-04  1.69984166e+00 -9.83309948e-02  1.00000000e+00 
 4.19251310e-04  1.70015825e+00 -9.83229948e-02  1.00000000e+00 
 4.21251310e-04  1.69984168e+00 -9.83149948e-02  1.00000000e+00 
 4.23251310e-04  1.70015823e+00 -9.83069948e-02  1.00000000e+00 
 4.25251310e-04  1.69984169e+00 -9.82989948e-02  1.00000000e+00 
 4.27251310e-04  1.70015822e+00 -9.82909948e-02  1.00000000e+00 
 4.29251310e-04  1.69984171e+00 -9.82829948e-02  1.00000000e+00 
 4.31251310e-04  1.70015820e+00 -9.82749948e-02  1.00000000e+00 
 4.33251310e-04  1.69984172e+00 -9.82669948e-02  1.00000000e+00 
 4.35251310e-04  1.70015819e+00 -9.82589948e-02  1.00000000e+00 
 4.37251310e-04  1.69984174e+00 -9.82509948e-02  1.00000000e+00 
 4.39251310e-04  1.70015817e+00 -9.82429948e-02  1.00000000e+00 
 4.41251310e-04  1.69984176e+00 -9.82349948e-02  1.00000000e+00 
 4.43251310e-04  1.70015815e+00 -9.82269948e-02  1.00000000e+00 
 4.45251310e-04  1.69984177e+00 -9.82189948e-02  1.00000000e+00 
 4.47251310e-04  1.70015814e+00 -9.82109948e-02  1.00000000e+00 
 4.49251310e-04  1.69984179e+00 -9.82029948e-02  1.00000000e+00 
 4.51251310e-04  1.70015812e+00 -9.81949948e-02  1.00000000e+00 
 4.53251310e-04  1.69984180e+00 -9.81869948e-02  1.00000000e+00 
 4.55251310e-04  1.70015811e+00 -9.81789948e-02  1.00000000e+00 
 4.57251310e-04  1.69984182e+00 -9.81709948e-02  1.00000000e+00 
 4.59251310e-04  1.70015809e+00 -9.81629948e-02  1.00000000e+00 
 4.61251310e-04  1.69984184e+00 -9.81549948e-02  1.00000000e+00 
 4.63251310e-04  1.70015807e+00 -9.81469948e-02  1.00000000e+00 
 4.65251310e-04  1.69984185e+00 -9.81389948e-02  1.00000000e+00 
 4.67251310e-04  1.70015806e+00 -9.81309948e-02  1.00000000e+00 
 4.69251310e-04  1.69984187e+00 -9.81229948e-02  1.00000000e+00 
 4.71251310e-04  1.70015804e+00 -9.81149948e-02  1.00000000e+00 
 4.73251310e-04  1.69984188e+00 -9.81069948e-02  1.00000000e+00 
 4.75251310e-04  1.70015803e+00 -9.80989948e-02  1.00000000e+00 
 4.77251310e-04  1.69984190e+00 -9.80909948e-02  1.00000000e+00 
 4.79251310e-04  1.70015801e+00 -9.80829948e-02  1.00000000e+00 
 4.81251310e-04  1.69984192e+00 -9.80749948e-02  1.00000000e+00 
 4.83251310e-04  1.70015799e+00 -9.80669948e-02  1.00000000e+00 
 4.85251310e-04  1.69984193e+00 -9.80589948e-02  1.00000000e+00 
 4.87251310e-04  1.70015798e+00 -9.80509948e-02  1.00000000e+00 
 4.89251310e-04  1.69984195e+00 -9.80429948e-02  1.00000000e+00 
 4.91251310e-04  1.70015796e+00 -9.80349948e-02  1.00000000e+00 
 4.93251310e-04  1.69984196e+00 -9.80269948e-02  1.00000000e+00 
 4.95251310e-04  1.70015795e+00 -9.80189948e-02  1.00000000e+00 
 4.97251310e-04  1.69984198e+00 -9.80109948e-02  1.00000000e+00 
 4.99251310e-04  1.70015793e+00 -9.80029948e-02  1.00000000e+00 
 5.00100100e-04  1.69984201e+00 -9.79995996e-02  1.00000000e+00 
 5.00100110e-04  1.69985010e+00 -9.79995996e-02  1.00000000e+00 
 5.00100130e-04  1.69993242e+00 -9.79995995e-02  1.00000000e+00 
 5.00100170e-04  1.69996101e+00 -9.79995993e-02  1.00000000e+00 
 5.00100200e-04  1.70017541e+00 -9.79995992e-02  1.00000000e+00 
 5.00100208e-04  1.70029683e+00 -9.79995992e-02  1.00000000e+00 
 5.00100224e-04  1.70027412e+00 -9.79995991e-02  1.00000000e+00 
 5.00100256e-04  1.69984306e+00 -9.79995990e-02  1.00000000e+00 
 5.00100320e-04  1.69863397e+00 -9.79995987e-02  1.00000000e+00 
