 time            v(Q)            v(A)-v(B)       v(B)           
 0.00000000e+00  4.64710673e-09  1.00000000e+00  0.00000000e+00 
 1.00000000e-09  4.64711261e-09  1.00000000e+00  0.00000000e+00 
 2.00000000e-09  4.64711269e-09  1.00000001e+00  0.00000000e+00 
 4.00000000e-09  4.64711264e-09  1.00000002e+00  0.00000000e+00 
 8.00000000e-09  4.64711263e-09  1.00000003e+00  0.00000000e+00 
 1.60000000e-08  4.64711262e-09  1.00000006e+00  0.00000000e+00 
 3.20000000e-08  4.64711266e-09  1.00000013e+00  0.00000000e+00 
 6.40000000e-08  4.64711257e-09  1.00000026e+00  0.00000000e+00 
 1.00000000e-07  4.64711254e-09  1.00000040e+00  0.00000000e+00 
 1.00010000e-07  1.62268634e-05  1.00000040e+00  0.00000000e+00 
 1.00030000e-07 -5.53137380e-06  1.00000040e+00  0.00000000e+00 
 1.00070000e-07 -2.74268866e-05  1.00000040e+00  0.00000000e+00 
 1.00100000e-07 -4.80407926e-05  1.00000040e+00  0.00000000e+00 
 1.00108000e-07 -1.45254434e-05  1.00000040e+00  0.00000000e+00 
 1.00124000e-07 -2.34883180e-05  1.00000040e+00  0.00000000e+00 
 1.00156000e-07 -9.32059030e-05  1.00000040e+00  0.00000000e+00 
 1.00220000e-07  3.04617436e-03  1.00000040e+00  0.00000000e+00 
 1.00304948e-07 -3.40525550e-01  1.00000040e+00  0.00000000e+00 
 1.00390094e-07  1.14656941e+00  1.00000040e+00  0.00000000e+00 
 1.00495529e-07  1.76431497e+00  1.00000040e+00  0.00000000e+00 
 1.00636337e-07  1.65542526e+00  1.00000040e+00  0.00000000e+00 
 1.00880328e-07  1.73451152e+00  1.00000040e+00  0.00000000e+00 
 1.01136173e-07  1.66787520e+00  1.00000040e+00  0.00000000e+00 
 1.01647863e-07  1.72867189e+00  1.00000041e+00  0.00000000e+00 
 1.02417428e-07  1.67035569e+00  1.00000041e+00  0.00000000e+00 
 1.03758979e-07  1.72720899e+00  1.00000042e+00  0.00000000e+00 
 1.06032360e-07  1.67122009e+00  1.00000042e+00  0.00000000e+00 
 1.10298158e-07  1.72677648e+00  1.00000044e+00  0.00000000e+00 
 1.18829753e-07  1.67146282e+00  1.00000048e+00  0.00000000e+00 
 1.35892945e-07  1.72666730e+00  1.00000054e+00  0.00000000e+00 
 1.70019327e-07  1.67152207e+00  1.00000068e+00  0.00000000e+00 
 2.38272092e-07  1.72664023e+00  1.00000095e+00  0.00000000e+00 
 3.74777622e-07  1.67153682e+00  1.00000150e+00  0.00000000e+00 
 6.47788681e-07  1.72663347e+00  1.00000259e+00  0.00000000e+00 
 1.19381080e-06  1.67154050e+00  1.00000478e+00  0.00000000e+00 
 2.28585504e-06  1.72663178e+00  1.00000914e+00  0.00000000e+00 
 4.28585504e-06  1.67154030e+00  1.00001714e+00  0.00000000e+00 
 6.28585504e-06  1.72671337e+00  1.00002514e+00  0.00000000e+00 
 8.28585504e-06  1.67153939e+00  1.00003314e+00  0.00000000e+00 
 1.02858550e-05  1.72671302e+00  1.00004114e+00  0.00000000e+00 
 1.22858550e-05  1.67154006e+00  1.00004914e+00  0.00000000e+00 
 1.42858550e-05  1.72671239e+00  1.00005714e+00  0.00000000e+00 
 1.62858550e-05  1.67154074e+00  1.00006514e+00  0.00000000e+00 
 1.82858550e-05  1.72671177e+00  1.00007314e+00  0.00000000e+00 
 2.02858550e-05  1.67154141e+00  1.00008114e+00  0.00000000e+00 
 2.22858550e-05  1.72671114e+00  1.00008914e+00  0.00000000e+00 
 2.42858550e-05  1.67154208e+00  1.00009714e+00  0.00000000e+00 
 2.62858550e-05  1.72671051e+00  1.00010514e+00  0.00000000e+00 
 2.82858550e-05  1.67154276e+00  1.00011314e+00  0.00000000e+00 
 3.02858550e-05  1.72670989e+00  1.00012114e+00  0.00000000e+00 
 3.22858550e-05  1.67154343e+00  1.00012914e+00  0.00000000e+00 
 3.42858550e-05  1.72670926e+00  1.00013714e+00  0.00000000e+00 
 3.62858550e-05  1.67154411e+00  1.00014514e+00  0.00000000e+00 
 3.82858550e-05  1.72670864e+00  1.00015314e+00  0.00000000e+00 
 4.02858550e-05  1.67154478e+00  1.00016114e+00  0.00000000e+00 
 4.22858550e-05  1.72670801e+00  1.00016914e+00  0.00000000e+00 
 4.42858550e-05  1.67154545e+00  1.00017714e+00  0.00000000e+00 
 4.62858550e-05  1.72670739e+00  1.00018514e+00  0.00000000e+00 
 4.82858550e-05  1.67154613e+00  1.00019314e+00  0.00000000e+00 
 5.02858550e-05  1.72670676e+00  1.00020114e+00  0.00000000e+00 
 5.22858550e-05  1.67154680e+00  1.00020914e+00  0.00000000e+00 
 5.42858550e-05  1.72670613e+00  1.00021714e+00  0.00000000e+00 
 5.62858550e-05  1.67154747e+00  1.00022514e+00  0.00000000e+00 
 5.82858550e-05  1.72670551e+00  1.00023314e+00  0.00000000e+00 
 6.02858550e-05  1.67154815e+00  1.00024114e+00  0.00000000e+00 
 6.22858550e-05  1.72670488e+00  1.00024914e+00  0.00000000e+00 
 6.42858550e-05  1.67154882e+00  1.00025714e+00  0.00000000e+00 
 6.62858550e-05  1.72670426e+00  1.00026514e+00  0.00000000e+00 
 6.82858550e-05  1.67154950e+00  1.00027314e+00  0.00000000e+00 
 7.02858550e-05  1.72670363e+00  1.00028114e+00  0.00000000e+00 
 7.22858550e-05  1.67155017e+00  1.00028914e+00  0.00000000e+00 
 7.42858550e-05  1.72670300e+00  1.00029714e+00  0.00000000e+00 
 7.62858550e-05  1.67155084e+00  1.00030514e+00  0.00000000e+00 
 7.82858550e-05  1.72670238e+00  1.00031314e+00  0.00000000e+00 
 8.02858550e-05  1.67155152e+00  1.00032114e+00  0.00000000e+00 
 8.22858550e-05  1.72670175e+00  1.00032914e+00  0.00000000e+00 
 8.42858550e-05  1.67155219e+00  1.00033714e+00  0.00000000e+00 
 8.62858550e-05  1.72670113e+00  1.00034514e+00  0.00000000e+00 
 8.82858550e-05  1.67155286e+00  1.00035314e+00  0.00000000e+00 
 9.02858550e-05  1.72670050e+00  1.00036114e+00  0.00000000e+00 
 9.22858550e-05  1.67155354e+00  1.00036914e+00  0.00000000e+00 
 9.42858550e-05  1.72669988e+00  1.00037714e+00  0.00000000e+00 
 9.62858550e-05  1.67155421e+00  1.00038514e+00  0.00000000e+00 
 9.82858550e-05  1.72669925e+00  1.00039314e+00  0.00000000e+00 
 1.00285855e-04  1.67155488e+00  1.00040114e+00  0.00000000e+00 
 1.02285855e-04  1.72669862e+00  1.00040914e+00  0.00000000e+00 
 1.04285855e-04  1.67155556e+00  1.00041714e+00  0.00000000e+00 
 1.06285855e-04  1.72669800e+00  1.00042514e+00  0.00000000e+00 
 1.08285855e-04  1.67155623e+00  1.00043314e+00  0.00000000e+00 
 1.10285855e-04  1.72669737e+00  1.00044114e+00  0.00000000e+00 
 1.12285855e-04  1.67155691e+00  1.00044914e+00  0.00000000e+00 
 1.14285855e-04  1.72669675e+00  1.00045714e+00  0.00000000e+00 
 1.16285855e-04  1.67155758e+00  1.00046514e+00  0.00000000e+00 
 1.18285855e-04  1.72669612e+00  1.00047314e+00  0.00000000e+00 
 1.20285855e-04  1.67155825e+00  1.00048114e+00  0.00000000e+00 
 1.22285855e-04  1.72669549e+00  1.00048914e+00  0.00000000e+00 
 1.24285855e-04  1.67155893e+00  1.00049714e+00  0.00000000e+00 
 1.26285855e-04  1.72669487e+00  1.00050514e+00  0.00000000e+00 
 1.28285855e-04  1.67155960e+00  1.00051314e+00  0.00000000e+00 
 1.30285855e-04  1.72669424e+00  1.00052114e+00  0.00000000e+00 
 1.32285855e-04  1.67156027e+00  1.00052914e+00  0.00000000e+00 
 1.34285855e-04  1.72669362e+00  1.00053714e+00  0.00000000e+00 
 1.36285855e-04  1.67156095e+00  1.00054514e+00  0.00000000e+00 
 1.38285855e-04  1.72669299e+00  1.00055314e+00  0.00000000e+00 
 1.40285855e-04  1.67156162e+00  1.00056114e+00  0.00000000e+00 
 1.42285855e-04  1.72669237e+00  1.00056914e+00  0.00000000e+00 
 1.44285855e-04  1.67156230e+00  1.00057714e+00  0.00000000e+00 
 1.46285855e-04  1.72669174e+00  1.00058514e+00  0.00000000e+00 
 1.48285855e-04  1.67156297e+00  1.00059314e+00  0.00000000e+00 
 1.50285855e-04  1.72669111e+00  1.00060114e+00  0.00000000e+00 
 1.52285855e-04  1.67156364e+00  1.00060914e+00  0.00000000e+00 
 1.54285855e-04  1.72669049e+00  1.00061714e+00  0.00000000e+00 
 1.56285855e-04  1.67156432e+00  1.00062514e+00  0.00000000e+00 
 1.58285855e-04  1.72668986e+00  1.00063314e+00  0.00000000e+00 
 1.60285855e-04  1.67156499e+00  1.00064114e+00  0.00000000e+00 
 1.62285855e-04  1.72668924e+00  1.00064914e+00  0.00000000e+00 
 1.64285855e-04  1.67156566e+00  1.00065714e+00  0.00000000e+00 
 1.66285855e-04  1.72668861e+00  1.00066514e+00  0.00000000e+00 
 1.68285855e-04  1.67156634e+00  1.00067314e+00  0.00000000e+00 
 1.70285855e-04  1.72668798e+00  1.00068114e+00  0.00000000e+00 
 1.72285855e-04  1.67156701e+00  1.00068914e+00  0.00000000e+00 
 1.74285855e-04  1.72668736e+00  1.00069714e+00  0.00000000e+00 
 1.76285855e-04  1.67156768e+00  1.00070514e+00  0.00000000e+00 
 1.78285855e-04  1.72668673e+00  1.00071314e+00  0.00000000e+00 
 1.80285855e-04  1.67156836e+00  1.00072114e+00  0.00000000e+00 
 1.82285855e-04  1.72668611e+00  1.00072914e+00  0.00000000e+00 
 1.84285855e-04  1.67156903e+00  1.00073714e+00  0.00000000e+00 
 1.86285855e-04  1.72668548e+00  1.00074514e+00  0.00000000e+00 
 1.88285855e-04  1.67156971e+00  1.00075314e+00  0.00000000e+00 
 1.90285855e-04  1.72668486e+00  1.00076114e+00  0.00000000e+00 
 1.92285855e-04  1.67157038e+00  1.00076914e+00  0.00000000e+00 
 1.94285855e-04  1.72668423e+00  1.00077714e+00  0.00000000e+00 
 1.96285855e-04  1.67157105e+00  1.00078514e+00  0.00000000e+00 
 1.98285855e-04  1.72668360e+00  1.00079314e+00  0.00000000e+00 
 2.00000000e-04  1.67182846e+00  1.00080000e+00  0.00000000e+00 
 2.00200000e-04  1.69999835e+00 -9.91992000e-02  1.10000000e+00 
 2.00600000e-04  1.70000160e+00 -9.91976000e-02  1.10000000e+00 
 2.00981367e-04  1.69999835e+00 -9.91960745e-02  1.10000000e+00 
 2.01405403e-04  1.70000159e+00 -9.91943784e-02  1.10000000e+00 
 2.02253476e-04  1.69999835e+00 -9.91909861e-02  1.10000000e+00 
 2.03949622e-04  1.70000159e+00 -9.91842015e-02  1.10000000e+00 
 2.05949622e-04  1.69999835e+00 -9.91762015e-02  1.10000000e+00 
 2.07949622e-04  1.70000159e+00 -9.91682015e-02  1.10000000e+00 
 2.09949622e-04  1.69999835e+00 -9.91602015e-02  1.10000000e+00 
 2.11949622e-04  1.70000159e+00 -9.91522015e-02  1.10000000e+00 
 2.13949622e-04  1.69999835e+00 -9.91442015e-02  1.10000000e+00 
 2.15949622e-04  1.70000159e+00 -9.91362015e-02  1.10000000e+00 
 2.17949622e-04  1.69999835e+00 -9.91282015e-02  1.10000000e+00 
 2.19949622e-04  1.70000159e+00 -9.91202015e-02  1.10000000e+00 
 2.21949622e-04  1.69999835e+00 -9.91122015e-02  1.10000000e+00 
 2.23949622e-04  1.70000159e+00 -9.91042015e-02  1.10000000e+00 
 2.25949622e-04  1.69999835e+00 -9.90962015e-02  1.10000000e+00 
 2.27949622e-04  1.70000159e+00 -9.90882015e-02  1.10000000e+00 
 2.29949622e-04  1.69999835e+00 -9.90802015e-02  1.10000000e+00 
 2.31949622e-04  1.70000159e+00 -9.90722015e-02  1.10000000e+00 
 2.33949622e-04  1.69999835e+00 -9.90642015e-02  1.10000000e+00 
 2.35949622e-04  1.70000159e+00 -9.90562015e-02  1.10000000e+00 
 2.37949622e-04  1.69999835e+00 -9.90482015e-02  1.10000000e+00 
 2.39949622e-04  1.70000159e+00 -9.90402015e-02  1.10000000e+00 
 2.41949622e-04  1.69999835e+00 -9.90322015e-02  1.10000000e+00 
 2.43949622e-04  1.70000159e+00 -9.90242015e-02  1.10000000e+00 
 2.45949622e-04  1.69999835e+00 -9.90162015e-02  1.10000000e+00 
 2.47949622e-04  1.70000159e+00 -9.90082015e-02  1.10000000e+00 
 2.49949622e-04  1.69999835e+00 -9.90002015e-02  1.10000000e+00 
 2.51949622e-04  1.70000159e+00 -9.89922015e-02  1.10000000e+00 
 2.53949622e-04  1.69999835e+00 -9.89842015e-02  1.10000000e+00 
 2.55949622e-04  1.70000159e+00 -9.89762015e-02  1.10000000e+00 
 2.57949622e-04  1.69999835e+00 -9.89682015e-02  1.10000000e+00 
 2.59949622e-04  1.70000159e+00 -9.89602015e-02  1.10000000e+00 
 2.61949622e-04  1.69999835e+00 -9.89522015e-02  1.10000000e+00 
 2.63949622e-04  1.70000159e+00 -9.89442015e-02  1.10000000e+00 
 2.65949622e-04  1.69999835e+00 -9.89362015e-02  1.10000000e+00 
 2.67949622e-04  1.70000159e+00 -9.89282015e-02  1.10000000e+00 
 2.69949622e-04  1.69999836e+00 -9.89202015e-02  1.10000000e+00 
 2.71949622e-04  1.70000159e+00 -9.89122015e-02  1.10000000e+00 
 2.73949622e-04  1.69999836e+00 -9.89042015e-02  1.10000000e+00 
 2.75949622e-04  1.70000159e+00 -9.88962015e-02  1.10000000e+00 
 2.77949622e-04  1.69999836e+00 -9.88882015e-02  1.10000000e+00 
 2.79949622e-04  1.70000159e+00 -9.88802015e-02  1.10000000e+00 
 2.81949622e-04  1.69999836e+00 -9.88722015e-02  1.10000000e+00 
 2.83949622e-04  1.70000159e+00 -9.88642015e-02  1.10000000e+00 
 2.85949622e-04  1.69999836e+00 -9.88562015e-02  1.10000000e+00 
 2.87949622e-04  1.70000159e+00 -9.88482015e-02  1.10000000e+00 
 2.89949622e-04  1.69999836e+00 -9.88402015e-02  1.10000000e+00 
 2.91949622e-04  1.70000159e+00 -9.88322015e-02  1.10000000e+00 
 2.93949622e-04  1.69999836e+00 -9.88242015e-02  1.10000000e+00 
 2.95949622e-04  1.70000159e+00 -9.88162015e-02  1.10000000e+00 
 2.97949622e-04  1.69999836e+00 -9.88082015e-02  1.10000000e+00 
 2.99949622e-04  1.70000159e+00 -9.88002015e-02  1.10000000e+00 
 3.01949622e-04  1.69999836e+00 -9.87922015e-02  1.10000000e+00 
 3.03949622e-04  1.70000159e+00 -9.87842015e-02  1.10000000e+00 
 3.05949622e-04  1.69999836e+00 -9.87762015e-02  1.10000000e+00 
 3.07949622e-04  1.70000159e+00 -9.87682015e-02  1.10000000e+00 
 3.09949622e-04  1.69999836e+00 -9.87602015e-02  1.10000000e+00 
 3.11949622e-04  1.70000159e+00 -9.87522015e-02  1.10000000e+00 
 3.13949622e-04  1.69999836e+00 -9.87442015e-02  1.10000000e+00 
 3.15949622e-04  1.70000159e+00 -9.87362015e-02  1.10000000e+00 
 3.17949622e-04  1.69999836e+00 -9.87282015e-02  1.10000000e+00 
 3.19949622e-04  1.70000159e+00 -9.87202015e-02  1.10000000e+00 
 3.21949622e-04  1.69999836e+00 -9.87122015e-02  1.10000000e+00 
 3.23949622e-04  1.70000159e+00 -9.87042015e-02  1.10000000e+00 
 3.25949622e-04  1.69999836e+00 -9.86962015e-02  1.10000000e+00 
 3.27949622e-04  1.70000159e+00 -9.86882015e-02  1.10000000e+00 
 3.29949622e-04  1.69999836e+00 -9.86802015e-02  1.10000000e+00 
 3.31949622e-04  1.70000159e+00 -9.86722015e-02  1.10000000e+00 
 3.33949622e-04  1.69999836e+00 -9.86642015e-02  1.10000000e+00 
 3.35949622e-04  1.70000159e+00 -9.86562015e-02  1.10000000e+00 
 3.37949622e-04  1.69999836e+00 -9.86482015e-02  1.10000000e+00 
 3.39949622e-04  1.70000159e+00 -9.86402015e-02  1.10000000e+00 
 3.41949622e-04  1.69999836e+00 -9.86322015e-02  1.10000000e+00 
 3.43949622e-04  1.70000159e+00 -9.86242015e-02  1.10000000e+00 
 3.45949622e-04  1.69999836e+00 -9.86162015e-02  1.10000000e+00 
 3.47949622e-04  1.70000159e+00 -9.86082015e-02  1.10000000e+00 
 3.49949622e-04  1.69999836e+00 -9.86002015e-02  1.10000000e+00 
 3.51949622e-04  1.70000159e+00 -9.85922015e-02  1.10000000e+00 
 3.53949622e-04  1.69999836e+00 -9.85842015e-02  1.10000000e+00 
 3.55949622e-04  1.70000159e+00 -9.85762015e-02  1.10000000e+00 
 3.57949622e-04  1.69999836e+00 -9.85682015e-02  1.10000000e+00 
 3.59949622e-04  1.70000159e+00 -9.85602015e-02  1.10000000e+00 
 3.61949622e-04  1.69999836e+00 -9.85522015e-02  1.10000000e+00 
 3.63949622e-04  1.70000159e+00 -9.85442015e-02  1.10000000e+00 
 3.65949622e-04  1.69999836e+00 -9.85362015e-02  1.10000000e+00 
 3.67949622e-04  1.70000159e+00 -9.85282015e-02  1.10000000e+00 
 3.69949622e-04  1.69999836e+00 -9.85202015e-02  1.10000000e+00 
 3.71949622e-04  1.70000159e+00 -9.85122015e-02  1.10000000e+00 
 3.73949622e-04  1.69999836e+00 -9.85042015e-02  1.10000000e+00 
 3.75949622e-04  1.70000159e+00 -9.84962015e-02  1.10000000e+00 
 3.77949622e-04  1.69999836e+00 -9.84882015e-02  1.10000000e+00 
 3.79949622e-04  1.70000159e+00 -9.84802015e-02  1.10000000e+00 
 3.81949622e-04  1.69999836e+00 -9.84722015e-02  1.10000000e+00 
 3.83949622e-04  1.70000159e+00 -9.84642015e-02  1.10000000e+00 
 3.85949622e-04  1.69999836e+00 -9.84562015e-02  1.10000000e+00 
 3.87949622e-04  1.70000159e+00 -9.84482015e-02  1.10000000e+00 
 3.89949622e-04  1.69999836e+00 -9.84402015e-02  1.10000000e+00 
 3.91949622e-04  1.70000159e+00 -9.84322015e-02  1.10000000e+00 
 3.93949622e-04  1.69999836e+00 -9.84242015e-02  1.10000000e+00 
 3.95949622e-04  1.70000159e+00 -9.84162015e-02  1.10000000e+00 
 3.97949622e-04  1.69999836e+00 -9.84082015e-02  1.10000000e+00 
 3.99949622e-04  1.70000159e+00 -9.84002015e-02  1.10000000e+00 
 4.01949622e-04  1.69999836e+00 -9.83922015e-02  1.10000000e+00 
 4.03949622e-04  1.70000159e+00 -9.83842015e-02  1.10000000e+00 
 4.05949622e-04  1.69999836e+00 -9.83762015e-02  1.10000000e+00 
 4.07949622e-04  1.70000159e+00 -9.83682015e-02  1.10000000e+00 
 4.09949622e-04  1.69999836e+00 -9.83602015e-02  1.10000000e+00 
 4.11949622e-04  1.70000158e+00 -9.83522015e-02  1.10000000e+00 
 4.13949622e-04  1.69999836e+00 -9.83442015e-02  1.10000000e+00 
 4.15949622e-04  1.70000158e+00 -9.83362015e-02  1.10000000e+00 
 4.17949622e-04  1.69999836e+00 -9.83282015e-02  1.10000000e+00 
 4.19949622e-04  1.70000158e+00 -9.83202015e-02  1.10000000e+00 
 4.21949622e-04  1.69999836e+00 -9.83122015e-02  1.10000000e+00 
 4.23949622e-04  1.70000158e+00 -9.83042015e-02  1.10000000e+00 
 4.25949622e-04  1.69999836e+00 -9.82962015e-02  1.10000000e+00 
 4.27949622e-04  1.70000158e+00 -9.82882015e-02  1.10000000e+00 
 4.29949622e-04  1.69999836e+00 -9.82802015e-02  1.10000000e+00 
 4.31949622e-04  1.70000158e+00 -9.82722015e-02  1.10000000e+00 
 4.33949622e-04  1.69999836e+00 -9.82642015e-02  1.10000000e+00 
 4.35949622e-04  1.70000158e+00 -9.82562015e-02  1.10000000e+00 
 4.37949622e-04  1.69999836e+00 -9.82482015e-02  1.10000000e+00 
 4.39949622e-04  1.70000158e+00 -9.82402015e-02  1.10000000e+00 
 4.41949622e-04  1.69999836e+00 -9.82322015e-02  1.10000000e+00 
 4.43949622e-04  1.70000158e+00 -9.82242015e-02  1.10000000e+00 
 4.45949622e-04  1.69999836e+00 -9.82162015e-02  1.10000000e+00 
 4.47949622e-04  1.70000158e+00 -9.82082015e-02  1.10000000e+00 
 4.49949622e-04  1.69999836e+00 -9.82002015e-02  1.10000000e+00 
 4.51949622e-04  1.70000158e+00 -9.81922015e-02  1.10000000e+00 
 4.53949622e-04  1.69999836e+00 -9.81842015e-02  1.10000000e+00 
 4.55949622e-04  1.70000158e+00 -9.81762015e-02  1.10000000e+00 
 4.57949622e-04  1.69999836e+00 -9.81682015e-02  1.10000000e+00 
 4.59949622e-04  1.70000158e+00 -9.81602015e-02  1.10000000e+00 
 4.61949622e-04  1.69999836e+00 -9.81522015e-02  1.10000000e+00 
 4.63949622e-04  1.70000158e+00 -9.81442015e-02  1.10000000e+00 
 4.65949622e-04  1.69999836e+00 -9.81362015e-02  1.10000000e+00 
 4.67949622e-04  1.70000158e+00 -9.81282015e-02  1.10000000e+00 
 4.69949622e-04  1.69999836e+00 -9.81202015e-02  1.10000000e+00 
 4.71949622e-04  1.70000158e+00 -9.81122015e-02  1.10000000e+00 
 4.73949622e-04  1.69999836e+00 -9.81042015e-02  1.10000000e+00 
 4.75949622e-04  1.70000158e+00 -9.80962015e-02  1.10000000e+00 
 4.77949622e-04  1.69999836e+00 -9.80882015e-02  1.10000000e+00 
 4.79949622e-04  1.70000158e+00 -9.80802015e-02  1.10000000e+00 
 4.81949622e-04  1.69999836e+00 -9.80722015e-02  1.10000000e+00 
 4.83949622e-04  1.70000158e+00 -9.80642015e-02  1.10000000e+00 
 4.85949622e-04  1.69999836e+00 -9.80562015e-02  1.10000000e+00 
 4.87949622e-04  1.70000158e+00 -9.80482015e-02  1.10000000e+00 
 4.89949622e-04  1.69999836e+00 -9.80402015e-02  1.10000000e+00 
 4.91949622e-04  1.70000158e+00 -9.80322015e-02  1.10000000e+00 
 4.93949622e-04  1.69999836e+00 -9.80242015e-02  1.10000000e+00 
 4.95949622e-04  1.70000158e+00 -9.80162015e-02  1.10000000e+00 
 4.97949622e-04  1.69999836e+00 -9.80082015e-02  1.10000000e+00 
 4.99949622e-04  1.70000158e+00 -9.80002015e-02  1.10000000e+00 
 5.00100100e-04  1.69999836e+00 -9.79995996e-02  1.10000000e+00 
 5.00100110e-04  1.69995760e+00 -9.79995996e-02  1.10000000e+00 
 5.00100130e-04  1.69998417e+00 -9.79995995e-02  1.10000000e+00 
 5.00100170e-04  1.69997016e+00 -9.79995993e-02  1.10000000e+00 
 5.00100200e-04  1.70018135e+00 -9.79995992e-02  1.10000000e+00 
 5.00100208e-04  1.70030637e+00 -9.79995992e-02  1.10000000e+00 
 5.00100224e-04  1.70027572e+00 -9.79995991e-02  1.10000000e+00 
 5.00100256e-04  1.69984639e+00 -9.79995990e-02  1.10000000e+00 
 5.00100320e-04  1.69860815e+00 -9.79995987e-02  1.10000000e+00 
 5.00100448e-04  1.70246390e+00 -9.79995982e-02  1.10000000e+00 
 5.00100576e-04  1.69953228e+00 -9.79995977e-02  1.10000000e+00 
 5.00100740e-04  1.69987971e+00 -9.79995970e-02  1.10000000e+00 
 5.00100972e-04  1.70030626e+00 -9.79995961e-02  1.10000000e+00 
 5.00101435e-04  1.69964219e+00 -9.79995943e-02  1.10000000e+00 
 5.00102191e-04  1.70038075e+00 -9.79995912e-02  1.10000000e+00 
 5.00103555e-04  1.69960683e+00 -9.79995858e-02  1.10000000e+00 
 5.00106045e-04  1.70039788e+00 -9.79995758e-02  1.10000000e+00 
