 time            v(Q)            v(A)-v(B)       v(B)           
 0.00000000e+00  2.67657749e-09  9.00000000e-01  0.00000000e+00 
 1.00000000e-09  2.67657861e-09  9.00000004e-01  0.00000000e+00 
 2.00000000e-09  2.67657756e-09  9.00000008e-01  0.00000000e+00 
 4.00000000e-09  2.67657745e-09  9.00000016e-01  0.00000000e+00 
 8.00000000e-09  2.67657758e-09  9.00000032e-01  0.00000000e+00 
 1.60000000e-08  2.67657750e-09  9.00000064e-01  0.00000000e+00 
 3.20000000e-08  2.67657752e-09  9.00000128e-01  0.00000000e+00 
 6.40000000e-08  2.67657750e-09  9.00000256e-01  0.00000000e+00 
 1.00000000e-07  2.67657752e-09  9.00000400e-01  0.00000000e+00 
 1.00010000e-07  5.98280742e-05  9.00000400e-01  0.00000000e+00 
 1.00030000e-07  1.30373078e-06  9.00000400e-01  0.00000000e+00 
 1.00070000e-07 -5.54275282e-04  9.00000400e-01  0.00000000e+00 
 1.00100000e-07 -3.44592988e-04  9.00000400e-01  0.00000000e+00 
 1.00107620e-07  6.03012460e-04  9.00000400e-01  0.00000000e+00 
 1.00122860e-07  2.09292665e-03  9.00000400e-01  0.00000000e+00 
 1.00153339e-07  1.83568568e-03  9.00000401e-01  0.00000000e+00 
 1.00214299e-07 -1.25716673e-03  9.00000401e-01  0.00000000e+00 
 1.00291807e-07 -4.46985852e-04  9.00000401e-01  0.00000000e+00 
 1.00385699e-07  1.03436828e+00  9.00000402e-01  0.00000000e+00 
 1.00486044e-07  1.65754566e+00  9.00000402e-01  0.00000000e+00 
 1.00626302e-07  1.79766453e+00  9.00000403e-01  0.00000000e+00 
 1.00831708e-07  1.81193353e+00  9.00000403e-01  0.00000000e+00 
 1.01107324e-07  1.78663241e+00  9.00000404e-01  0.00000000e+00 
 1.01603860e-07  1.81439515e+00  9.00000406e-01  0.00000000e+00 
 1.02596932e-07  1.78603875e+00  9.00000410e-01  0.00000000e+00 
 1.04401260e-07  1.81454685e+00  9.00000418e-01  0.00000000e+00 
 1.08009915e-07  1.78596697e+00  9.00000432e-01  0.00000000e+00 
 1.15227227e-07  1.81456738e+00  9.00000461e-01  0.00000000e+00 
 1.29634974e-07  1.78595372e+00  9.00000519e-01  0.00000000e+00 
 1.58450468e-07  1.81457146e+00  9.00000634e-01  0.00000000e+00 
 2.16081455e-07  1.78595080e+00  9.00000864e-01  0.00000000e+00 
 3.31343430e-07  1.81457242e+00  9.00001325e-01  0.00000000e+00 
 5.61867381e-07  1.78595011e+00  9.00002247e-01  0.00000000e+00 
 1.02291528e-06  1.81457266e+00  9.00004092e-01  0.00000000e+00 
 1.94501108e-06  1.78594995e+00  9.00007780e-01  0.00000000e+00 
 3.78920268e-06  1.81457271e+00  9.00015157e-01  0.00000000e+00 
 5.78920268e-06  1.78594726e+00  9.00023157e-01  0.00000000e+00 
 7.78920268e-06  1.81458743e+00  9.00031157e-01  0.00000000e+00 
 9.78920268e-06  1.78594780e+00  9.00039157e-01  0.00000000e+00 
 1.17892027e-05  1.81458746e+00  9.00047157e-01  0.00000000e+00 
 1.37892027e-05  1.78594775e+00  9.00055157e-01  0.00000000e+00 
 1.57892027e-05  1.81458750e+00  9.00063157e-01  0.00000000e+00 
 1.77892027e-05  1.78594771e+00  9.00071157e-01  0.00000000e+00 
 1.97892027e-05  1.81458753e+00  9.00079157e-01  0.00000000e+00 
 2.17892027e-05  1.78594766e+00  9.00087157e-01  0.00000000e+00 
 2.37892027e-05  1.81458756e+00  9.00095157e-01  0.00000000e+00 
 2.57892027e-05  1.78594761e+00  9.00103157e-01  0.00000000e+00 
 2.77892027e-05  1.81458760e+00  9.00111157e-01  0.00000000e+00 
 2.97892027e-05  1.78594756e+00  9.00119157e-01  0.00000000e+00 
 3.17892027e-05  1.81458763e+00  9.00127157e-01  0.00000000e+00 
 3.37892027e-05  1.78594752e+00  9.00135157e-01  0.00000000e+00 
 3.57892027e-05  1.81458766e+00  9.00143157e-01  0.00000000e+00 
 3.77892027e-05  1.78594747e+00  9.00151157e-01  0.00000000e+00 
 3.97892027e-05  1.81458770e+00  9.00159157e-01  0.00000000e+00 
 4.17892027e-05  1.78594742e+00  9.00167157e-01  0.00000000e+00 
 4.37892027e-05  1.81458773e+00  9.00175157e-01  0.00000000e+00 
 4.57892027e-05  1.78594737e+00  9.00183157e-01  0.00000000e+00 
 4.77892027e-05  1.81458776e+00  9.00191157e-01  0.00000000e+00 
 4.97892027e-05  1.78594733e+00  9.00199157e-01  0.00000000e+00 
 5.17892027e-05  1.81458780e+00  9.00207157e-01  0.00000000e+00 
 5.37892027e-05  1.78594728e+00  9.00215157e-01  0.00000000e+00 
 5.57892027e-05  1.81458783e+00  9.00223157e-01  0.00000000e+00 
 5.77892027e-05  1.78594723e+00  9.00231157e-01  0.00000000e+00 
 5.97892027e-05  1.81458786e+00  9.00239157e-01  0.00000000e+00 
 6.17892027e-05  1.78594718e+00  9.00247157e-01  0.00000000e+00 
 6.37892027e-05  1.81458790e+00  9.00255157e-01  0.00000000e+00 
 6.57892027e-05  1.78594714e+00  9.00263157e-01  0.00000000e+00 
 6.77892027e-05  1.81458793e+00  9.00271157e-01  0.00000000e+00 
 6.97892027e-05  1.78594709e+00  9.00279157e-01  0.00000000e+00 
 7.17892027e-05  1.81458796e+00  9.00287157e-01  0.00000000e+00 
 7.37892027e-05  1.78594704e+00  9.00295157e-01  0.00000000e+00 
 7.57892027e-05  1.81458800e+00  9.00303157e-01  0.00000000e+00 
 7.77892027e-05  1.78594700e+00  9.00311157e-01  0.00000000e+00 
 7.97892027e-05  1.81458803e+00  9.00319157e-01  0.00000000e+00 
 8.17892027e-05  1.78594695e+00  9.00327157e-01  0.00000000e+00 
 8.37892027e-05  1.81458806e+00  9.00335157e-01  0.00000000e+00 
 8.57892027e-05  1.78594690e+00  9.00343157e-01  0.00000000e+00 
 8.77892027e-05  1.81458809e+00  9.00351157e-01  0.00000000e+00 
 8.97892027e-05  1.78594685e+00  9.00359157e-01  0.00000000e+00 
 9.17892027e-05  1.81458813e+00  9.00367157e-01  0.00000000e+00 
 9.37892027e-05  1.78594681e+00  9.00375157e-01  0.00000000e+00 
 9.57892027e-05  1.81458816e+00  9.00383157e-01  0.00000000e+00 
 9.77892027e-05  1.78594676e+00  9.00391157e-01  0.00000000e+00 
 9.97892027e-05  1.81458819e+00  9.00399157e-01  0.00000000e+00 
 1.01789203e-04  1.78594671e+00  9.00407157e-01  0.00000000e+00 
 1.03789203e-04  1.81458823e+00  9.00415157e-01  0.00000000e+00 
 1.05789203e-04  1.78594667e+00  9.00423157e-01  0.00000000e+00 
 1.07789203e-04  1.81458826e+00  9.00431157e-01  0.00000000e+00 
 1.09789203e-04  1.78594662e+00  9.00439157e-01  0.00000000e+00 
 1.11789203e-04  1.81458829e+00  9.00447157e-01  0.00000000e+00 
 1.13789203e-04  1.78594657e+00  9.00455157e-01  0.00000000e+00 
 1.15789203e-04  1.81458832e+00  9.00463157e-01  0.00000000e+00 
 1.17789203e-04  1.78594653e+00  9.00471157e-01  0.00000000e+00 
 1.19789203e-04  1.81458836e+00  9.00479157e-01  0.00000000e+00 
 1.21789203e-04  1.78594648e+00  9.00487157e-01  0.00000000e+00 
 1.23789203e-04  1.81458839e+00  9.00495157e-01  0.00000000e+00 
 1.25789203e-04  1.78594643e+00  9.00503157e-01  0.00000000e+00 
 1.27789203e-04  1.81458842e+00  9.00511157e-01  0.00000000e+00 
 1.29789203e-04  1.78594639e+00  9.00519157e-01  0.00000000e+00 
 1.31789203e-04  1.81458845e+00  9.00527157e-01  0.00000000e+00 
 1.33789203e-04  1.78594634e+00  9.00535157e-01  0.00000000e+00 
 1.35789203e-04  1.81458848e+00  9.00543157e-01  0.00000000e+00 
 1.37789203e-04  1.78594630e+00  9.00551157e-01  0.00000000e+00 
 1.39789203e-04  1.81458852e+00  9.00559157e-01  0.00000000e+00 
 1.41789203e-04  1.78594625e+00  9.00567157e-01  0.00000000e+00 
 1.43789203e-04  1.81458855e+00  9.00575157e-01  0.00000000e+00 
 1.45789203e-04  1.78594620e+00  9.00583157e-01  0.00000000e+00 
 1.47789203e-04  1.81458858e+00  9.00591157e-01  0.00000000e+00 
 1.49789203e-04  1.78594616e+00  9.00599157e-01  0.00000000e+00 
 1.51789203e-04  1.81458861e+00  9.00607157e-01  0.00000000e+00 
 1.53789203e-04  1.78594611e+00  9.00615157e-01  0.00000000e+00 
 1.55789203e-04  1.81458864e+00  9.00623157e-01  0.00000000e+00 
 1.57789203e-04  1.78594606e+00  9.00631157e-01  0.00000000e+00 
 1.59789203e-04  1.81458868e+00  9.00639157e-01  0.00000000e+00 
 1.61789203e-04  1.78594602e+00  9.00647157e-01  0.00000000e+00 
 1.63789203e-04  1.81458871e+00  9.00655157e-01  0.00000000e+00 
 1.65789203e-04  1.78594597e+00  9.00663157e-01  0.00000000e+00 
 1.67789203e-04  1.81458874e+00  9.00671157e-01  0.00000000e+00 
 1.69789203e-04  1.78594593e+00  9.00679157e-01  0.00000000e+00 
 1.71789203e-04  1.81458877e+00  9.00687157e-01  0.00000000e+00 
 1.73789203e-04  1.78594588e+00  9.00695157e-01  0.00000000e+00 
 1.75789203e-04  1.81458880e+00  9.00703157e-01  0.00000000e+00 
 1.77789203e-04  1.78594583e+00  9.00711157e-01  0.00000000e+00 
 1.79789203e-04  1.81458884e+00  9.00719157e-01  0.00000000e+00 
 1.81789203e-04  1.78594579e+00  9.00727157e-01  0.00000000e+00 
 1.83789203e-04  1.81458887e+00  9.00735157e-01  0.00000000e+00 
 1.85789203e-04  1.78594574e+00  9.00743157e-01  0.00000000e+00 
 1.87789203e-04  1.81458890e+00  9.00751157e-01  0.00000000e+00 
 1.89789203e-04  1.78594570e+00  9.00759157e-01  0.00000000e+00 
 1.91789203e-04  1.81458893e+00  9.00767157e-01  0.00000000e+00 
 1.93789203e-04  1.78594565e+00  9.00775157e-01  0.00000000e+00 
 1.95789203e-04  1.81458896e+00  9.00783157e-01  0.00000000e+00 
 1.97789203e-04  1.78594561e+00  9.00791157e-01  0.00000000e+00 
 1.99789203e-04  1.81458899e+00  9.00799157e-01  0.00000000e+00 
 2.00000000e-04  1.78594768e+00  9.00800000e-01  0.00000000e+00 
 2.00022528e-04  1.80002694e+00 -9.91999099e-02  1.00000000e+00 
 2.00067584e-04  1.79997346e+00 -9.91997297e-02  1.00000000e+00 
 2.00109770e-04  1.80002579e+00 -9.91995609e-02  1.00000000e+00 
 2.00157322e-04  1.79997462e+00 -9.91993707e-02  1.00000000e+00 
 2.00252425e-04  1.80002495e+00 -9.91989903e-02  1.00000000e+00 
 2.00442631e-04  1.79997504e+00 -9.91982295e-02  1.00000000e+00 
 2.00823042e-04  1.80002474e+00 -9.91967078e-02  1.00000000e+00 
 2.01583866e-04  1.79997515e+00 -9.91936645e-02  1.00000000e+00 
 2.03105513e-04  1.80002469e+00 -9.91875779e-02  1.00000000e+00 
 2.05105513e-04  1.79997518e+00 -9.91795779e-02  1.00000000e+00 
 2.07105513e-04  1.80002466e+00 -9.91715779e-02  1.00000000e+00 
 2.09105513e-04  1.79997521e+00 -9.91635779e-02  1.00000000e+00 
 2.11105513e-04  1.80002463e+00 -9.91555779e-02  1.00000000e+00 
 2.13105513e-04  1.79997523e+00 -9.91475779e-02  1.00000000e+00 
 2.15105513e-04  1.80002461e+00 -9.91395779e-02  1.00000000e+00 
 2.17105513e-04  1.79997526e+00 -9.91315779e-02  1.00000000e+00 
 2.19105513e-04  1.80002458e+00 -9.91235779e-02  1.00000000e+00 
 2.21105513e-04  1.79997529e+00 -9.91155779e-02  1.00000000e+00 
 2.23105513e-04  1.80002455e+00 -9.91075779e-02  1.00000000e+00 
 2.25105513e-04  1.79997532e+00 -9.90995779e-02  1.00000000e+00 
 2.27105513e-04  1.80002452e+00 -9.90915779e-02  1.00000000e+00 
 2.29105513e-04  1.79997534e+00 -9.90835779e-02  1.00000000e+00 
 2.31105513e-04  1.80002450e+00 -9.90755779e-02  1.00000000e+00 
 2.33105513e-04  1.79997537e+00 -9.90675779e-02  1.00000000e+00 
 2.35105513e-04  1.80002447e+00 -9.90595779e-02  1.00000000e+00 
 2.37105513e-04  1.79997540e+00 -9.90515779e-02  1.00000000e+00 
 2.39105513e-04  1.80002444e+00 -9.90435779e-02  1.00000000e+00 
 2.41105513e-04  1.79997543e+00 -9.90355779e-02  1.00000000e+00 
 2.43105513e-04  1.80002442e+00 -9.90275779e-02  1.00000000e+00 
 2.45105513e-04  1.79997545e+00 -9.90195779e-02  1.00000000e+00 
 2.47105513e-04  1.80002439e+00 -9.90115779e-02  1.00000000e+00 
 2.49105513e-04  1.79997548e+00 -9.90035779e-02  1.00000000e+00 
 2.51105513e-04  1.80002436e+00 -9.89955779e-02  1.00000000e+00 
 2.53105513e-04  1.79997551e+00 -9.89875779e-02  1.00000000e+00 
 2.55105513e-04  1.80002433e+00 -9.89795779e-02  1.00000000e+00 
 2.57105513e-04  1.79997553e+00 -9.89715779e-02  1.00000000e+00 
 2.59105513e-04  1.80002431e+00 -9.89635779e-02  1.00000000e+00 
 2.61105513e-04  1.79997556e+00 -9.89555779e-02  1.00000000e+00 
 2.63105513e-04  1.80002428e+00 -9.89475779e-02  1.00000000e+00 
 2.65105513e-04  1.79997559e+00 -9.89395779e-02  1.00000000e+00 
 2.67105513e-04  1.80002425e+00 -9.89315779e-02  1.00000000e+00 
 2.69105513e-04  1.79997562e+00 -9.89235779e-02  1.00000000e+00 
 2.71105513e-04  1.80002423e+00 -9.89155779e-02  1.00000000e+00 
 2.73105513e-04  1.79997564e+00 -9.89075779e-02  1.00000000e+00 
 2.75105513e-04  1.80002420e+00 -9.88995779e-02  1.00000000e+00 
 2.77105513e-04  1.79997567e+00 -9.88915779e-02  1.00000000e+00 
 2.79105513e-04  1.80002417e+00 -9.88835779e-02  1.00000000e+00 
 2.81105513e-04  1.79997570e+00 -9.88755779e-02  1.00000000e+00 
 2.83105513e-04  1.80002414e+00 -9.88675779e-02  1.00000000e+00 
 2.85105513e-04  1.79997572e+00 -9.88595779e-02  1.00000000e+00 
 2.87105513e-04  1.80002412e+00 -9.88515779e-02  1.00000000e+00 
 2.89105513e-04  1.79997575e+00 -9.88435779e-02  1.00000000e+00 
 2.91105513e-04  1.80002409e+00 -9.88355779e-02  1.00000000e+00 
 2.93105513e-04  1.79997578e+00 -9.88275779e-02  1.00000000e+00 
 2.95105513e-04  1.80002406e+00 -9.88195779e-02  1.00000000e+00 
 2.97105513e-04  1.79997581e+00 -9.88115779e-02  1.00000000e+00 
 2.99105513e-04  1.80002404e+00 -9.88035779e-02  1.00000000e+00 
 3.01105513e-04  1.79997583e+00 -9.87955779e-02  1.00000000e+00 
 3.03105513e-04  1.80002401e+00 -9.87875779e-02  1.00000000e+00 
 3.05105513e-04  1.79997586e+00 -9.87795779e-02  1.00000000e+00 
 3.07105513e-04  1.80002398e+00 -9.87715779e-02  1.00000000e+00 
 3.09105513e-04  1.79997589e+00 -9.87635779e-02  1.00000000e+00 
 3.11105513e-04  1.80002395e+00 -9.87555779e-02  1.00000000e+00 
 3.13105513e-04  1.79997591e+00 -9.87475779e-02  1.00000000e+00 
 3.15105513e-04  1.80002393e+00 -9.87395779e-02  1.00000000e+00 
 3.17105513e-04  1.79997594e+00 -9.87315779e-02  1.00000000e+00 
 3.19105513e-04  1.80002390e+00 -9.87235779e-02  1.00000000e+00 
 3.21105513e-04  1.79997597e+00 -9.87155779e-02  1.00000000e+00 
 3.23105513e-04  1.80002387e+00 -9.87075779e-02  1.00000000e+00 
 3.25105513e-04  1.79997600e+00 -9.86995779e-02  1.00000000e+00 
 3.27105513e-04  1.80002385e+00 -9.86915779e-02  1.00000000e+00 
 3.29105513e-04  1.79997602e+00 -9.86835779e-02  1.00000000e+00 
 3.31105513e-04  1.80002382e+00 -9.86755779e-02  1.00000000e+00 
 3.33105513e-04  1.79997605e+00 -9.86675779e-02  1.00000000e+00 
 3.35105513e-04  1.80002379e+00 -9.86595779e-02  1.00000000e+00 
 3.37105513e-04  1.79997608e+00 -9.86515779e-02  1.00000000e+00 
 3.39105513e-04  1.80002376e+00 -9.86435779e-02  1.00000000e+00 
 3.41105513e-04  1.79997610e+00 -9.86355779e-02  1.00000000e+00 
 3.43105513e-04  1.80002374e+00 -9.86275779e-02  1.00000000e+00 
 3.45105513e-04  1.79997613e+00 -9.86195779e-02  1.00000000e+00 
 3.47105513e-04  1.80002371e+00 -9.86115779e-02  1.00000000e+00 
 3.49105513e-04  1.79997616e+00 -9.86035779e-02  1.00000000e+00 
 3.51105513e-04  1.80002368e+00 -9.85955779e-02  1.00000000e+00 
 3.53105513e-04  1.79997618e+00 -9.85875779e-02  1.00000000e+00 
 3.55105513e-04  1.80002366e+00 -9.85795779e-02  1.00000000e+00 
 3.57105513e-04  1.79997621e+00 -9.85715779e-02  1.00000000e+00 
 3.59105513e-04  1.80002363e+00 -9.85635779e-02  1.00000000e+00 
 3.61105513e-04  1.79997624e+00 -9.85555779e-02  1.00000000e+00 
 3.63105513e-04  1.80002360e+00 -9.85475779e-02  1.00000000e+00 
 3.65105513e-04  1.79997627e+00 -9.85395779e-02  1.00000000e+00 
 3.67105513e-04  1.80002358e+00 -9.85315779e-02  1.00000000e+00 
 3.69105513e-04  1.79997629e+00 -9.85235779e-02  1.00000000e+00 
 3.71105513e-04  1.80002355e+00 -9.85155779e-02  1.00000000e+00 
 3.73105513e-04  1.79997632e+00 -9.85075779e-02  1.00000000e+00 
 3.75105513e-04  1.80002352e+00 -9.84995779e-02  1.00000000e+00 
 3.77105513e-04  1.79997635e+00 -9.84915779e-02  1.00000000e+00 
 3.79105513e-04  1.80002349e+00 -9.84835779e-02  1.00000000e+00 
 3.81105513e-04  1.79997637e+00 -9.84755779e-02  1.00000000e+00 
 3.83105513e-04  1.80002347e+00 -9.84675779e-02  1.00000000e+00 
 3.85105513e-04  1.79997640e+00 -9.84595779e-02  1.00000000e+00 
 3.87105513e-04  1.80002344e+00 -9.84515779e-02  1.00000000e+00 
 3.89105513e-04  1.79997643e+00 -9.84435779e-02  1.00000000e+00 
 3.91105513e-04  1.80002341e+00 -9.84355779e-02  1.00000000e+00 
 3.93105513e-04  1.79997646e+00 -9.84275779e-02  1.00000000e+00 
 3.95105513e-04  1.80002339e+00 -9.84195779e-02  1.00000000e+00 
 3.97105513e-04  1.79997648e+00 -9.84115779e-02  1.00000000e+00 
 3.99105513e-04  1.80002336e+00 -9.84035779e-02  1.00000000e+00 
 4.01105513e-04  1.79997651e+00 -9.83955779e-02  1.00000000e+00 
 4.03105513e-04  1.80002333e+00 -9.83875779e-02  1.00000000e+00 
 4.05105513e-04  1.79997654e+00 -9.83795779e-02  1.00000000e+00 
 4.07105513e-04  1.80002331e+00 -9.83715779e-02  1.00000000e+00 
 4.09105513e-04  1.79997656e+00 -9.83635779e-02  1.00000000e+00 
 4.11105513e-04  1.80002328e+00 -9.83555779e-02  1.00000000e+00 
 4.13105513e-04  1.79997659e+00 -9.83475779e-02  1.00000000e+00 
 4.15105513e-04  1.80002325e+00 -9.83395779e-02  1.00000000e+00 
 4.17105513e-04  1.79997662e+00 -9.83315779e-02  1.00000000e+00 
 4.19105513e-04  1.80002322e+00 -9.83235779e-02  1.00000000e+00 
 4.21105513e-04  1.79997664e+00 -9.83155779e-02  1.00000000e+00 
 4.23105513e-04  1.80002320e+00 -9.83075779e-02  1.00000000e+00 
 4.25105513e-04  1.79997667e+00 -9.82995779e-02  1.00000000e+00 
 4.27105513e-04  1.80002317e+00 -9.82915779e-02  1.00000000e+00 
 4.29105513e-04  1.79997670e+00 -9.82835779e-02  1.00000000e+00 
 4.31105513e-04  1.80002314e+00 -9.82755779e-02  1.00000000e+00 
 4.33105513e-04  1.79997673e+00 -9.82675779e-02  1.00000000e+00 
 4.35105513e-04  1.80002312e+00 -9.82595779e-02  1.00000000e+00 
 4.37105513e-04  1.79997675e+00 -9.82515779e-02  1.00000000e+00 
 4.39105513e-04  1.80002309e+00 -9.82435779e-02  1.00000000e+00 
 4.41105513e-04  1.79997678e+00 -9.82355779e-02  1.00000000e+00 
 4.43105513e-04  1.80002306e+00 -9.82275779e-02  1.00000000e+00 
 4.45105513e-04  1.79997681e+00 -9.82195779e-02  1.00000000e+00 
 4.47105513e-04  1.80002304e+00 -9.82115779e-02  1.00000000e+00 
 4.49105513e-04  1.79997683e+00 -9.82035779e-02  1.00000000e+00 
 4.51105513e-04  1.80002301e+00 -9.81955779e-02  1.00000000e+00 
 4.53105513e-04  1.79997686e+00 -9.81875779e-02  1.00000000e+00 
 4.55105513e-04  1.80002298e+00 -9.81795779e-02  1.00000000e+00 
 4.57105513e-04  1.79997689e+00 -9.81715779e-02  1.00000000e+00 
 4.59105513e-04  1.80002296e+00 -9.81635779e-02  1.00000000e+00 
 4.61105513e-04  1.79997691e+00 -9.81555779e-02  1.00000000e+00 
 4.63105513e-04  1.80002293e+00 -9.81475779e-02  1.00000000e+00 
 4.65105513e-04  1.79997694e+00 -9.81395779e-02  1.00000000e+00 
 4.67105513e-04  1.80002290e+00 -9.81315779e-02  1.00000000e+00 
 4.69105513e-04  1.79997697e+00 -9.81235779e-02  1.00000000e+00 
 4.71105513e-04  1.80002287e+00 -9.81155779e-02  1.00000000e+00 
 4.73105513e-04  1.79997699e+00 -9.81075779e-02  1.00000000e+00 
 4.75105513e-04  1.80002285e+00 -9.80995779e-02  1.00000000e+00 
 4.77105513e-04  1.79997702e+00 -9.80915779e-02  1.00000000e+00 
 4.79105513e-04  1.80002282e+00 -9.80835779e-02  1.00000000e+00 
 4.81105513e-04  1.79997705e+00 -9.80755779e-02  1.00000000e+00 
 4.83105513e-04  1.80002279e+00 -9.80675779e-02  1.00000000e+00 
 4.85105513e-04  1.79997708e+00 -9.80595779e-02  1.00000000e+00 
 4.87105513e-04  1.80002277e+00 -9.80515779e-02  1.00000000e+00 
 4.89105513e-04  1.79997710e+00 -9.80435779e-02  1.00000000e+00 
 4.91105513e-04  1.80002274e+00 -9.80355779e-02  1.00000000e+00 
 4.93105513e-04  1.79997713e+00 -9.80275779e-02  1.00000000e+00 
 4.95105513e-04  1.80002271e+00 -9.80195779e-02  1.00000000e+00 
 4.97105513e-04  1.79997716e+00 -9.80115779e-02  1.00000000e+00 
 4.99105513e-04  1.80002269e+00 -9.80035779e-02  1.00000000e+00 
 5.00100100e-04  1.79997720e+00 -9.79995996e-02  1.00000000e+00 
 5.00100110e-04  1.79989206e+00 -9.79995996e-02  1.00000000e+00 
 5.00100130e-04  1.79981579e+00 -9.79995995e-02  1.00000000e+00 
 5.00100170e-04  1.80066856e+00 -9.79995993e-02  1.00000000e+00 
 5.00100200e-04  1.80404589e+00 -9.79995992e-02  1.00000000e+00 
 5.00100208e-04  1.80362687e+00 -9.79995992e-02  1.00000000e+00 
 5.00100224e-04  1.80053004e+00 -9.79995991e-02  1.00000000e+00 
 5.00100256e-04  1.79247346e+00 -9.79995990e-02  1.00000000e+00 
 5.00100320e-04  1.78700825e+00 -9.79995987e-02  1.00000000e+00 
 5.00100405e-04  1.80221605e+00 -9.79995984e-02  1.00000000e+00 
 5.00100482e-04  1.79412967e+00 -9.79995981e-02  1.00000000e+00 
 5.00100636e-04  1.80414073e+00 -9.79995975e-02  1.00000000e+00 
 5.00100828e-04  1.79611658e+00 -9.79995967e-02  1.00000000e+00 
 5.00101210e-04  1.80359484e+00 -9.79995952e-02  1.00000000e+00 
