 time            v(Q)            v(A)-v(B)       v(B)           
 0.00000000e+00  1.79999994e+00  1.00000000e-01  0.00000000e+00 
 1.00000000e-09  1.79999994e+00  1.00000004e-01  0.00000000e+00 
 2.00000000e-09  1.79999994e+00  1.00000008e-01  0.00000000e+00 
 4.00000000e-09  1.79999994e+00  1.00000016e-01  0.00000000e+00 
 8.00000000e-09  1.79999994e+00  1.00000032e-01  0.00000000e+00 
 1.60000000e-08  1.79999994e+00  1.00000064e-01  0.00000000e+00 
 3.20000000e-08  1.79999994e+00  1.00000128e-01  0.00000000e+00 
 6.40000000e-08  1.79999994e+00  1.00000256e-01  0.00000000e+00 
 1.00000000e-07  1.79999994e+00  1.00000400e-01  0.00000000e+00 
 1.00010000e-07  1.80025610e+00  1.00000400e-01  0.00000000e+00 
 1.00030000e-07  1.80040690e+00  1.00000400e-01  0.00000000e+00 
 1.00070000e-07  1.79620134e+00  1.00000400e-01  0.00000000e+00 
 1.00100000e-07  1.79265913e+00  1.00000400e-01  0.00000000e+00 
 1.00107637e-07  1.79745946e+00  1.00000400e-01  0.00000000e+00 
 1.00122912e-07  1.81095102e+00  1.00000400e-01  0.00000000e+00 
 1.00153461e-07  1.83578700e+00  1.00000401e-01  0.00000000e+00 
 1.00214558e-07  1.84363853e+00  1.00000401e-01  0.00000000e+00 
 1.00287183e-07  1.80638989e+00  1.00000401e-01  0.00000000e+00 
 1.00432432e-07  1.76911477e+00  1.00000402e-01  0.00000000e+00 
 1.00648750e-07  1.80544614e+00  1.00000403e-01  0.00000000e+00 
 1.00917221e-07  1.79966561e+00  1.00000404e-01  0.00000000e+00 
 1.01428771e-07  1.79917337e+00  1.00000406e-01  0.00000000e+00 
 1.01995249e-07  1.80143957e+00  1.00000408e-01  0.00000000e+00 
 1.03128206e-07  1.79838857e+00  1.00000413e-01  0.00000000e+00 
 1.05394121e-07  1.80169759e+00  1.00000422e-01  0.00000000e+00 
 1.09704352e-07  1.79827998e+00  1.00000439e-01  0.00000000e+00 
 1.18324814e-07  1.80174370e+00  1.00000473e-01  0.00000000e+00 
 1.35565739e-07  1.79825487e+00  1.00000542e-01  0.00000000e+00 
 1.70047589e-07  1.80175325e+00  1.00000680e-01  0.00000000e+00 
 2.39011288e-07  1.79824857e+00  1.00000956e-01  0.00000000e+00 
 3.76938687e-07  1.80175579e+00  1.00001508e-01  0.00000000e+00 
 6.52793484e-07  1.79824722e+00  1.00002611e-01  0.00000000e+00 
 1.20450308e-06  1.80175646e+00  1.00004818e-01  0.00000000e+00 
 2.30792227e-06  1.79824689e+00  1.00009232e-01  0.00000000e+00 
 4.30792227e-06  1.80175672e+00  1.00017232e-01  0.00000000e+00 
 6.30792227e-06  1.79824670e+00  1.00025232e-01  0.00000000e+00 
 8.30792227e-06  1.80175683e+00  1.00033232e-01  0.00000000e+00 
 1.03079223e-05  1.79824658e+00  1.00041232e-01  0.00000000e+00 
 1.23079223e-05  1.80175695e+00  1.00049232e-01  0.00000000e+00 
 1.43079223e-05  1.79824646e+00  1.00057232e-01  0.00000000e+00 
 1.63079223e-05  1.80175707e+00  1.00065232e-01  0.00000000e+00 
 1.83079223e-05  1.79824634e+00  1.00073232e-01  0.00000000e+00 
 2.03079223e-05  1.80175719e+00  1.00081232e-01  0.00000000e+00 
 2.23079223e-05  1.79824621e+00  1.00089232e-01  0.00000000e+00 
 2.43079223e-05  1.80175731e+00  1.00097232e-01  0.00000000e+00 
 2.63079223e-05  1.79824609e+00  1.00105232e-01  0.00000000e+00 
 2.83079223e-05  1.80175744e+00  1.00113232e-01  0.00000000e+00 
 3.03079223e-05  1.79824597e+00  1.00121232e-01  0.00000000e+00 
 3.23079223e-05  1.80175756e+00  1.00129232e-01  0.00000000e+00 
 3.43079223e-05  1.79824585e+00  1.00137232e-01  0.00000000e+00 
 3.63079223e-05  1.80175768e+00  1.00145232e-01  0.00000000e+00 
 3.83079223e-05  1.79824572e+00  1.00153232e-01  0.00000000e+00 
 4.03079223e-05  1.80175780e+00  1.00161232e-01  0.00000000e+00 
 4.23079223e-05  1.79824560e+00  1.00169232e-01  0.00000000e+00 
 4.43079223e-05  1.80175792e+00  1.00177232e-01  0.00000000e+00 
 4.63079223e-05  1.79824548e+00  1.00185232e-01  0.00000000e+00 
 4.83079223e-05  1.80175804e+00  1.00193232e-01  0.00000000e+00 
 5.03079223e-05  1.79824536e+00  1.00201232e-01  0.00000000e+00 
 5.23079223e-05  1.80175816e+00  1.00209232e-01  0.00000000e+00 
 5.43079223e-05  1.79824524e+00  1.00217232e-01  0.00000000e+00 
 5.63079223e-05  1.80175829e+00  1.00225232e-01  0.00000000e+00 
 5.83079223e-05  1.79824511e+00  1.00233232e-01  0.00000000e+00 
 6.03079223e-05  1.80175841e+00  1.00241232e-01  0.00000000e+00 
 6.23079223e-05  1.79824499e+00  1.00249232e-01  0.00000000e+00 
 6.43079223e-05  1.80175853e+00  1.00257232e-01  0.00000000e+00 
 6.63079223e-05  1.79824487e+00  1.00265232e-01  0.00000000e+00 
 6.83079223e-05  1.80175865e+00  1.00273232e-01  0.00000000e+00 
 7.03079223e-05  1.79824475e+00  1.00281232e-01  0.00000000e+00 
 7.23079223e-05  1.80175877e+00  1.00289232e-01  0.00000000e+00 
 7.43079223e-05  1.79824463e+00  1.00297232e-01  0.00000000e+00 
 7.63079223e-05  1.80175889e+00  1.00305232e-01  0.00000000e+00 
 7.83079223e-05  1.79824451e+00  1.00313232e-01  0.00000000e+00 
 8.03079223e-05  1.80175901e+00  1.00321232e-01  0.00000000e+00 
 8.23079223e-05  1.79824438e+00  1.00329232e-01  0.00000000e+00 
 8.43079223e-05  1.80175913e+00  1.00337232e-01  0.00000000e+00 
 8.63079223e-05  1.79824426e+00  1.00345232e-01  0.00000000e+00 
 8.83079223e-05  1.80175926e+00  1.00353232e-01  0.00000000e+00 
 9.03079223e-05  1.79824414e+00  1.00361232e-01  0.00000000e+00 
 9.23079223e-05  1.80175938e+00  1.00369232e-01  0.00000000e+00 
 9.43079223e-05  1.79824402e+00  1.00377232e-01  0.00000000e+00 
 9.63079223e-05  1.80175950e+00  1.00385232e-01  0.00000000e+00 
 9.83079223e-05  1.79824390e+00  1.00393232e-01  0.00000000e+00 
 1.00307922e-04  1.80175962e+00  1.00401232e-01  0.00000000e+00 
 1.02307922e-04  1.79824378e+00  1.00409232e-01  0.00000000e+00 
 1.04307922e-04  1.80175974e+00  1.00417232e-01  0.00000000e+00 
 1.06307922e-04  1.79824366e+00  1.00425232e-01  0.00000000e+00 
 1.08307922e-04  1.80175986e+00  1.00433232e-01  0.00000000e+00 
 1.10307922e-04  1.79824354e+00  1.00441232e-01  0.00000000e+00 
 1.12307922e-04  1.80175998e+00  1.00449232e-01  0.00000000e+00 
 1.14307922e-04  1.79824341e+00  1.00457232e-01  0.00000000e+00 
 1.16307922e-04  1.80176010e+00  1.00465232e-01  0.00000000e+00 
 1.18307922e-04  1.79824329e+00  1.00473232e-01  0.00000000e+00 
 1.20307922e-04  1.80176022e+00  1.00481232e-01  0.00000000e+00 
 1.22307922e-04  1.79824317e+00  1.00489232e-01  0.00000000e+00 
 1.24307922e-04  1.80176034e+00  1.00497232e-01  0.00000000e+00 
 1.26307922e-04  1.79824305e+00  1.00505232e-01  0.00000000e+00 
 1.28307922e-04  1.80176046e+00  1.00513232e-01  0.00000000e+00 
 1.30307922e-04  1.79824293e+00  1.00521232e-01  0.00000000e+00 
 1.32307922e-04  1.80176058e+00  1.00529232e-01  0.00000000e+00 
 1.34307922e-04  1.79824281e+00  1.00537232e-01  0.00000000e+00 
 1.36307922e-04  1.80176070e+00  1.00545232e-01  0.00000000e+00 
 1.38307922e-04  1.79824269e+00  1.00553232e-01  0.00000000e+00 
 1.40307922e-04  1.80176082e+00  1.00561232e-01  0.00000000e+00 
 1.42307922e-04  1.79824257e+00  1.00569232e-01  0.00000000e+00 
 1.44307922e-04  1.80176094e+00  1.00577232e-01  0.00000000e+00 
 1.46307922e-04  1.79824245e+00  1.00585232e-01  0.00000000e+00 
 1.48307922e-04  1.80176106e+00  1.00593232e-01  0.00000000e+00 
 1.50307922e-04  1.79824233e+00  1.00601232e-01  0.00000000e+00 
 1.52307922e-04  1.80176118e+00  1.00609232e-01  0.00000000e+00 
 1.54307922e-04  1.79824221e+00  1.00617232e-01  0.00000000e+00 
 1.56307922e-04  1.80176130e+00  1.00625232e-01  0.00000000e+00 
 1.58307922e-04  1.79824209e+00  1.00633232e-01  0.00000000e+00 
 1.60307922e-04  1.80176142e+00  1.00641232e-01  0.00000000e+00 
 1.62307922e-04  1.79824197e+00  1.00649232e-01  0.00000000e+00 
 1.64307922e-04  1.80176154e+00  1.00657232e-01  0.00000000e+00 
 1.66307922e-04  1.79824185e+00  1.00665232e-01  0.00000000e+00 
 1.68307922e-04  1.80176166e+00  1.00673232e-01  0.00000000e+00 
 1.70307922e-04  1.79824173e+00  1.00681232e-01  0.00000000e+00 
 1.72307922e-04  1.80176178e+00  1.00689232e-01  0.00000000e+00 
 1.74307922e-04  1.79824160e+00  1.00697232e-01  0.00000000e+00 
 1.76307922e-04  1.80176190e+00  1.00705232e-01  0.00000000e+00 
 1.78307922e-04  1.79824148e+00  1.00713232e-01  0.00000000e+00 
 1.80307922e-04  1.80176202e+00  1.00721232e-01  0.00000000e+00 
 1.82307922e-04  1.79824136e+00  1.00729232e-01  0.00000000e+00 
 1.84307922e-04  1.80176214e+00  1.00737232e-01  0.00000000e+00 
 1.86307922e-04  1.79824124e+00  1.00745232e-01  0.00000000e+00 
 1.88307922e-04  1.80176226e+00  1.00753232e-01  0.00000000e+00 
 1.90307922e-04  1.79824112e+00  1.00761232e-01  0.00000000e+00 
 1.92307922e-04  1.80176238e+00  1.00769232e-01  0.00000000e+00 
 1.94307922e-04  1.79824100e+00  1.00777232e-01  0.00000000e+00 
 1.96307922e-04  1.80176250e+00  1.00785232e-01  0.00000000e+00 
 1.98307922e-04  1.79824088e+00  1.00793232e-01  0.00000000e+00 
 2.00000000e-04  1.80176264e+00  1.00800000e-01  0.00000000e+00 
 2.00200000e-04  1.79999974e+00 -9.91992000e-02  2.00000000e-01 
 2.00600000e-04  1.80000014e+00 -9.91976000e-02  2.00000000e-01 
 2.01400000e-04  1.79999974e+00 -9.91944000e-02  2.00000000e-01 
 2.02171151e-04  1.80000014e+00 -9.91913154e-02  2.00000000e-01 
 2.03713452e-04  1.79999974e+00 -9.91851462e-02  2.00000000e-01 
 2.05713452e-04  1.80000014e+00 -9.91771462e-02  2.00000000e-01 
 2.07713452e-04  1.79999974e+00 -9.91691462e-02  2.00000000e-01 
 2.09713452e-04  1.80000014e+00 -9.91611462e-02  2.00000000e-01 
 2.11713452e-04  1.79999974e+00 -9.91531462e-02  2.00000000e-01 
 2.13713452e-04  1.80000014e+00 -9.91451462e-02  2.00000000e-01 
 2.15713452e-04  1.79999974e+00 -9.91371462e-02  2.00000000e-01 
 2.17713452e-04  1.80000014e+00 -9.91291462e-02  2.00000000e-01 
 2.19713452e-04  1.79999974e+00 -9.91211462e-02  2.00000000e-01 
 2.21713452e-04  1.80000014e+00 -9.91131462e-02  2.00000000e-01 
 2.23713452e-04  1.79999974e+00 -9.91051462e-02  2.00000000e-01 
 2.25713452e-04  1.80000014e+00 -9.90971462e-02  2.00000000e-01 
 2.27713452e-04  1.79999974e+00 -9.90891462e-02  2.00000000e-01 
 2.29713452e-04  1.80000014e+00 -9.90811462e-02  2.00000000e-01 
 2.31713452e-04  1.79999974e+00 -9.90731462e-02  2.00000000e-01 
 2.33713452e-04  1.80000014e+00 -9.90651462e-02  2.00000000e-01 
 2.35713452e-04  1.79999974e+00 -9.90571462e-02  2.00000000e-01 
 2.37713452e-04  1.80000014e+00 -9.90491462e-02  2.00000000e-01 
 2.39713452e-04  1.79999974e+00 -9.90411462e-02  2.00000000e-01 
 2.41713452e-04  1.80000014e+00 -9.90331462e-02  2.00000000e-01 
 2.43713452e-04  1.79999974e+00 -9.90251462e-02  2.00000000e-01 
 2.45713452e-04  1.80000014e+00 -9.90171462e-02  2.00000000e-01 
 2.47713452e-04  1.79999974e+00 -9.90091462e-02  2.00000000e-01 
 2.49713452e-04  1.80000014e+00 -9.90011462e-02  2.00000000e-01 
 2.51713452e-04  1.79999974e+00 -9.89931462e-02  2.00000000e-01 
 2.53713452e-04  1.80000014e+00 -9.89851462e-02  2.00000000e-01 
 2.55713452e-04  1.79999974e+00 -9.89771462e-02  2.00000000e-01 
 2.57713452e-04  1.80000014e+00 -9.89691462e-02  2.00000000e-01 
 2.59713452e-04  1.79999974e+00 -9.89611462e-02  2.00000000e-01 
 2.61713452e-04  1.80000014e+00 -9.89531462e-02  2.00000000e-01 
 2.63713452e-04  1.79999974e+00 -9.89451462e-02  2.00000000e-01 
 2.65713452e-04  1.80000014e+00 -9.89371462e-02  2.00000000e-01 
 2.67713452e-04  1.79999974e+00 -9.89291462e-02  2.00000000e-01 
 2.69713452e-04  1.80000014e+00 -9.89211462e-02  2.00000000e-01 
 2.71713452e-04  1.79999974e+00 -9.89131462e-02  2.00000000e-01 
 2.73713452e-04  1.80000014e+00 -9.89051462e-02  2.00000000e-01 
 2.75713452e-04  1.79999974e+00 -9.88971462e-02  2.00000000e-01 
 2.77713452e-04  1.80000014e+00 -9.88891462e-02  2.00000000e-01 
 2.79713452e-04  1.79999974e+00 -9.88811462e-02  2.00000000e-01 
 2.81713452e-04  1.80000014e+00 -9.88731462e-02  2.00000000e-01 
 2.83713452e-04  1.79999974e+00 -9.88651462e-02  2.00000000e-01 
 2.85713452e-04  1.80000014e+00 -9.88571462e-02  2.00000000e-01 
 2.87713452e-04  1.79999974e+00 -9.88491462e-02  2.00000000e-01 
 2.89713452e-04  1.80000014e+00 -9.88411462e-02  2.00000000e-01 
 2.91713452e-04  1.79999974e+00 -9.88331462e-02  2.00000000e-01 
 2.93713452e-04  1.80000014e+00 -9.88251462e-02  2.00000000e-01 
 2.95713452e-04  1.79999974e+00 -9.88171462e-02  2.00000000e-01 
 2.97713452e-04  1.80000014e+00 -9.88091462e-02  2.00000000e-01 
 2.99713452e-04  1.79999974e+00 -9.88011462e-02  2.00000000e-01 
 3.01713452e-04  1.80000014e+00 -9.87931462e-02  2.00000000e-01 
 3.03713452e-04  1.79999974e+00 -9.87851462e-02  2.00000000e-01 
 3.05713452e-04  1.80000014e+00 -9.87771462e-02  2.00000000e-01 
 3.07713452e-04  1.79999974e+00 -9.87691462e-02  2.00000000e-01 
 3.09713452e-04  1.80000014e+00 -9.87611462e-02  2.00000000e-01 
 3.11713452e-04  1.79999974e+00 -9.87531462e-02  2.00000000e-01 
 3.13713452e-04  1.80000014e+00 -9.87451462e-02  2.00000000e-01 
 3.15713452e-04  1.79999974e+00 -9.87371462e-02  2.00000000e-01 
 3.17713452e-04  1.80000014e+00 -9.87291462e-02  2.00000000e-01 
 3.19713452e-04  1.79999974e+00 -9.87211462e-02  2.00000000e-01 
 3.21713452e-04  1.80000014e+00 -9.87131462e-02  2.00000000e-01 
 3.23713452e-04  1.79999974e+00 -9.87051462e-02  2.00000000e-01 
 3.25713452e-04  1.80000014e+00 -9.86971462e-02  2.00000000e-01 
 3.27713452e-04  1.79999974e+00 -9.86891462e-02  2.00000000e-01 
 3.29713452e-04  1.80000014e+00 -9.86811462e-02  2.00000000e-01 
 3.31713452e-04  1.79999974e+00 -9.86731462e-02  2.00000000e-01 
 3.33713452e-04  1.80000014e+00 -9.86651462e-02  2.00000000e-01 
 3.35713452e-04  1.79999974e+00 -9.86571462e-02  2.00000000e-01 
 3.37713452e-04  1.80000014e+00 -9.86491462e-02  2.00000000e-01 
 3.39713452e-04  1.79999974e+00 -9.86411462e-02  2.00000000e-01 
 3.41713452e-04  1.80000014e+00 -9.86331462e-02  2.00000000e-01 
 3.43713452e-04  1.79999974e+00 -9.86251462e-02  2.00000000e-01 
 3.45713452e-04  1.80000014e+00 -9.86171462e-02  2.00000000e-01 
 3.47713452e-04  1.79999974e+00 -9.86091462e-02  2.00000000e-01 
 3.49713452e-04  1.80000014e+00 -9.86011462e-02  2.00000000e-01 
 3.51713452e-04  1.79999974e+00 -9.85931462e-02  2.00000000e-01 
 3.53713452e-04  1.80000014e+00 -9.85851462e-02  2.00000000e-01 
 3.55713452e-04  1.79999974e+00 -9.85771462e-02  2.00000000e-01 
 3.57713452e-04  1.80000014e+00 -9.85691462e-02  2.00000000e-01 
 3.59713452e-04  1.79999974e+00 -9.85611462e-02  2.00000000e-01 
 3.61713452e-04  1.80000014e+00 -9.85531462e-02  2.00000000e-01 
 3.63713452e-04  1.79999974e+00 -9.85451462e-02  2.00000000e-01 
 3.65713452e-04  1.80000014e+00 -9.85371462e-02  2.00000000e-01 
 3.67713452e-04  1.79999974e+00 -9.85291462e-02  2.00000000e-01 
 3.69713452e-04  1.80000014e+00 -9.85211462e-02  2.00000000e-01 
 3.71713452e-04  1.79999974e+00 -9.85131462e-02  2.00000000e-01 
 3.73713452e-04  1.80000014e+00 -9.85051462e-02  2.00000000e-01 
 3.75713452e-04  1.79999974e+00 -9.84971462e-02  2.00000000e-01 
 3.77713452e-04  1.80000014e+00 -9.84891462e-02  2.00000000e-01 
 3.79713452e-04  1.79999974e+00 -9.84811462e-02  2.00000000e-01 
 3.81713452e-04  1.80000014e+00 -9.84731462e-02  2.00000000e-01 
 3.83713452e-04  1.79999974e+00 -9.84651462e-02  2.00000000e-01 
 3.85713452e-04  1.80000014e+00 -9.84571462e-02  2.00000000e-01 
 3.87713452e-04  1.79999974e+00 -9.84491462e-02  2.00000000e-01 
 3.89713452e-04  1.80000014e+00 -9.84411462e-02  2.00000000e-01 
 3.91713452e-04  1.79999974e+00 -9.84331462e-02  2.00000000e-01 
 3.93713452e-04  1.80000014e+00 -9.84251462e-02  2.00000000e-01 
 3.95713452e-04  1.79999974e+00 -9.84171462e-02  2.00000000e-01 
 3.97713452e-04  1.80000014e+00 -9.84091462e-02  2.00000000e-01 
 3.99713452e-04  1.79999974e+00 -9.84011462e-02  2.00000000e-01 
 4.01713452e-04  1.80000014e+00 -9.83931462e-02  2.00000000e-01 
 4.03713452e-04  1.79999974e+00 -9.83851462e-02  2.00000000e-01 
 4.05713452e-04  1.80000014e+00 -9.83771462e-02  2.00000000e-01 
 4.07713452e-04  1.79999974e+00 -9.83691462e-02  2.00000000e-01 
 4.09713452e-04  1.80000014e+00 -9.83611462e-02  2.00000000e-01 
 4.11713452e-04  1.79999974e+00 -9.83531462e-02  2.00000000e-01 
 4.13713452e-04  1.80000014e+00 -9.83451462e-02  2.00000000e-01 
 4.15713452e-04  1.79999974e+00 -9.83371462e-02  2.00000000e-01 
 4.17713452e-04  1.80000014e+00 -9.83291462e-02  2.00000000e-01 
 4.19713452e-04  1.79999974e+00 -9.83211462e-02  2.00000000e-01 
 4.21713452e-04  1.80000014e+00 -9.83131462e-02  2.00000000e-01 
 4.23713452e-04  1.79999974e+00 -9.83051462e-02  2.00000000e-01 
 4.25713452e-04  1.80000014e+00 -9.82971462e-02  2.00000000e-01 
 4.27713452e-04  1.79999974e+00 -9.82891462e-02  2.00000000e-01 
 4.29713452e-04  1.80000014e+00 -9.82811462e-02  2.00000000e-01 
 4.31713452e-04  1.79999974e+00 -9.82731462e-02  2.00000000e-01 
 4.33713452e-04  1.80000014e+00 -9.82651462e-02  2.00000000e-01 
 4.35713452e-04  1.79999974e+00 -9.82571462e-02  2.00000000e-01 
 4.37713452e-04  1.80000014e+00 -9.82491462e-02  2.00000000e-01 
 4.39713452e-04  1.79999974e+00 -9.82411462e-02  2.00000000e-01 
 4.41713452e-04  1.80000014e+00 -9.82331462e-02  2.00000000e-01 
 4.43713452e-04  1.79999974e+00 -9.82251462e-02  2.00000000e-01 
 4.45713452e-04  1.80000014e+00 -9.82171462e-02  2.00000000e-01 
 4.47713452e-04  1.79999974e+00 -9.82091462e-02  2.00000000e-01 
 4.49713452e-04  1.80000014e+00 -9.82011462e-02  2.00000000e-01 
 4.51713452e-04  1.79999974e+00 -9.81931462e-02  2.00000000e-01 
 4.53713452e-04  1.80000014e+00 -9.81851462e-02  2.00000000e-01 
 4.55713452e-04  1.79999974e+00 -9.81771462e-02  2.00000000e-01 
 4.57713452e-04  1.80000014e+00 -9.81691462e-02  2.00000000e-01 
 4.59713452e-04  1.79999974e+00 -9.81611462e-02  2.00000000e-01 
 4.61713452e-04  1.80000014e+00 -9.81531462e-02  2.00000000e-01 
 4.63713452e-04  1.79999974e+00 -9.81451462e-02  2.00000000e-01 
 4.65713452e-04  1.80000014e+00 -9.81371462e-02  2.00000000e-01 
 4.67713452e-04  1.79999974e+00 -9.81291462e-02  2.00000000e-01 
 4.69713452e-04  1.80000014e+00 -9.81211462e-02  2.00000000e-01 
 4.71713452e-04  1.79999974e+00 -9.81131462e-02  2.00000000e-01 
 4.73713452e-04  1.80000014e+00 -9.81051462e-02  2.00000000e-01 
 4.75713452e-04  1.79999974e+00 -9.80971462e-02  2.00000000e-01 
 4.77713452e-04  1.80000014e+00 -9.80891462e-02  2.00000000e-01 
 4.79713452e-04  1.79999974e+00 -9.80811462e-02  2.00000000e-01 
 4.81713452e-04  1.80000014e+00 -9.80731462e-02  2.00000000e-01 
 4.83713452e-04  1.79999974e+00 -9.80651462e-02  2.00000000e-01 
 4.85713452e-04  1.80000014e+00 -9.80571462e-02  2.00000000e-01 
 4.87713452e-04  1.79999974e+00 -9.80491462e-02  2.00000000e-01 
 4.89713452e-04  1.80000014e+00 -9.80411462e-02  2.00000000e-01 
 4.91713452e-04  1.79999974e+00 -9.80331462e-02  2.00000000e-01 
 4.93713452e-04  1.80000014e+00 -9.80251462e-02  2.00000000e-01 
 4.95713452e-04  1.79999974e+00 -9.80171462e-02  2.00000000e-01 
 4.97713452e-04  1.80000014e+00 -9.80091462e-02  2.00000000e-01 
 4.99713452e-04  1.79999974e+00 -9.80011462e-02  2.00000000e-01 
 5.00100100e-04  1.80000014e+00 -9.79995996e-02  2.00000000e-01 
 5.00100110e-04  1.79996354e+00 -9.79995996e-02  2.00000000e-01 
 5.00100130e-04  1.79995039e+00 -9.79995995e-02  2.00000000e-01 
 5.00100170e-04  1.80031091e+00 -9.79995993e-02  2.00000000e-01 
 5.00100200e-04  1.80198888e+00 -9.79995992e-02  2.00000000e-01 
 5.00100208e-04  1.80226938e+00 -9.79995992e-02  2.00000000e-01 
 5.00100224e-04  1.80035193e+00 -9.79995991e-02  2.00000000e-01 
 5.00100256e-04  1.79279906e+00 -9.79995990e-02  2.00000000e-01 
 5.00100320e-04  1.80192596e+00 -9.79995987e-02  2.00000000e-01 
 5.00100388e-04  1.80399574e+00 -9.79995984e-02  2.00000000e-01 
 5.00100497e-04  1.79467113e+00 -9.79995980e-02  2.00000000e-01 
 5.00100635e-04  1.80143601e+00 -9.79995975e-02  2.00000000e-01 
 5.00100890e-04  1.79892805e+00 -9.79995964e-02  2.00000000e-01 
 5.00101306e-04  1.80064520e+00 -9.79995948e-02  2.00000000e-01 
 5.00102137e-04  1.79940789e+00 -9.79995915e-02  2.00000000e-01 
 5.00103763e-04  1.80049425e+00 -9.79995849e-02  2.00000000e-01 
 5.00107013e-04  1.79951432e+00 -9.79995719e-02  2.00000000e-01 
 5.00113514e-04  1.80046127e+00 -9.79995459e-02  2.00000000e-01 
 5.00126515e-04  1.79954049e+00 -9.79994939e-02  2.00000000e-01 
 5.00152518e-04  1.80045318e+00 -9.79993899e-02  2.00000000e-01 
