 time            v(Q)            v(A)-v(B)       v(B)           
 0.00000000e+00  1.79999994e+00  1.50000000e+00  0.00000000e+00 
 1.00000000e-09  1.79999994e+00  1.50000000e+00  0.00000000e+00 
 2.00000000e-09  1.79999994e+00  1.50000001e+00  0.00000000e+00 
 4.00000000e-09  1.79999994e+00  1.50000002e+00  0.00000000e+00 
 8.00000000e-09  1.79999994e+00  1.50000003e+00  0.00000000e+00 
 1.60000000e-08  1.79999994e+00  1.50000006e+00  0.00000000e+00 
 3.20000000e-08  1.79999994e+00  1.50000013e+00  0.00000000e+00 
 6.40000000e-08  1.79999994e+00  1.50000026e+00  0.00000000e+00 
 1.00000000e-07  1.79999994e+00  1.50000040e+00  0.00000000e+00 
 1.00010000e-07  1.80019402e+00  1.50000040e+00  0.00000000e+00 
 1.00030000e-07  1.80026841e+00  1.50000040e+00  0.00000000e+00 
 1.00070000e-07  1.79746880e+00  1.50000040e+00  0.00000000e+00 
 1.00100000e-07  1.79758563e+00  1.50000040e+00  0.00000000e+00 
 1.00107587e-07  1.80105023e+00  1.50000040e+00  0.00000000e+00 
 1.00122762e-07  1.80571678e+00  1.50000040e+00  0.00000000e+00 
 1.00153112e-07  1.80969855e+00  1.50000040e+00  0.00000000e+00 
 1.00207318e-07  1.79974458e+00  1.50000040e+00  0.00000000e+00 
 1.00262832e-07  1.79917713e+00  1.50000040e+00  0.00000000e+00 
 1.00373861e-07  1.79927390e+00  1.50000040e+00  0.00000000e+00 
 1.00476560e-07  1.79936470e+00  1.50000040e+00  0.00000000e+00 
 1.00681957e-07  1.80040723e+00  1.50000040e+00  0.00000000e+00 
 1.01051592e-07  1.79962752e+00  1.50000040e+00  0.00000000e+00 
 1.01790863e-07  1.80036160e+00  1.50000041e+00  0.00000000e+00 
 1.03269405e-07  1.79964222e+00  1.50000041e+00  0.00000000e+00 
 1.06226489e-07  1.80035577e+00  1.50000042e+00  0.00000000e+00 
 1.12140658e-07  1.79964488e+00  1.50000045e+00  0.00000000e+00 
 1.23968994e-07  1.80035450e+00  1.50000050e+00  0.00000000e+00 
 1.47625667e-07  1.79964550e+00  1.50000059e+00  0.00000000e+00 
 1.94939013e-07  1.80035420e+00  1.50000078e+00  0.00000000e+00 
 2.89565706e-07  1.79964565e+00  1.50000116e+00  0.00000000e+00 
 4.78819090e-07  1.80035412e+00  1.50000192e+00  0.00000000e+00 
 8.57325859e-07  1.79964569e+00  1.50000343e+00  0.00000000e+00 
 1.61433940e-06  1.80035410e+00  1.50000646e+00  0.00000000e+00 
 3.12836647e-06  1.79964570e+00  1.50001251e+00  0.00000000e+00 
 5.12836647e-06  1.80035410e+00  1.50002051e+00  0.00000000e+00 
 7.12836647e-06  1.79964570e+00  1.50002851e+00  0.00000000e+00 
 9.12836647e-06  1.80035409e+00  1.50003651e+00  0.00000000e+00 
 1.11283665e-05  1.79964571e+00  1.50004451e+00  0.00000000e+00 
 1.31283665e-05  1.80035409e+00  1.50005251e+00  0.00000000e+00 
 1.51283665e-05  1.79964571e+00  1.50006051e+00  0.00000000e+00 
 1.71283665e-05  1.80035408e+00  1.50006851e+00  0.00000000e+00 
 1.91283665e-05  1.79964572e+00  1.50007651e+00  0.00000000e+00 
 2.11283665e-05  1.80035408e+00  1.50008451e+00  0.00000000e+00 
 2.31283665e-05  1.79964572e+00  1.50009251e+00  0.00000000e+00 
 2.51283665e-05  1.80035407e+00  1.50010051e+00  0.00000000e+00 
 2.71283665e-05  1.79964573e+00  1.50010851e+00  0.00000000e+00 
 2.91283665e-05  1.80035407e+00  1.50011651e+00  0.00000000e+00 
 3.11283665e-05  1.79964573e+00  1.50012451e+00  0.00000000e+00 
 3.31283665e-05  1.80035406e+00  1.50013251e+00  0.00000000e+00 
 3.51283665e-05  1.79964574e+00  1.50014051e+00  0.00000000e+00 
 3.71283665e-05  1.80035406e+00  1.50014851e+00  0.00000000e+00 
 3.91283665e-05  1.79964574e+00  1.50015651e+00  0.00000000e+00 
 4.11283665e-05  1.80035406e+00  1.50016451e+00  0.00000000e+00 
 4.31283665e-05  1.79964575e+00  1.50017251e+00  0.00000000e+00 
 4.51283665e-05  1.80035405e+00  1.50018051e+00  0.00000000e+00 
 4.71283665e-05  1.79964575e+00  1.50018851e+00  0.00000000e+00 
 4.91283665e-05  1.80035405e+00  1.50019651e+00  0.00000000e+00 
 5.11283665e-05  1.79964576e+00  1.50020451e+00  0.00000000e+00 
 5.31283665e-05  1.80035404e+00  1.50021251e+00  0.00000000e+00 
 5.51283665e-05  1.79964576e+00  1.50022051e+00  0.00000000e+00 
 5.71283665e-05  1.80035404e+00  1.50022851e+00  0.00000000e+00 
 5.91283665e-05  1.79964577e+00  1.50023651e+00  0.00000000e+00 
 6.11283665e-05  1.80035403e+00  1.50024451e+00  0.00000000e+00 
 6.31283665e-05  1.79964577e+00  1.50025251e+00  0.00000000e+00 
 6.51283665e-05  1.80035403e+00  1.50026051e+00  0.00000000e+00 
 6.71283665e-05  1.79964578e+00  1.50026851e+00  0.00000000e+00 
 6.91283665e-05  1.80035402e+00  1.50027651e+00  0.00000000e+00 
 7.11283665e-05  1.79964578e+00  1.50028451e+00  0.00000000e+00 
 7.31283665e-05  1.80035402e+00  1.50029251e+00  0.00000000e+00 
 7.51283665e-05  1.79964579e+00  1.50030051e+00  0.00000000e+00 
 7.71283665e-05  1.80035401e+00  1.50030851e+00  0.00000000e+00 
 7.91283665e-05  1.79964579e+00  1.50031651e+00  0.00000000e+00 
 8.11283665e-05  1.80035401e+00  1.50032451e+00  0.00000000e+00 
 8.31283665e-05  1.79964580e+00  1.50033251e+00  0.00000000e+00 
 8.51283665e-05  1.80035400e+00  1.50034051e+00  0.00000000e+00 
 8.71283665e-05  1.79964580e+00  1.50034851e+00  0.00000000e+00 
 8.91283665e-05  1.80035400e+00  1.50035651e+00  0.00000000e+00 
 9.11283665e-05  1.79964581e+00  1.50036451e+00  0.00000000e+00 
 9.31283665e-05  1.80035399e+00  1.50037251e+00  0.00000000e+00 
 9.51283665e-05  1.79964581e+00  1.50038051e+00  0.00000000e+00 
 9.71283665e-05  1.80035399e+00  1.50038851e+00  0.00000000e+00 
 9.91283665e-05  1.79964581e+00  1.50039651e+00  0.00000000e+00 
 1.01128366e-04  1.80035398e+00  1.50040451e+00  0.00000000e+00 
 1.03128366e-04  1.79964582e+00  1.50041251e+00  0.00000000e+00 
 1.05128366e-04  1.80035398e+00  1.50042051e+00  0.00000000e+00 
 1.07128366e-04  1.79964582e+00  1.50042851e+00  0.00000000e+00 
 1.09128366e-04  1.80035397e+00  1.50043651e+00  0.00000000e+00 
 1.11128366e-04  1.79964583e+00  1.50044451e+00  0.00000000e+00 
 1.13128366e-04  1.80035397e+00  1.50045251e+00  0.00000000e+00 
 1.15128366e-04  1.79964583e+00  1.50046051e+00  0.00000000e+00 
 1.17128366e-04  1.80035396e+00  1.50046851e+00  0.00000000e+00 
 1.19128366e-04  1.79964584e+00  1.50047651e+00  0.00000000e+00 
 1.21128366e-04  1.80035396e+00  1.50048451e+00  0.00000000e+00 
 1.23128366e-04  1.79964584e+00  1.50049251e+00  0.00000000e+00 
 1.25128366e-04  1.80035395e+00  1.50050051e+00  0.00000000e+00 
 1.27128366e-04  1.79964585e+00  1.50050851e+00  0.00000000e+00 
 1.29128366e-04  1.80035395e+00  1.50051651e+00  0.00000000e+00 
 1.31128366e-04  1.79964585e+00  1.50052451e+00  0.00000000e+00 
 1.33128366e-04  1.80035394e+00  1.50053251e+00  0.00000000e+00 
 1.35128366e-04  1.79964586e+00  1.50054051e+00  0.00000000e+00 
 1.37128366e-04  1.80035394e+00  1.50054851e+00  0.00000000e+00 
 1.39128366e-04  1.79964586e+00  1.50055651e+00  0.00000000e+00 
 1.41128366e-04  1.80035393e+00  1.50056451e+00  0.00000000e+00 
 1.43128366e-04  1.79964587e+00  1.50057251e+00  0.00000000e+00 
 1.45128366e-04  1.80035393e+00  1.50058051e+00  0.00000000e+00 
 1.47128366e-04  1.79964587e+00  1.50058851e+00  0.00000000e+00 
 1.49128366e-04  1.80035392e+00  1.50059651e+00  0.00000000e+00 
 1.51128366e-04  1.79964588e+00  1.50060451e+00  0.00000000e+00 
 1.53128366e-04  1.80035392e+00  1.50061251e+00  0.00000000e+00 
 1.55128366e-04  1.79964588e+00  1.50062051e+00  0.00000000e+00 
 1.57128366e-04  1.80035391e+00  1.50062851e+00  0.00000000e+00 
 1.59128366e-04  1.79964589e+00  1.50063651e+00  0.00000000e+00 
 1.61128366e-04  1.80035391e+00  1.50064451e+00  0.00000000e+00 
 1.63128366e-04  1.79964589e+00  1.50065251e+00  0.00000000e+00 
 1.65128366e-04  1.80035390e+00  1.50066051e+00  0.00000000e+00 
 1.67128366e-04  1.79964590e+00  1.50066851e+00  0.00000000e+00 
 1.69128366e-04  1.80035390e+00  1.50067651e+00  0.00000000e+00 
 1.71128366e-04  1.79964590e+00  1.50068451e+00  0.00000000e+00 
 1.73128366e-04  1.80035389e+00  1.50069251e+00  0.00000000e+00 
 1.75128366e-04  1.79964591e+00  1.50070051e+00  0.00000000e+00 
 1.77128366e-04  1.80035389e+00  1.50070851e+00  0.00000000e+00 
 1.79128366e-04  1.79964591e+00  1.50071651e+00  0.00000000e+00 
 1.81128366e-04  1.80035388e+00  1.50072451e+00  0.00000000e+00 
 1.83128366e-04  1.79964592e+00  1.50073251e+00  0.00000000e+00 
 1.85128366e-04  1.80035388e+00  1.50074051e+00  0.00000000e+00 
 1.87128366e-04  1.79964592e+00  1.50074851e+00  0.00000000e+00 
 1.89128366e-04  1.80035387e+00  1.50075651e+00  0.00000000e+00 
 1.91128366e-04  1.79964593e+00  1.50076451e+00  0.00000000e+00 
 1.93128366e-04  1.80035387e+00  1.50077251e+00  0.00000000e+00 
 1.95128366e-04  1.79964593e+00  1.50078051e+00  0.00000000e+00 
 1.97128366e-04  1.80035386e+00  1.50078851e+00  0.00000000e+00 
 1.99128366e-04  1.79964594e+00  1.50079651e+00  0.00000000e+00 
 2.00000000e-04  1.80035385e+00  1.50080000e+00  0.00000000e+00 
 2.00089443e-04  1.79999994e+00 -9.91996422e-02  1.60000000e+00 
 2.00268328e-04  1.79999995e+00 -9.91989267e-02  1.60000000e+00 
 2.00426883e-04  1.79999992e+00 -9.91982925e-02  1.60000000e+00 
 2.00605463e-04  1.79999998e+00 -9.91975781e-02  1.60000000e+00 
 2.00962624e-04  1.79999989e+00 -9.91961495e-02  1.60000000e+00 
 2.01676944e-04  1.79999999e+00 -9.91932922e-02  1.60000000e+00 
 2.03105585e-04  1.79999989e+00 -9.91875777e-02  1.60000000e+00 
 2.05105585e-04  1.79999999e+00 -9.91795777e-02  1.60000000e+00 
 2.07105585e-04  1.79999989e+00 -9.91715777e-02  1.60000000e+00 
 2.09105585e-04  1.80000000e+00 -9.91635777e-02  1.60000000e+00 
 2.11105585e-04  1.79999988e+00 -9.91555777e-02  1.60000000e+00 
 2.13105585e-04  1.80000000e+00 -9.91475777e-02  1.60000000e+00 
 2.15105585e-04  1.79999988e+00 -9.91395777e-02  1.60000000e+00 
 2.17105585e-04  1.80000000e+00 -9.91315777e-02  1.60000000e+00 
 2.19105585e-04  1.79999988e+00 -9.91235777e-02  1.60000000e+00 
 2.21105585e-04  1.80000001e+00 -9.91155777e-02  1.60000000e+00 
 2.23105585e-04  1.79999987e+00 -9.91075777e-02  1.60000000e+00 
 2.25105585e-04  1.80000001e+00 -9.90995777e-02  1.60000000e+00 
 2.27105585e-04  1.79999987e+00 -9.90915777e-02  1.60000000e+00 
 2.29105585e-04  1.80000001e+00 -9.90835777e-02  1.60000000e+00 
 2.31105585e-04  1.79999987e+00 -9.90755777e-02  1.60000000e+00 
 2.33105585e-04  1.80000001e+00 -9.90675777e-02  1.60000000e+00 
 2.35105585e-04  1.79999987e+00 -9.90595777e-02  1.60000000e+00 
 2.37105585e-04  1.80000002e+00 -9.90515777e-02  1.60000000e+00 
 2.39105585e-04  1.79999986e+00 -9.90435777e-02  1.60000000e+00 
 2.41105585e-04  1.80000002e+00 -9.90355777e-02  1.60000000e+00 
 2.43105585e-04  1.79999986e+00 -9.90275777e-02  1.60000000e+00 
 2.45105585e-04  1.80000002e+00 -9.90195777e-02  1.60000000e+00 
 2.47105585e-04  1.79999986e+00 -9.90115777e-02  1.60000000e+00 
 2.49105585e-04  1.80000002e+00 -9.90035777e-02  1.60000000e+00 
 2.51105585e-04  1.79999986e+00 -9.89955777e-02  1.60000000e+00 
 2.53105585e-04  1.80000003e+00 -9.89875777e-02  1.60000000e+00 
 2.55105585e-04  1.79999985e+00 -9.89795777e-02  1.60000000e+00 
 2.57105585e-04  1.80000003e+00 -9.89715777e-02  1.60000000e+00 
 2.59105585e-04  1.79999985e+00 -9.89635777e-02  1.60000000e+00 
 2.61105585e-04  1.80000003e+00 -9.89555777e-02  1.60000000e+00 
 2.63105585e-04  1.79999985e+00 -9.89475777e-02  1.60000000e+00 
 2.65105585e-04  1.80000003e+00 -9.89395777e-02  1.60000000e+00 
 2.67105585e-04  1.79999985e+00 -9.89315777e-02  1.60000000e+00 
 2.69105585e-04  1.80000004e+00 -9.89235777e-02  1.60000000e+00 
 2.71105585e-04  1.79999984e+00 -9.89155777e-02  1.60000000e+00 
 2.73105585e-04  1.80000004e+00 -9.89075777e-02  1.60000000e+00 
 2.75105585e-04  1.79999984e+00 -9.88995777e-02  1.60000000e+00 
 2.77105585e-04  1.80000004e+00 -9.88915777e-02  1.60000000e+00 
 2.79105585e-04  1.79999984e+00 -9.88835777e-02  1.60000000e+00 
 2.81105585e-04  1.80000004e+00 -9.88755777e-02  1.60000000e+00 
 2.83105585e-04  1.79999984e+00 -9.88675777e-02  1.60000000e+00 
 2.85105585e-04  1.80000005e+00 -9.88595777e-02  1.60000000e+00 
 2.87105585e-04  1.79999983e+00 -9.88515777e-02  1.60000000e+00 
 2.89105585e-04  1.80000005e+00 -9.88435777e-02  1.60000000e+00 
 2.91105585e-04  1.79999983e+00 -9.88355777e-02  1.60000000e+00 
 2.93105585e-04  1.80000005e+00 -9.88275777e-02  1.60000000e+00 
 2.95105585e-04  1.79999983e+00 -9.88195777e-02  1.60000000e+00 
 2.97105585e-04  1.80000005e+00 -9.88115777e-02  1.60000000e+00 
 2.99105585e-04  1.79999982e+00 -9.88035777e-02  1.60000000e+00 
 3.01105585e-04  1.80000006e+00 -9.87955777e-02  1.60000000e+00 
 3.03105585e-04  1.79999982e+00 -9.87875777e-02  1.60000000e+00 
 3.05105585e-04  1.80000006e+00 -9.87795777e-02  1.60000000e+00 
 3.07105585e-04  1.79999982e+00 -9.87715777e-02  1.60000000e+00 
 3.09105585e-04  1.80000006e+00 -9.87635777e-02  1.60000000e+00 
 3.11105585e-04  1.79999982e+00 -9.87555777e-02  1.60000000e+00 
 3.13105585e-04  1.80000006e+00 -9.87475777e-02  1.60000000e+00 
 3.15105585e-04  1.79999981e+00 -9.87395777e-02  1.60000000e+00 
 3.17105585e-04  1.80000007e+00 -9.87315777e-02  1.60000000e+00 
 3.19105585e-04  1.79999981e+00 -9.87235777e-02  1.60000000e+00 
 3.21105585e-04  1.80000007e+00 -9.87155777e-02  1.60000000e+00 
 3.23105585e-04  1.79999981e+00 -9.87075777e-02  1.60000000e+00 
 3.25105585e-04  1.80000007e+00 -9.86995777e-02  1.60000000e+00 
 3.27105585e-04  1.79999981e+00 -9.86915777e-02  1.60000000e+00 
 3.29105585e-04  1.80000008e+00 -9.86835777e-02  1.60000000e+00 
 3.31105585e-04  1.79999980e+00 -9.86755777e-02  1.60000000e+00 
 3.33105585e-04  1.80000008e+00 -9.86675777e-02  1.60000000e+00 
 3.35105585e-04  1.79999980e+00 -9.86595777e-02  1.60000000e+00 
 3.37105585e-04  1.80000008e+00 -9.86515777e-02  1.60000000e+00 
 3.39105585e-04  1.79999980e+00 -9.86435777e-02  1.60000000e+00 
 3.41105585e-04  1.80000008e+00 -9.86355777e-02  1.60000000e+00 
 3.43105585e-04  1.79999980e+00 -9.86275777e-02  1.60000000e+00 
 3.45105585e-04  1.80000009e+00 -9.86195777e-02  1.60000000e+00 
 3.47105585e-04  1.79999979e+00 -9.86115777e-02  1.60000000e+00 
 3.49105585e-04  1.80000009e+00 -9.86035777e-02  1.60000000e+00 
 3.51105585e-04  1.79999979e+00 -9.85955777e-02  1.60000000e+00 
 3.53105585e-04  1.80000009e+00 -9.85875777e-02  1.60000000e+00 
 3.55105585e-04  1.79999979e+00 -9.85795777e-02  1.60000000e+00 
 3.57105585e-04  1.80000009e+00 -9.85715777e-02  1.60000000e+00 
 3.59105585e-04  1.79999979e+00 -9.85635777e-02  1.60000000e+00 
 3.61105585e-04  1.80000010e+00 -9.85555777e-02  1.60000000e+00 
 3.63105585e-04  1.79999978e+00 -9.85475777e-02  1.60000000e+00 
 3.65105585e-04  1.80000010e+00 -9.85395777e-02  1.60000000e+00 
 3.67105585e-04  1.79999978e+00 -9.85315777e-02  1.60000000e+00 
 3.69105585e-04  1.80000010e+00 -9.85235777e-02  1.60000000e+00 
 3.71105585e-04  1.79999978e+00 -9.85155777e-02  1.60000000e+00 
 3.73105585e-04  1.80000010e+00 -9.85075777e-02  1.60000000e+00 
 3.75105585e-04  1.79999977e+00 -9.84995777e-02  1.60000000e+00 
 3.77105585e-04  1.80000011e+00 -9.84915777e-02  1.60000000e+00 
 3.79105585e-04  1.79999977e+00 -9.84835777e-02  1.60000000e+00 
 3.81105585e-04  1.80000011e+00 -9.84755777e-02  1.60000000e+00 
 3.83105585e-04  1.79999977e+00 -9.84675777e-02  1.60000000e+00 
 3.85105585e-04  1.80000011e+00 -9.84595777e-02  1.60000000e+00 
 3.87105585e-04  1.79999977e+00 -9.84515777e-02  1.60000000e+00 
 3.89105585e-04  1.80000011e+00 -9.84435777e-02  1.60000000e+00 
 3.91105585e-04  1.79999976e+00 -9.84355777e-02  1.60000000e+00 
 3.93105585e-04  1.80000012e+00 -9.84275777e-02  1.60000000e+00 
 3.95105585e-04  1.79999976e+00 -9.84195777e-02  1.60000000e+00 
 3.97105585e-04  1.80000012e+00 -9.84115777e-02  1.60000000e+00 
 3.99105585e-04  1.79999976e+00 -9.84035777e-02  1.60000000e+00 
 4.01105585e-04  1.80000012e+00 -9.83955777e-02  1.60000000e+00 
 4.03105585e-04  1.79999976e+00 -9.83875777e-02  1.60000000e+00 
 4.05105585e-04  1.80000012e+00 -9.83795777e-02  1.60000000e+00 
 4.07105585e-04  1.79999975e+00 -9.83715777e-02  1.60000000e+00 
 4.09105585e-04  1.80000013e+00 -9.83635777e-02  1.60000000e+00 
 4.11105585e-04  1.79999975e+00 -9.83555777e-02  1.60000000e+00 
 4.13105585e-04  1.80000013e+00 -9.83475777e-02  1.60000000e+00 
 4.15105585e-04  1.79999975e+00 -9.83395777e-02  1.60000000e+00 
 4.17105585e-04  1.80000013e+00 -9.83315777e-02  1.60000000e+00 
 4.19105585e-04  1.79999975e+00 -9.83235777e-02  1.60000000e+00 
 4.21105585e-04  1.80000013e+00 -9.83155777e-02  1.60000000e+00 
 4.23105585e-04  1.79999974e+00 -9.83075777e-02  1.60000000e+00 
 4.25105585e-04  1.80000014e+00 -9.82995777e-02  1.60000000e+00 
 4.27105585e-04  1.79999974e+00 -9.82915777e-02  1.60000000e+00 
 4.29105585e-04  1.80000014e+00 -9.82835777e-02  1.60000000e+00 
 4.31105585e-04  1.79999974e+00 -9.82755777e-02  1.60000000e+00 
 4.33105585e-04  1.80000014e+00 -9.82675777e-02  1.60000000e+00 
 4.35105585e-04  1.79999974e+00 -9.82595777e-02  1.60000000e+00 
 4.37105585e-04  1.80000015e+00 -9.82515777e-02  1.60000000e+00 
 4.39105585e-04  1.79999973e+00 -9.82435777e-02  1.60000000e+00 
 4.41105585e-04  1.80000015e+00 -9.82355777e-02  1.60000000e+00 
 4.43105585e-04  1.79999973e+00 -9.82275777e-02  1.60000000e+00 
 4.45105585e-04  1.80000015e+00 -9.82195777e-02  1.60000000e+00 
 4.47105585e-04  1.79999973e+00 -9.82115777e-02  1.60000000e+00 
 4.49105585e-04  1.80000015e+00 -9.82035777e-02  1.60000000e+00 
 4.51105585e-04  1.79999973e+00 -9.81955777e-02  1.60000000e+00 
 4.53105585e-04  1.80000016e+00 -9.81875777e-02  1.60000000e+00 
 4.55105585e-04  1.79999972e+00 -9.81795777e-02  1.60000000e+00 
 4.57105585e-04  1.80000016e+00 -9.81715777e-02  1.60000000e+00 
 4.59105585e-04  1.79999972e+00 -9.81635777e-02  1.60000000e+00 
 4.61105585e-04  1.80000016e+00 -9.81555777e-02  1.60000000e+00 
 4.63105585e-04  1.79999972e+00 -9.81475777e-02  1.60000000e+00 
 4.65105585e-04  1.80000016e+00 -9.81395777e-02  1.60000000e+00 
 4.67105585e-04  1.79999972e+00 -9.81315777e-02  1.60000000e+00 
 4.69105585e-04  1.80000017e+00 -9.81235777e-02  1.60000000e+00 
 4.71105585e-04  1.79999971e+00 -9.81155777e-02  1.60000000e+00 
 4.73105585e-04  1.80000017e+00 -9.81075777e-02  1.60000000e+00 
 4.75105585e-04  1.79999971e+00 -9.80995777e-02  1.60000000e+00 
 4.77105585e-04  1.80000017e+00 -9.80915777e-02  1.60000000e+00 
 4.79105585e-04  1.79999971e+00 -9.80835777e-02  1.60000000e+00 
 4.81105585e-04  1.80000017e+00 -9.80755777e-02  1.60000000e+00 
 4.83105585e-04  1.79999970e+00 -9.80675777e-02  1.60000000e+00 
 4.85105585e-04  1.80000018e+00 -9.80595777e-02  1.60000000e+00 
 4.87105585e-04  1.79999970e+00 -9.80515777e-02  1.60000000e+00 
 4.89105585e-04  1.80000018e+00 -9.80435777e-02  1.60000000e+00 
 4.91105585e-04  1.79999970e+00 -9.80355777e-02  1.60000000e+00 
 4.93105585e-04  1.80000018e+00 -9.80275777e-02  1.60000000e+00 
 4.95105585e-04  1.79999970e+00 -9.80195777e-02  1.60000000e+00 
 4.97105585e-04  1.80000018e+00 -9.80115777e-02  1.60000000e+00 
 4.99105585e-04  1.79999969e+00 -9.80035777e-02  1.60000000e+00 
 5.00100100e-04  1.80000019e+00 -9.79995996e-02  1.60000000e+00 
 5.00100110e-04  1.79996314e+00 -9.79995996e-02  1.60000000e+00 
 5.00100130e-04  1.79996503e+00 -9.79995995e-02  1.60000000e+00 
 5.00100170e-04  1.80024809e+00 -9.79995993e-02  1.60000000e+00 
 5.00100200e-04  1.80223367e+00 -9.79995992e-02  1.60000000e+00 
 5.00100208e-04  1.80292362e+00 -9.79995992e-02  1.60000000e+00 
 5.00100224e-04  1.80246740e+00 -9.79995991e-02  1.60000000e+00 
 5.00100256e-04  1.79898087e+00 -9.79995990e-02  1.60000000e+00 
 5.00100320e-04  1.79204403e+00 -9.79995987e-02  1.60000000e+00 
 5.00100405e-04  1.80276061e+00 -9.79995984e-02  1.60000000e+00 
 5.00100483e-04  1.79471912e+00 -9.79995981e-02  1.60000000e+00 
 5.00100637e-04  1.80386718e+00 -9.79995975e-02  1.60000000e+00 
 5.00100830e-04  1.79630325e+00 -9.79995967e-02  1.60000000e+00 
 5.00101216e-04  1.80342789e+00 -9.79995951e-02  1.60000000e+00 
 5.00101932e-04  1.79657825e+00 -9.79995923e-02  1.60000000e+00 
 5.00103101e-04  1.80334582e+00 -9.79995876e-02  1.60000000e+00 
 5.00105438e-04  1.79665446e+00 -9.79995782e-02  1.60000000e+00 
 5.00110113e-04  1.80333016e+00 -9.79995595e-02  1.60000000e+00 
