 time            v(Q)            v(A)-v(B)       v(B)           
 0.00000000e+00  2.67657754e-09  1.20000000e+00  0.00000000e+00 
 1.00000000e-09  2.67657843e-09  1.20000000e+00  0.00000000e+00 
 2.00000000e-09  2.67657756e-09  1.20000001e+00  0.00000000e+00 
 4.00000000e-09  2.67657751e-09  1.20000002e+00  0.00000000e+00 
 8.00000000e-09  2.67657752e-09  1.20000003e+00  0.00000000e+00 
 1.60000000e-08  2.67657753e-09  1.20000006e+00  0.00000000e+00 
 3.20000000e-08  2.67657754e-09  1.20000013e+00  0.00000000e+00 
 6.40000000e-08  2.67657752e-09  1.20000026e+00  0.00000000e+00 
 1.00000000e-07  2.67657755e-09  1.20000040e+00  0.00000000e+00 
 1.00010000e-07  5.78334117e-05  1.20000040e+00  0.00000000e+00 
 1.00030000e-07 -8.02424000e-07  1.20000040e+00  0.00000000e+00 
 1.00070000e-07 -5.35607481e-04  1.20000040e+00  0.00000000e+00 
 1.00100000e-07 -3.84350259e-04  1.20000040e+00  0.00000000e+00 
 1.00107600e-07  3.80886616e-04  1.20000040e+00  0.00000000e+00 
 1.00122801e-07  1.73415356e-03  1.20000040e+00  0.00000000e+00 
 1.00153202e-07  6.81629796e-03  1.20000040e+00  0.00000000e+00 
 1.00207662e-07 -2.16389390e-01  1.20000040e+00  0.00000000e+00 
 1.00268748e-07  4.41178016e-01  1.20000040e+00  0.00000000e+00 
 1.00334217e-07  1.27196888e+00  1.20000040e+00  0.00000000e+00 
 1.00449760e-07  1.72764935e+00  1.20000040e+00  0.00000000e+00 
 1.00590739e-07  1.81850613e+00  1.20000040e+00  0.00000000e+00 
 1.00768910e-07  1.78601845e+00  1.20000040e+00  0.00000000e+00 
 1.01087568e-07  1.81301402e+00  1.20000040e+00  0.00000000e+00 
 1.01724884e-07  1.78726051e+00  1.20000041e+00  0.00000000e+00 
 1.02932581e-07  1.81261501e+00  1.20000041e+00  0.00000000e+00 
 1.05338199e-07  1.78743906e+00  1.20000042e+00  0.00000000e+00 
 1.10089854e-07  1.81253489e+00  1.20000044e+00  0.00000000e+00 
 1.19593164e-07  1.78747881e+00  1.20000048e+00  0.00000000e+00 
 1.38599785e-07  1.81251637e+00  1.20000055e+00  0.00000000e+00 
 1.76613027e-07  1.78748859e+00  1.20000071e+00  0.00000000e+00 
 2.52639511e-07  1.81251217e+00  1.20000101e+00  0.00000000e+00 
 4.04692478e-07  1.78749107e+00  1.20000162e+00  0.00000000e+00 
 7.08798412e-07  1.81251122e+00  1.20000284e+00  0.00000000e+00 
 1.31701028e-06  1.78749171e+00  1.20000527e+00  0.00000000e+00 
 2.53343402e-06  1.81251099e+00  1.20001013e+00  0.00000000e+00 
 4.53343402e-06  1.78749185e+00  1.20001813e+00  0.00000000e+00 
 6.53343402e-06  1.81251226e+00  1.20002613e+00  0.00000000e+00 
 8.53343402e-06  1.78749196e+00  1.20003413e+00  0.00000000e+00 
 1.05334340e-05  1.81251216e+00  1.20004213e+00  0.00000000e+00 
 1.25334340e-05  1.78749207e+00  1.20005013e+00  0.00000000e+00 
 1.45334340e-05  1.81251206e+00  1.20005813e+00  0.00000000e+00 
 1.65334340e-05  1.78749217e+00  1.20006613e+00  0.00000000e+00 
 1.85334340e-05  1.81251195e+00  1.20007413e+00  0.00000000e+00 
 2.05334340e-05  1.78749228e+00  1.20008213e+00  0.00000000e+00 
 2.25334340e-05  1.81251185e+00  1.20009013e+00  0.00000000e+00 
 2.45334340e-05  1.78749238e+00  1.20009813e+00  0.00000000e+00 
 2.65334340e-05  1.81251175e+00  1.20010613e+00  0.00000000e+00 
 2.85334340e-05  1.78749249e+00  1.20011413e+00  0.00000000e+00 
 3.05334340e-05  1.81251164e+00  1.20012213e+00  0.00000000e+00 
 3.25334340e-05  1.78749260e+00  1.20013013e+00  0.00000000e+00 
 3.45334340e-05  1.81251154e+00  1.20013813e+00  0.00000000e+00 
 3.65334340e-05  1.78749270e+00  1.20014613e+00  0.00000000e+00 
 3.85334340e-05  1.81251144e+00  1.20015413e+00  0.00000000e+00 
 4.05334340e-05  1.78749281e+00  1.20016213e+00  0.00000000e+00 
 4.25334340e-05  1.81251134e+00  1.20017013e+00  0.00000000e+00 
 4.45334340e-05  1.78749291e+00  1.20017813e+00  0.00000000e+00 
 4.65334340e-05  1.81251123e+00  1.20018613e+00  0.00000000e+00 
 4.85334340e-05  1.78749302e+00  1.20019413e+00  0.00000000e+00 
 5.05334340e-05  1.81251113e+00  1.20020213e+00  0.00000000e+00 
 5.25334340e-05  1.78749312e+00  1.20021013e+00  0.00000000e+00 
 5.45334340e-05  1.81251103e+00  1.20021813e+00  0.00000000e+00 
 5.65334340e-05  1.78749323e+00  1.20022613e+00  0.00000000e+00 
 5.85334340e-05  1.81251092e+00  1.20023413e+00  0.00000000e+00 
 6.05334340e-05  1.78749333e+00  1.20024213e+00  0.00000000e+00 
 6.25334340e-05  1.81251082e+00  1.20025013e+00  0.00000000e+00 
 6.45334340e-05  1.78749344e+00  1.20025813e+00  0.00000000e+00 
 6.65334340e-05  1.81251072e+00  1.20026613e+00  0.00000000e+00 
 6.85334340e-05  1.78749354e+00  1.20027413e+00  0.00000000e+00 
 7.05334340e-05  1.81251062e+00  1.20028213e+00  0.00000000e+00 
 7.25334340e-05  1.78749364e+00  1.20029013e+00  0.00000000e+00 
 7.45334340e-05  1.81251051e+00  1.20029813e+00  0.00000000e+00 
 7.65334340e-05  1.78749375e+00  1.20030613e+00  0.00000000e+00 
 7.85334340e-05  1.81251041e+00  1.20031413e+00  0.00000000e+00 
 8.05334340e-05  1.78749385e+00  1.20032213e+00  0.00000000e+00 
 8.25334340e-05  1.81251031e+00  1.20033013e+00  0.00000000e+00 
 8.45334340e-05  1.78749396e+00  1.20033813e+00  0.00000000e+00 
 8.65334340e-05  1.81251021e+00  1.20034613e+00  0.00000000e+00 
 8.85334340e-05  1.78749406e+00  1.20035413e+00  0.00000000e+00 
 9.05334340e-05  1.81251010e+00  1.20036213e+00  0.00000000e+00 
 9.25334340e-05  1.78749417e+00  1.20037013e+00  0.00000000e+00 
 9.45334340e-05  1.81251000e+00  1.20037813e+00  0.00000000e+00 
 9.65334340e-05  1.78749427e+00  1.20038613e+00  0.00000000e+00 
 9.85334340e-05  1.81250990e+00  1.20039413e+00  0.00000000e+00 
 1.00533434e-04  1.78749437e+00  1.20040213e+00  0.00000000e+00 
 1.02533434e-04  1.81250980e+00  1.20041013e+00  0.00000000e+00 
 1.04533434e-04  1.78749448e+00  1.20041813e+00  0.00000000e+00 
 1.06533434e-04  1.81250970e+00  1.20042613e+00  0.00000000e+00 
 1.08533434e-04  1.78749458e+00  1.20043413e+00  0.00000000e+00 
 1.10533434e-04  1.81250959e+00  1.20044213e+00  0.00000000e+00 
 1.12533434e-04  1.78749469e+00  1.20045013e+00  0.00000000e+00 
 1.14533434e-04  1.81250949e+00  1.20045813e+00  0.00000000e+00 
 1.16533434e-04  1.78749479e+00  1.20046613e+00  0.00000000e+00 
 1.18533434e-04  1.81250939e+00  1.20047413e+00  0.00000000e+00 
 1.20533434e-04  1.78749490e+00  1.20048213e+00  0.00000000e+00 
 1.22533434e-04  1.81250929e+00  1.20049013e+00  0.00000000e+00 
 1.24533434e-04  1.78749500e+00  1.20049813e+00  0.00000000e+00 
 1.26533434e-04  1.81250919e+00  1.20050613e+00  0.00000000e+00 
 1.28533434e-04  1.78749510e+00  1.20051413e+00  0.00000000e+00 
 1.30533434e-04  1.81250908e+00  1.20052213e+00  0.00000000e+00 
 1.32533434e-04  1.78749521e+00  1.20053013e+00  0.00000000e+00 
 1.34533434e-04  1.81250898e+00  1.20053813e+00  0.00000000e+00 
 1.36533434e-04  1.78749531e+00  1.20054613e+00  0.00000000e+00 
 1.38533434e-04  1.81250888e+00  1.20055413e+00  0.00000000e+00 
 1.40533434e-04  1.78749541e+00  1.20056213e+00  0.00000000e+00 
 1.42533434e-04  1.81250878e+00  1.20057013e+00  0.00000000e+00 
 1.44533434e-04  1.78749552e+00  1.20057813e+00  0.00000000e+00 
 1.46533434e-04  1.81250868e+00  1.20058613e+00  0.00000000e+00 
 1.48533434e-04  1.78749562e+00  1.20059413e+00  0.00000000e+00 
 1.50533434e-04  1.81250857e+00  1.20060213e+00  0.00000000e+00 
 1.52533434e-04  1.78749573e+00  1.20061013e+00  0.00000000e+00 
 1.54533434e-04  1.81250847e+00  1.20061813e+00  0.00000000e+00 
 1.56533434e-04  1.78749583e+00  1.20062613e+00  0.00000000e+00 
 1.58533434e-04  1.81250837e+00  1.20063413e+00  0.00000000e+00 
 1.60533434e-04  1.78749593e+00  1.20064213e+00  0.00000000e+00 
 1.62533434e-04  1.81250827e+00  1.20065013e+00  0.00000000e+00 
 1.64533434e-04  1.78749604e+00  1.20065813e+00  0.00000000e+00 
 1.66533434e-04  1.81250817e+00  1.20066613e+00  0.00000000e+00 
 1.68533434e-04  1.78749614e+00  1.20067413e+00  0.00000000e+00 
 1.70533434e-04  1.81250807e+00  1.20068213e+00  0.00000000e+00 
 1.72533434e-04  1.78749624e+00  1.20069013e+00  0.00000000e+00 
 1.74533434e-04  1.81250796e+00  1.20069813e+00  0.00000000e+00 
 1.76533434e-04  1.78749635e+00  1.20070613e+00  0.00000000e+00 
 1.78533434e-04  1.81250786e+00  1.20071413e+00  0.00000000e+00 
 1.80533434e-04  1.78749645e+00  1.20072213e+00  0.00000000e+00 
 1.82533434e-04  1.81250776e+00  1.20073013e+00  0.00000000e+00 
 1.84533434e-04  1.78749656e+00  1.20073813e+00  0.00000000e+00 
 1.86533434e-04  1.81250766e+00  1.20074613e+00  0.00000000e+00 
 1.88533434e-04  1.78749666e+00  1.20075413e+00  0.00000000e+00 
 1.90533434e-04  1.81250756e+00  1.20076213e+00  0.00000000e+00 
 1.92533434e-04  1.78749676e+00  1.20077013e+00  0.00000000e+00 
 1.94533434e-04  1.81250746e+00  1.20077813e+00  0.00000000e+00 
 1.96533434e-04  1.78749687e+00  1.20078613e+00  0.00000000e+00 
 1.98533434e-04  1.81250735e+00  1.20079413e+00  0.00000000e+00 
 2.00000000e-04  1.78749118e+00  1.20080000e+00  0.00000000e+00 
 2.00139638e-04  1.79999935e+00 -9.91994414e-02  1.30000000e+00 
 2.00418915e-04  1.80000052e+00 -9.91983243e-02  1.30000000e+00 
 2.00663736e-04  1.79999936e+00 -9.91973451e-02  1.30000000e+00 
 2.00944817e-04  1.80000051e+00 -9.91962207e-02  1.30000000e+00 
 2.01383535e-04  1.79999937e+00 -9.91944659e-02  1.30000000e+00 
 2.02050216e-04  1.80000051e+00 -9.91917991e-02  1.30000000e+00 
 2.03383576e-04  1.79999937e+00 -9.91864657e-02  1.30000000e+00 
 2.05383576e-04  1.80000051e+00 -9.91784657e-02  1.30000000e+00 
 2.07383576e-04  1.79999937e+00 -9.91704657e-02  1.30000000e+00 
 2.09383576e-04  1.80000051e+00 -9.91624657e-02  1.30000000e+00 
 2.11383576e-04  1.79999937e+00 -9.91544657e-02  1.30000000e+00 
 2.13383576e-04  1.80000050e+00 -9.91464657e-02  1.30000000e+00 
 2.15383576e-04  1.79999937e+00 -9.91384657e-02  1.30000000e+00 
 2.17383576e-04  1.80000050e+00 -9.91304657e-02  1.30000000e+00 
 2.19383576e-04  1.79999938e+00 -9.91224657e-02  1.30000000e+00 
 2.21383576e-04  1.80000050e+00 -9.91144657e-02  1.30000000e+00 
 2.23383576e-04  1.79999938e+00 -9.91064657e-02  1.30000000e+00 
 2.25383576e-04  1.80000050e+00 -9.90984657e-02  1.30000000e+00 
 2.27383576e-04  1.79999938e+00 -9.90904657e-02  1.30000000e+00 
 2.29383576e-04  1.80000050e+00 -9.90824657e-02  1.30000000e+00 
 2.31383576e-04  1.79999938e+00 -9.90744657e-02  1.30000000e+00 
 2.33383576e-04  1.80000050e+00 -9.90664657e-02  1.30000000e+00 
 2.35383576e-04  1.79999938e+00 -9.90584657e-02  1.30000000e+00 
 2.37383576e-04  1.80000050e+00 -9.90504657e-02  1.30000000e+00 
 2.39383576e-04  1.79999938e+00 -9.90424657e-02  1.30000000e+00 
 2.41383576e-04  1.80000050e+00 -9.90344657e-02  1.30000000e+00 
 2.43383576e-04  1.79999938e+00 -9.90264657e-02  1.30000000e+00 
 2.45383576e-04  1.80000050e+00 -9.90184657e-02  1.30000000e+00 
 2.47383576e-04  1.79999938e+00 -9.90104657e-02  1.30000000e+00 
 2.49383576e-04  1.80000050e+00 -9.90024657e-02  1.30000000e+00 
 2.51383576e-04  1.79999938e+00 -9.89944657e-02  1.30000000e+00 
 2.53383576e-04  1.80000050e+00 -9.89864657e-02  1.30000000e+00 
 2.55383576e-04  1.79999938e+00 -9.89784657e-02  1.30000000e+00 
 2.57383576e-04  1.80000050e+00 -9.89704657e-02  1.30000000e+00 
 2.59383576e-04  1.79999938e+00 -9.89624657e-02  1.30000000e+00 
 2.61383576e-04  1.80000050e+00 -9.89544657e-02  1.30000000e+00 
 2.63383576e-04  1.79999938e+00 -9.89464657e-02  1.30000000e+00 
 2.65383576e-04  1.80000050e+00 -9.89384657e-02  1.30000000e+00 
 2.67383576e-04  1.79999938e+00 -9.89304657e-02  1.30000000e+00 
 2.69383576e-04  1.80000050e+00 -9.89224657e-02  1.30000000e+00 
 2.71383576e-04  1.79999938e+00 -9.89144657e-02  1.30000000e+00 
 2.73383576e-04  1.80000049e+00 -9.89064657e-02  1.30000000e+00 
 2.75383576e-04  1.79999938e+00 -9.88984657e-02  1.30000000e+00 
 2.77383576e-04  1.80000049e+00 -9.88904657e-02  1.30000000e+00 
 2.79383576e-04  1.79999938e+00 -9.88824657e-02  1.30000000e+00 
 2.81383576e-04  1.80000049e+00 -9.88744657e-02  1.30000000e+00 
 2.83383576e-04  1.79999938e+00 -9.88664657e-02  1.30000000e+00 
 2.85383576e-04  1.80000049e+00 -9.88584657e-02  1.30000000e+00 
 2.87383576e-04  1.79999939e+00 -9.88504657e-02  1.30000000e+00 
 2.89383576e-04  1.80000049e+00 -9.88424657e-02  1.30000000e+00 
 2.91383576e-04  1.79999939e+00 -9.88344657e-02  1.30000000e+00 
 2.93383576e-04  1.80000049e+00 -9.88264657e-02  1.30000000e+00 
 2.95383576e-04  1.79999939e+00 -9.88184657e-02  1.30000000e+00 
 2.97383576e-04  1.80000049e+00 -9.88104657e-02  1.30000000e+00 
 2.99383576e-04  1.79999939e+00 -9.88024657e-02  1.30000000e+00 
 3.01383576e-04  1.80000049e+00 -9.87944657e-02  1.30000000e+00 
 3.03383576e-04  1.79999939e+00 -9.87864657e-02  1.30000000e+00 
 3.05383576e-04  1.80000049e+00 -9.87784657e-02  1.30000000e+00 
 3.07383576e-04  1.79999939e+00 -9.87704657e-02  1.30000000e+00 
 3.09383576e-04  1.80000049e+00 -9.87624657e-02  1.30000000e+00 
 3.11383576e-04  1.79999939e+00 -9.87544657e-02  1.30000000e+00 
 3.13383576e-04  1.80000049e+00 -9.87464657e-02  1.30000000e+00 
 3.15383576e-04  1.79999939e+00 -9.87384657e-02  1.30000000e+00 
 3.17383576e-04  1.80000049e+00 -9.87304657e-02  1.30000000e+00 
 3.19383576e-04  1.79999939e+00 -9.87224657e-02  1.30000000e+00 
 3.21383576e-04  1.80000049e+00 -9.87144657e-02  1.30000000e+00 
 3.23383576e-04  1.79999939e+00 -9.87064657e-02  1.30000000e+00 
 3.25383576e-04  1.80000049e+00 -9.86984657e-02  1.30000000e+00 
 3.27383576e-04  1.79999939e+00 -9.86904657e-02  1.30000000e+00 
 3.29383576e-04  1.80000049e+00 -9.86824657e-02  1.30000000e+00 
 3.31383576e-04  1.79999939e+00 -9.86744657e-02  1.30000000e+00 
 3.33383576e-04  1.80000049e+00 -9.86664657e-02  1.30000000e+00 
 3.35383576e-04  1.79999939e+00 -9.86584657e-02  1.30000000e+00 
 3.37383576e-04  1.80000049e+00 -9.86504657e-02  1.30000000e+00 
 3.39383576e-04  1.79999939e+00 -9.86424657e-02  1.30000000e+00 
 3.41383576e-04  1.80000049e+00 -9.86344657e-02  1.30000000e+00 
 3.43383576e-04  1.79999939e+00 -9.86264657e-02  1.30000000e+00 
 3.45383576e-04  1.80000049e+00 -9.86184657e-02  1.30000000e+00 
 3.47383576e-04  1.79999939e+00 -9.86104657e-02  1.30000000e+00 
 3.49383576e-04  1.80000049e+00 -9.86024657e-02  1.30000000e+00 
 3.51383576e-04  1.79999939e+00 -9.85944657e-02  1.30000000e+00 
 3.53383576e-04  1.80000049e+00 -9.85864657e-02  1.30000000e+00 
 3.55383576e-04  1.79999939e+00 -9.85784657e-02  1.30000000e+00 
 3.57383576e-04  1.80000049e+00 -9.85704657e-02  1.30000000e+00 
 3.59383576e-04  1.79999939e+00 -9.85624657e-02  1.30000000e+00 
 3.61383576e-04  1.80000049e+00 -9.85544657e-02  1.30000000e+00 
 3.63383576e-04  1.79999939e+00 -9.85464657e-02  1.30000000e+00 
 3.65383576e-04  1.80000049e+00 -9.85384657e-02  1.30000000e+00 
 3.67383576e-04  1.79999938e+00 -9.85304657e-02  1.30000000e+00 
 3.69383576e-04  1.80000049e+00 -9.85224657e-02  1.30000000e+00 
 3.71383576e-04  1.79999938e+00 -9.85144657e-02  1.30000000e+00 
 3.73383576e-04  1.80000049e+00 -9.85064657e-02  1.30000000e+00 
 3.75383576e-04  1.79999938e+00 -9.84984657e-02  1.30000000e+00 
 3.77383576e-04  1.80000049e+00 -9.84904657e-02  1.30000000e+00 
 3.79383576e-04  1.79999938e+00 -9.84824657e-02  1.30000000e+00 
 3.81383576e-04  1.80000050e+00 -9.84744657e-02  1.30000000e+00 
 3.83383576e-04  1.79999938e+00 -9.84664657e-02  1.30000000e+00 
 3.85383576e-04  1.80000050e+00 -9.84584657e-02  1.30000000e+00 
 3.87383576e-04  1.79999938e+00 -9.84504657e-02  1.30000000e+00 
 3.89383576e-04  1.80000050e+00 -9.84424657e-02  1.30000000e+00 
 3.91383576e-04  1.79999938e+00 -9.84344657e-02  1.30000000e+00 
 3.93383576e-04  1.80000050e+00 -9.84264657e-02  1.30000000e+00 
 3.95383576e-04  1.79999938e+00 -9.84184657e-02  1.30000000e+00 
 3.97383576e-04  1.80000050e+00 -9.84104657e-02  1.30000000e+00 
 3.99383576e-04  1.79999938e+00 -9.84024657e-02  1.30000000e+00 
 4.01383576e-04  1.80000050e+00 -9.83944657e-02  1.30000000e+00 
 4.03383576e-04  1.79999938e+00 -9.83864657e-02  1.30000000e+00 
 4.05383576e-04  1.80000050e+00 -9.83784657e-02  1.30000000e+00 
 4.07383576e-04  1.79999938e+00 -9.83704657e-02  1.30000000e+00 
 4.09383576e-04  1.80000050e+00 -9.83624657e-02  1.30000000e+00 
 4.11383576e-04  1.79999938e+00 -9.83544657e-02  1.30000000e+00 
 4.13383576e-04  1.80000050e+00 -9.83464657e-02  1.30000000e+00 
 4.15383576e-04  1.79999938e+00 -9.83384657e-02  1.30000000e+00 
 4.17383576e-04  1.80000050e+00 -9.83304657e-02  1.30000000e+00 
 4.19383576e-04  1.79999938e+00 -9.83224657e-02  1.30000000e+00 
 4.21383576e-04  1.80000050e+00 -9.83144657e-02  1.30000000e+00 
 4.23383576e-04  1.79999938e+00 -9.83064657e-02  1.30000000e+00 
 4.25383576e-04  1.80000050e+00 -9.82984657e-02  1.30000000e+00 
 4.27383576e-04  1.79999938e+00 -9.82904657e-02  1.30000000e+00 
 4.29383576e-04  1.80000050e+00 -9.82824657e-02  1.30000000e+00 
 4.31383576e-04  1.79999938e+00 -9.82744657e-02  1.30000000e+00 
 4.33383576e-04  1.80000050e+00 -9.82664657e-02  1.30000000e+00 
 4.35383576e-04  1.79999938e+00 -9.82584657e-02  1.30000000e+00 
 4.37383576e-04  1.80000050e+00 -9.82504657e-02  1.30000000e+00 
 4.39383576e-04  1.79999938e+00 -9.82424657e-02  1.30000000e+00 
 4.41383576e-04  1.80000050e+00 -9.82344657e-02  1.30000000e+00 
 4.43383576e-04  1.79999937e+00 -9.82264657e-02  1.30000000e+00 
 4.45383576e-04  1.80000050e+00 -9.82184657e-02  1.30000000e+00 
 4.47383576e-04  1.79999937e+00 -9.82104657e-02  1.30000000e+00 
 4.49383576e-04  1.80000051e+00 -9.82024657e-02  1.30000000e+00 
 4.51383576e-04  1.79999937e+00 -9.81944657e-02  1.30000000e+00 
 4.53383576e-04  1.80000051e+00 -9.81864657e-02  1.30000000e+00 
 4.55383576e-04  1.79999937e+00 -9.81784657e-02  1.30000000e+00 
 4.57383576e-04  1.80000051e+00 -9.81704657e-02  1.30000000e+00 
 4.59383576e-04  1.79999937e+00 -9.81624657e-02  1.30000000e+00 
 4.61383576e-04  1.80000051e+00 -9.81544657e-02  1.30000000e+00 
 4.63383576e-04  1.79999937e+00 -9.81464657e-02  1.30000000e+00 
 4.65383576e-04  1.80000051e+00 -9.81384657e-02  1.30000000e+00 
 4.67383576e-04  1.79999937e+00 -9.81304657e-02  1.30000000e+00 
 4.69383576e-04  1.80000051e+00 -9.81224657e-02  1.30000000e+00 
 4.71383576e-04  1.79999937e+00 -9.81144657e-02  1.30000000e+00 
 4.73383576e-04  1.80000051e+00 -9.81064657e-02  1.30000000e+00 
 4.75383576e-04  1.79999937e+00 -9.80984657e-02  1.30000000e+00 
 4.77383576e-04  1.80000051e+00 -9.80904657e-02  1.30000000e+00 
 4.79383576e-04  1.79999937e+00 -9.80824657e-02  1.30000000e+00 
 4.81383576e-04  1.80000051e+00 -9.80744657e-02  1.30000000e+00 
 4.83383576e-04  1.79999937e+00 -9.80664657e-02  1.30000000e+00 
 4.85383576e-04  1.80000051e+00 -9.80584657e-02  1.30000000e+00 
 4.87383576e-04  1.79999936e+00 -9.80504657e-02  1.30000000e+00 
 4.89383576e-04  1.80000051e+00 -9.80424657e-02  1.30000000e+00 
 4.91383576e-04  1.79999936e+00 -9.80344657e-02  1.30000000e+00 
 4.93383576e-04  1.80000052e+00 -9.80264657e-02  1.30000000e+00 
 4.95383576e-04  1.79999936e+00 -9.80184657e-02  1.30000000e+00 
 4.97383576e-04  1.80000052e+00 -9.80104657e-02  1.30000000e+00 
 4.99383576e-04  1.79999936e+00 -9.80024657e-02  1.30000000e+00 
 5.00100100e-04  1.80000052e+00 -9.79995996e-02  1.30000000e+00 
 5.00100110e-04  1.79995767e+00 -9.79995996e-02  1.30000000e+00 
 5.00100130e-04  1.79995394e+00 -9.79995995e-02  1.30000000e+00 
 5.00100170e-04  1.80030378e+00 -9.79995993e-02  1.30000000e+00 
 5.00100200e-04  1.80267246e+00 -9.79995992e-02  1.30000000e+00 
 5.00100208e-04  1.80351312e+00 -9.79995992e-02  1.30000000e+00 
 5.00100224e-04  1.80314358e+00 -9.79995991e-02  1.30000000e+00 
 5.00100256e-04  1.79901310e+00 -9.79995990e-02  1.30000000e+00 
 5.00100320e-04  1.79090189e+00 -9.79995987e-02  1.30000000e+00 
 5.00100405e-04  1.80206954e+00 -9.79995984e-02  1.30000000e+00 
 5.00100483e-04  1.79440098e+00 -9.79995981e-02  1.30000000e+00 
 5.00100639e-04  1.80399230e+00 -9.79995974e-02  1.30000000e+00 
 5.00100829e-04  1.79625119e+00 -9.79995967e-02  1.30000000e+00 
 5.00101210e-04  1.80347675e+00 -9.79995952e-02  1.30000000e+00 
 5.00101925e-04  1.79654198e+00 -9.79995923e-02  1.30000000e+00 
 5.00103079e-04  1.80338373e+00 -9.79995877e-02  1.30000000e+00 
 5.00105385e-04  1.79662302e+00 -9.79995785e-02  1.30000000e+00 
