 time            v(Q)            v(A)-v(B)       v(B)           
 0.00000000e+00  1.79999994e+00  1.40000000e+00  0.00000000e+00 
 1.00000000e-09  1.79999994e+00  1.40000000e+00  0.00000000e+00 
 2.00000000e-09  1.79999994e+00  1.40000001e+00  0.00000000e+00 
 4.00000000e-09  1.79999994e+00  1.40000002e+00  0.00000000e+00 
 8.00000000e-09  1.79999994e+00  1.40000003e+00  0.00000000e+00 
 1.60000000e-08  1.79999994e+00  1.40000006e+00  0.00000000e+00 
 3.20000000e-08  1.79999994e+00  1.40000013e+00  0.00000000e+00 
 6.40000000e-08  1.79999994e+00  1.40000026e+00  0.00000000e+00 
 1.00000000e-07  1.79999994e+00  1.40000040e+00  0.00000000e+00 
 1.00010000e-07  1.80019837e+00  1.40000040e+00  0.00000000e+00 
 1.00030000e-07  1.80027844e+00  1.40000040e+00  0.00000000e+00 
 1.00070000e-07  1.79738231e+00  1.40000040e+00  0.00000000e+00 
 1.00100000e-07  1.79738353e+00  1.40000040e+00  0.00000000e+00 
 1.00107591e-07  1.80095678e+00  1.40000040e+00  0.00000000e+00 
 1.00122772e-07  1.80566255e+00  1.40000040e+00  0.00000000e+00 
 1.00153134e-07  1.80984382e+00  1.40000040e+00  0.00000000e+00 
 1.00207893e-07  1.80020511e+00  1.40000040e+00  0.00000000e+00 
 1.00266517e-07  1.79881737e+00  1.40000040e+00  0.00000000e+00 
 1.00371156e-07  1.79937435e+00  1.40000040e+00  0.00000000e+00 
 1.00478774e-07  1.79922824e+00  1.40000040e+00  0.00000000e+00 
 1.00694009e-07  1.80054440e+00  1.40000040e+00  0.00000000e+00 
 1.01063877e-07  1.79949651e+00  1.40000040e+00  0.00000000e+00 
 1.01803613e-07  1.80049020e+00  1.40000041e+00  0.00000000e+00 
 1.03283084e-07  1.79951467e+00  1.40000041e+00  0.00000000e+00 
 1.06242026e-07  1.80048280e+00  1.40000042e+00  0.00000000e+00 
 1.12159911e-07  1.79951808e+00  1.40000045e+00  0.00000000e+00 
 1.23995680e-07  1.80048117e+00  1.40000050e+00  0.00000000e+00 
 1.47667218e-07  1.79951888e+00  1.40000059e+00  0.00000000e+00 
 1.95010295e-07  1.80048078e+00  1.40000078e+00  0.00000000e+00 
 2.89696449e-07  1.79951908e+00  1.40000116e+00  0.00000000e+00 
 4.79068756e-07  1.80048068e+00  1.40000192e+00  0.00000000e+00 
 8.57813371e-07  1.79951913e+00  1.40000343e+00  0.00000000e+00 
 1.61530260e-06  1.80048066e+00  1.40000646e+00  0.00000000e+00 
 3.13028106e-06  1.79951914e+00  1.40001252e+00  0.00000000e+00 
 5.13028106e-06  1.80048065e+00  1.40002052e+00  0.00000000e+00 
 7.13028106e-06  1.79951915e+00  1.40002852e+00  0.00000000e+00 
 9.13028106e-06  1.80048064e+00  1.40003652e+00  0.00000000e+00 
 1.11302811e-05  1.79951915e+00  1.40004452e+00  0.00000000e+00 
 1.31302811e-05  1.80048064e+00  1.40005252e+00  0.00000000e+00 
 1.51302811e-05  1.79951916e+00  1.40006052e+00  0.00000000e+00 
 1.71302811e-05  1.80048063e+00  1.40006852e+00  0.00000000e+00 
 1.91302811e-05  1.79951916e+00  1.40007652e+00  0.00000000e+00 
 2.11302811e-05  1.80048062e+00  1.40008452e+00  0.00000000e+00 
 2.31302811e-05  1.79951917e+00  1.40009252e+00  0.00000000e+00 
 2.51302811e-05  1.80048062e+00  1.40010052e+00  0.00000000e+00 
 2.71302811e-05  1.79951918e+00  1.40010852e+00  0.00000000e+00 
 2.91302811e-05  1.80048061e+00  1.40011652e+00  0.00000000e+00 
 3.11302811e-05  1.79951918e+00  1.40012452e+00  0.00000000e+00 
 3.31302811e-05  1.80048061e+00  1.40013252e+00  0.00000000e+00 
 3.51302811e-05  1.79951919e+00  1.40014052e+00  0.00000000e+00 
 3.71302811e-05  1.80048060e+00  1.40014852e+00  0.00000000e+00 
 3.91302811e-05  1.79951919e+00  1.40015652e+00  0.00000000e+00 
 4.11302811e-05  1.80048059e+00  1.40016452e+00  0.00000000e+00 
 4.31302811e-05  1.79951920e+00  1.40017252e+00  0.00000000e+00 
 4.51302811e-05  1.80048059e+00  1.40018052e+00  0.00000000e+00 
 4.71302811e-05  1.79951921e+00  1.40018852e+00  0.00000000e+00 
 4.91302811e-05  1.80048058e+00  1.40019652e+00  0.00000000e+00 
 5.11302811e-05  1.79951921e+00  1.40020452e+00  0.00000000e+00 
 5.31302811e-05  1.80048057e+00  1.40021252e+00  0.00000000e+00 
 5.51302811e-05  1.79951922e+00  1.40022052e+00  0.00000000e+00 
 5.71302811e-05  1.80048057e+00  1.40022852e+00  0.00000000e+00 
 5.91302811e-05  1.79951923e+00  1.40023652e+00  0.00000000e+00 
 6.11302811e-05  1.80048056e+00  1.40024452e+00  0.00000000e+00 
 6.31302811e-05  1.79951923e+00  1.40025252e+00  0.00000000e+00 
 6.51302811e-05  1.80048056e+00  1.40026052e+00  0.00000000e+00 
 6.71302811e-05  1.79951924e+00  1.40026852e+00  0.00000000e+00 
 6.91302811e-05  1.80048055e+00  1.40027652e+00  0.00000000e+00 
 7.11302811e-05  1.79951924e+00  1.40028452e+00  0.00000000e+00 
 7.31302811e-05  1.80048054e+00  1.40029252e+00  0.00000000e+00 
 7.51302811e-05  1.79951925e+00  1.40030052e+00  0.00000000e+00 
 7.71302811e-05  1.80048054e+00  1.40030852e+00  0.00000000e+00 
 7.91302811e-05  1.79951926e+00  1.40031652e+00  0.00000000e+00 
 8.11302811e-05  1.80048053e+00  1.40032452e+00  0.00000000e+00 
 8.31302811e-05  1.79951926e+00  1.40033252e+00  0.00000000e+00 
 8.51302811e-05  1.80048052e+00  1.40034052e+00  0.00000000e+00 
 8.71302811e-05  1.79951927e+00  1.40034852e+00  0.00000000e+00 
 8.91302811e-05  1.80048052e+00  1.40035652e+00  0.00000000e+00 
 9.11302811e-05  1.79951927e+00  1.40036452e+00  0.00000000e+00 
 9.31302811e-05  1.80048051e+00  1.40037252e+00  0.00000000e+00 
 9.51302811e-05  1.79951928e+00  1.40038052e+00  0.00000000e+00 
 9.71302811e-05  1.80048051e+00  1.40038852e+00  0.00000000e+00 
 9.91302811e-05  1.79951929e+00  1.40039652e+00  0.00000000e+00 
 1.01130281e-04  1.80048050e+00  1.40040452e+00  0.00000000e+00 
 1.03130281e-04  1.79951929e+00  1.40041252e+00  0.00000000e+00 
 1.05130281e-04  1.80048049e+00  1.40042052e+00  0.00000000e+00 
 1.07130281e-04  1.79951930e+00  1.40042852e+00  0.00000000e+00 
 1.09130281e-04  1.80048049e+00  1.40043652e+00  0.00000000e+00 
 1.11130281e-04  1.79951931e+00  1.40044452e+00  0.00000000e+00 
 1.13130281e-04  1.80048048e+00  1.40045252e+00  0.00000000e+00 
 1.15130281e-04  1.79951931e+00  1.40046052e+00  0.00000000e+00 
 1.17130281e-04  1.80048047e+00  1.40046852e+00  0.00000000e+00 
 1.19130281e-04  1.79951932e+00  1.40047652e+00  0.00000000e+00 
 1.21130281e-04  1.80048047e+00  1.40048452e+00  0.00000000e+00 
 1.23130281e-04  1.79951932e+00  1.40049252e+00  0.00000000e+00 
 1.25130281e-04  1.80048046e+00  1.40050052e+00  0.00000000e+00 
 1.27130281e-04  1.79951933e+00  1.40050852e+00  0.00000000e+00 
 1.29130281e-04  1.80048045e+00  1.40051652e+00  0.00000000e+00 
 1.31130281e-04  1.79951934e+00  1.40052452e+00  0.00000000e+00 
 1.33130281e-04  1.80048045e+00  1.40053252e+00  0.00000000e+00 
 1.35130281e-04  1.79951934e+00  1.40054052e+00  0.00000000e+00 
 1.37130281e-04  1.80048044e+00  1.40054852e+00  0.00000000e+00 
 1.39130281e-04  1.79951935e+00  1.40055652e+00  0.00000000e+00 
 1.41130281e-04  1.80048044e+00  1.40056452e+00  0.00000000e+00 
 1.43130281e-04  1.79951936e+00  1.40057252e+00  0.00000000e+00 
 1.45130281e-04  1.80048043e+00  1.40058052e+00  0.00000000e+00 
 1.47130281e-04  1.79951936e+00  1.40058852e+00  0.00000000e+00 
 1.49130281e-04  1.80048042e+00  1.40059652e+00  0.00000000e+00 
 1.51130281e-04  1.79951937e+00  1.40060452e+00  0.00000000e+00 
 1.53130281e-04  1.80048042e+00  1.40061252e+00  0.00000000e+00 
 1.55130281e-04  1.79951937e+00  1.40062052e+00  0.00000000e+00 
 1.57130281e-04  1.80048041e+00  1.40062852e+00  0.00000000e+00 
 1.59130281e-04  1.79951938e+00  1.40063652e+00  0.00000000e+00 
 1.61130281e-04  1.80048040e+00  1.40064452e+00  0.00000000e+00 
 1.63130281e-04  1.79951939e+00  1.40065252e+00  0.00000000e+00 
 1.65130281e-04  1.80048040e+00  1.40066052e+00  0.00000000e+00 
 1.67130281e-04  1.79951939e+00  1.40066852e+00  0.00000000e+00 
 1.69130281e-04  1.80048039e+00  1.40067652e+00  0.00000000e+00 
 1.71130281e-04  1.79951940e+00  1.40068452e+00  0.00000000e+00 
 1.73130281e-04  1.80048039e+00  1.40069252e+00  0.00000000e+00 
 1.75130281e-04  1.79951941e+00  1.40070052e+00  0.00000000e+00 
 1.77130281e-04  1.80048038e+00  1.40070852e+00  0.00000000e+00 
 1.79130281e-04  1.79951941e+00  1.40071652e+00  0.00000000e+00 
 1.81130281e-04  1.80048037e+00  1.40072452e+00  0.00000000e+00 
 1.83130281e-04  1.79951942e+00  1.40073252e+00  0.00000000e+00 
 1.85130281e-04  1.80048037e+00  1.40074052e+00  0.00000000e+00 
 1.87130281e-04  1.79951942e+00  1.40074852e+00  0.00000000e+00 
 1.89130281e-04  1.80048036e+00  1.40075652e+00  0.00000000e+00 
 1.91130281e-04  1.79951943e+00  1.40076452e+00  0.00000000e+00 
 1.93130281e-04  1.80048035e+00  1.40077252e+00  0.00000000e+00 
 1.95130281e-04  1.79951944e+00  1.40078052e+00  0.00000000e+00 
 1.97130281e-04  1.80048035e+00  1.40078852e+00  0.00000000e+00 
 1.99130281e-04  1.79951944e+00  1.40079652e+00  0.00000000e+00 
 2.00000000e-04  1.80048034e+00  1.40080000e+00  0.00000000e+00 
 2.00095987e-04  1.79999994e+00 -9.91996161e-02  1.50000000e+00 
 2.00287961e-04  1.79999994e+00 -9.91988482e-02  1.50000000e+00 
 2.00461736e-04  1.79999992e+00 -9.91981531e-02  1.50000000e+00 
 2.00655040e-04  1.79999997e+00 -9.91973798e-02  1.50000000e+00 
 2.01041647e-04  1.79999990e+00 -9.91958334e-02  1.50000000e+00 
 2.01814862e-04  1.79999998e+00 -9.91927406e-02  1.50000000e+00 
 2.03361292e-04  1.79999990e+00 -9.91865548e-02  1.50000000e+00 
 2.05361292e-04  1.79999999e+00 -9.91785548e-02  1.50000000e+00 
 2.07361292e-04  1.79999989e+00 -9.91705548e-02  1.50000000e+00 
 2.09361292e-04  1.79999999e+00 -9.91625548e-02  1.50000000e+00 
 2.11361292e-04  1.79999989e+00 -9.91545548e-02  1.50000000e+00 
 2.13361292e-04  1.79999999e+00 -9.91465548e-02  1.50000000e+00 
 2.15361292e-04  1.79999989e+00 -9.91385548e-02  1.50000000e+00 
 2.17361292e-04  1.80000000e+00 -9.91305548e-02  1.50000000e+00 
 2.19361292e-04  1.79999988e+00 -9.91225548e-02  1.50000000e+00 
 2.21361292e-04  1.80000000e+00 -9.91145548e-02  1.50000000e+00 
 2.23361292e-04  1.79999988e+00 -9.91065548e-02  1.50000000e+00 
 2.25361292e-04  1.80000000e+00 -9.90985548e-02  1.50000000e+00 
 2.27361292e-04  1.79999988e+00 -9.90905548e-02  1.50000000e+00 
 2.29361292e-04  1.80000000e+00 -9.90825548e-02  1.50000000e+00 
 2.31361292e-04  1.79999988e+00 -9.90745548e-02  1.50000000e+00 
 2.33361292e-04  1.80000001e+00 -9.90665548e-02  1.50000000e+00 
 2.35361292e-04  1.79999987e+00 -9.90585548e-02  1.50000000e+00 
 2.37361292e-04  1.80000001e+00 -9.90505548e-02  1.50000000e+00 
 2.39361292e-04  1.79999987e+00 -9.90425548e-02  1.50000000e+00 
 2.41361292e-04  1.80000001e+00 -9.90345548e-02  1.50000000e+00 
 2.43361292e-04  1.79999987e+00 -9.90265548e-02  1.50000000e+00 
 2.45361292e-04  1.80000001e+00 -9.90185548e-02  1.50000000e+00 
 2.47361292e-04  1.79999986e+00 -9.90105548e-02  1.50000000e+00 
 2.49361292e-04  1.80000002e+00 -9.90025548e-02  1.50000000e+00 
 2.51361292e-04  1.79999986e+00 -9.89945548e-02  1.50000000e+00 
 2.53361292e-04  1.80000002e+00 -9.89865548e-02  1.50000000e+00 
 2.55361292e-04  1.79999986e+00 -9.89785548e-02  1.50000000e+00 
 2.57361292e-04  1.80000002e+00 -9.89705548e-02  1.50000000e+00 
 2.59361292e-04  1.79999986e+00 -9.89625548e-02  1.50000000e+00 
 2.61361292e-04  1.80000003e+00 -9.89545548e-02  1.50000000e+00 
 2.63361292e-04  1.79999985e+00 -9.89465548e-02  1.50000000e+00 
 2.65361292e-04  1.80000003e+00 -9.89385548e-02  1.50000000e+00 
 2.67361292e-04  1.79999985e+00 -9.89305548e-02  1.50000000e+00 
 2.69361292e-04  1.80000003e+00 -9.89225548e-02  1.50000000e+00 
 2.71361292e-04  1.79999985e+00 -9.89145548e-02  1.50000000e+00 
 2.73361292e-04  1.80000003e+00 -9.89065548e-02  1.50000000e+00 
 2.75361292e-04  1.79999985e+00 -9.88985548e-02  1.50000000e+00 
 2.77361292e-04  1.80000004e+00 -9.88905548e-02  1.50000000e+00 
 2.79361292e-04  1.79999984e+00 -9.88825548e-02  1.50000000e+00 
 2.81361292e-04  1.80000004e+00 -9.88745548e-02  1.50000000e+00 
 2.83361292e-04  1.79999984e+00 -9.88665548e-02  1.50000000e+00 
 2.85361292e-04  1.80000004e+00 -9.88585548e-02  1.50000000e+00 
 2.87361292e-04  1.79999984e+00 -9.88505548e-02  1.50000000e+00 
 2.89361292e-04  1.80000004e+00 -9.88425548e-02  1.50000000e+00 
 2.91361292e-04  1.79999983e+00 -9.88345548e-02  1.50000000e+00 
 2.93361292e-04  1.80000005e+00 -9.88265548e-02  1.50000000e+00 
 2.95361292e-04  1.79999983e+00 -9.88185548e-02  1.50000000e+00 
 2.97361292e-04  1.80000005e+00 -9.88105548e-02  1.50000000e+00 
 2.99361292e-04  1.79999983e+00 -9.88025548e-02  1.50000000e+00 
 3.01361292e-04  1.80000005e+00 -9.87945548e-02  1.50000000e+00 
 3.03361292e-04  1.79999983e+00 -9.87865548e-02  1.50000000e+00 
 3.05361292e-04  1.80000006e+00 -9.87785548e-02  1.50000000e+00 
 3.07361292e-04  1.79999982e+00 -9.87705548e-02  1.50000000e+00 
 3.09361292e-04  1.80000006e+00 -9.87625548e-02  1.50000000e+00 
 3.11361292e-04  1.79999982e+00 -9.87545548e-02  1.50000000e+00 
 3.13361292e-04  1.80000006e+00 -9.87465548e-02  1.50000000e+00 
 3.15361292e-04  1.79999982e+00 -9.87385548e-02  1.50000000e+00 
 3.17361292e-04  1.80000006e+00 -9.87305548e-02  1.50000000e+00 
 3.19361292e-04  1.79999982e+00 -9.87225548e-02  1.50000000e+00 
 3.21361292e-04  1.80000007e+00 -9.87145548e-02  1.50000000e+00 
 3.23361292e-04  1.79999981e+00 -9.87065548e-02  1.50000000e+00 
 3.25361292e-04  1.80000007e+00 -9.86985548e-02  1.50000000e+00 
 3.27361292e-04  1.79999981e+00 -9.86905548e-02  1.50000000e+00 
 3.29361292e-04  1.80000007e+00 -9.86825548e-02  1.50000000e+00 
 3.31361292e-04  1.79999981e+00 -9.86745548e-02  1.50000000e+00 
 3.33361292e-04  1.80000007e+00 -9.86665548e-02  1.50000000e+00 
 3.35361292e-04  1.79999981e+00 -9.86585548e-02  1.50000000e+00 
 3.37361292e-04  1.80000008e+00 -9.86505548e-02  1.50000000e+00 
 3.39361292e-04  1.79999980e+00 -9.86425548e-02  1.50000000e+00 
 3.41361292e-04  1.80000008e+00 -9.86345548e-02  1.50000000e+00 
 3.43361292e-04  1.79999980e+00 -9.86265548e-02  1.50000000e+00 
 3.45361292e-04  1.80000008e+00 -9.86185548e-02  1.50000000e+00 
 3.47361292e-04  1.79999980e+00 -9.86105548e-02  1.50000000e+00 
 3.49361292e-04  1.80000008e+00 -9.86025548e-02  1.50000000e+00 
 3.51361292e-04  1.79999979e+00 -9.85945548e-02  1.50000000e+00 
 3.53361292e-04  1.80000009e+00 -9.85865548e-02  1.50000000e+00 
 3.55361292e-04  1.79999979e+00 -9.85785548e-02  1.50000000e+00 
 3.57361292e-04  1.80000009e+00 -9.85705548e-02  1.50000000e+00 
 3.59361292e-04  1.79999979e+00 -9.85625548e-02  1.50000000e+00 
 3.61361292e-04  1.80000009e+00 -9.85545548e-02  1.50000000e+00 
 3.63361292e-04  1.79999979e+00 -9.85465548e-02  1.50000000e+00 
 3.65361292e-04  1.80000010e+00 -9.85385548e-02  1.50000000e+00 
 3.67361292e-04  1.79999978e+00 -9.85305548e-02  1.50000000e+00 
 3.69361292e-04  1.80000010e+00 -9.85225548e-02  1.50000000e+00 
 3.71361292e-04  1.79999978e+00 -9.85145548e-02  1.50000000e+00 
 3.73361292e-04  1.80000010e+00 -9.85065548e-02  1.50000000e+00 
 3.75361292e-04  1.79999978e+00 -9.84985548e-02  1.50000000e+00 
 3.77361292e-04  1.80000010e+00 -9.84905548e-02  1.50000000e+00 
 3.79361292e-04  1.79999978e+00 -9.84825548e-02  1.50000000e+00 
 3.81361292e-04  1.80000011e+00 -9.84745548e-02  1.50000000e+00 
 3.83361292e-04  1.79999977e+00 -9.84665548e-02  1.50000000e+00 
 3.85361292e-04  1.80000011e+00 -9.84585548e-02  1.50000000e+00 
 3.87361292e-04  1.79999977e+00 -9.84505548e-02  1.50000000e+00 
 3.89361292e-04  1.80000011e+00 -9.84425548e-02  1.50000000e+00 
 3.91361292e-04  1.79999977e+00 -9.84345548e-02  1.50000000e+00 
 3.93361292e-04  1.80000011e+00 -9.84265548e-02  1.50000000e+00 
 3.95361292e-04  1.79999976e+00 -9.84185548e-02  1.50000000e+00 
 3.97361292e-04  1.80000012e+00 -9.84105548e-02  1.50000000e+00 
 3.99361292e-04  1.79999976e+00 -9.84025548e-02  1.50000000e+00 
 4.01361292e-04  1.80000012e+00 -9.83945548e-02  1.50000000e+00 
 4.03361292e-04  1.79999976e+00 -9.83865548e-02  1.50000000e+00 
 4.05361292e-04  1.80000012e+00 -9.83785548e-02  1.50000000e+00 
 4.07361292e-04  1.79999976e+00 -9.83705548e-02  1.50000000e+00 
 4.09361292e-04  1.80000012e+00 -9.83625548e-02  1.50000000e+00 
 4.11361292e-04  1.79999975e+00 -9.83545548e-02  1.50000000e+00 
 4.13361292e-04  1.80000013e+00 -9.83465548e-02  1.50000000e+00 
 4.15361292e-04  1.79999975e+00 -9.83385548e-02  1.50000000e+00 
 4.17361292e-04  1.80000013e+00 -9.83305548e-02  1.50000000e+00 
 4.19361292e-04  1.79999975e+00 -9.83225548e-02  1.50000000e+00 
 4.21361292e-04  1.80000013e+00 -9.83145548e-02  1.50000000e+00 
 4.23361292e-04  1.79999975e+00 -9.83065548e-02  1.50000000e+00 
 4.25361292e-04  1.80000014e+00 -9.82985548e-02  1.50000000e+00 
 4.27361292e-04  1.79999974e+00 -9.82905548e-02  1.50000000e+00 
 4.29361292e-04  1.80000014e+00 -9.82825548e-02  1.50000000e+00 
 4.31361292e-04  1.79999974e+00 -9.82745548e-02  1.50000000e+00 
 4.33361292e-04  1.80000014e+00 -9.82665548e-02  1.50000000e+00 
 4.35361292e-04  1.79999974e+00 -9.82585548e-02  1.50000000e+00 
 4.37361292e-04  1.80000014e+00 -9.82505548e-02  1.50000000e+00 
 4.39361292e-04  1.79999974e+00 -9.82425548e-02  1.50000000e+00 
 4.41361292e-04  1.80000015e+00 -9.82345548e-02  1.50000000e+00 
 4.43361292e-04  1.79999973e+00 -9.82265548e-02  1.50000000e+00 
 4.45361292e-04  1.80000015e+00 -9.82185548e-02  1.50000000e+00 
 4.47361292e-04  1.79999973e+00 -9.82105548e-02  1.50000000e+00 
 4.49361292e-04  1.80000015e+00 -9.82025548e-02  1.50000000e+00 
 4.51361292e-04  1.79999973e+00 -9.81945548e-02  1.50000000e+00 
 4.53361292e-04  1.80000015e+00 -9.81865548e-02  1.50000000e+00 
 4.55361292e-04  1.79999972e+00 -9.81785548e-02  1.50000000e+00 
 4.57361292e-04  1.80000016e+00 -9.81705548e-02  1.50000000e+00 
 4.59361292e-04  1.79999972e+00 -9.81625548e-02  1.50000000e+00 
 4.61361292e-04  1.80000016e+00 -9.81545548e-02  1.50000000e+00 
 4.63361292e-04  1.79999972e+00 -9.81465548e-02  1.50000000e+00 
 4.65361292e-04  1.80000016e+00 -9.81385548e-02  1.50000000e+00 
 4.67361292e-04  1.79999972e+00 -9.81305548e-02  1.50000000e+00 
 4.69361292e-04  1.80000016e+00 -9.81225548e-02  1.50000000e+00 
 4.71361292e-04  1.79999971e+00 -9.81145548e-02  1.50000000e+00 
 4.73361292e-04  1.80000017e+00 -9.81065548e-02  1.50000000e+00 
 4.75361292e-04  1.79999971e+00 -9.80985548e-02  1.50000000e+00 
 4.77361292e-04  1.80000017e+00 -9.80905548e-02  1.50000000e+00 
 4.79361292e-04  1.79999971e+00 -9.80825548e-02  1.50000000e+00 
 4.81361292e-04  1.80000017e+00 -9.80745548e-02  1.50000000e+00 
 4.83361292e-04  1.79999971e+00 -9.80665548e-02  1.50000000e+00 
 4.85361292e-04  1.80000018e+00 -9.80585548e-02  1.50000000e+00 
 4.87361292e-04  1.79999970e+00 -9.80505548e-02  1.50000000e+00 
 4.89361292e-04  1.80000018e+00 -9.80425548e-02  1.50000000e+00 
 4.91361292e-04  1.79999970e+00 -9.80345548e-02  1.50000000e+00 
 4.93361292e-04  1.80000018e+00 -9.80265548e-02  1.50000000e+00 
 4.95361292e-04  1.79999970e+00 -9.80185548e-02  1.50000000e+00 
 4.97361292e-04  1.80000018e+00 -9.80105548e-02  1.50000000e+00 
 4.99361292e-04  1.79999969e+00 -9.80025548e-02  1.50000000e+00 
 5.00100100e-04  1.80000019e+00 -9.79995996e-02  1.50000000e+00 
 5.00100110e-04  1.79996209e+00 -9.79995996e-02  1.50000000e+00 
 5.00100130e-04  1.79996302e+00 -9.79995995e-02  1.50000000e+00 
 5.00100170e-04  1.80025985e+00 -9.79995993e-02  1.50000000e+00 
 5.00100200e-04  1.80234217e+00 -9.79995992e-02  1.50000000e+00 
 5.00100208e-04  1.80306802e+00 -9.79995992e-02  1.50000000e+00 
 5.00100224e-04  1.80262496e+00 -9.79995991e-02  1.50000000e+00 
 5.00100256e-04  1.79897213e+00 -9.79995990e-02  1.50000000e+00 
 5.00100320e-04  1.79195638e+00 -9.79995987e-02  1.50000000e+00 
 5.00100405e-04  1.80275656e+00 -9.79995984e-02  1.50000000e+00 
 5.00100483e-04  1.79471768e+00 -9.79995981e-02  1.50000000e+00 
 5.00100637e-04  1.80386485e+00 -9.79995975e-02  1.50000000e+00 
 5.00100830e-04  1.79630762e+00 -9.79995967e-02  1.50000000e+00 
 5.00101217e-04  1.80342269e+00 -9.79995951e-02  1.50000000e+00 
 5.00101934e-04  1.79658346e+00 -9.79995923e-02  1.50000000e+00 
 5.00103105e-04  1.80334052e+00 -9.79995876e-02  1.50000000e+00 
 5.00105446e-04  1.79665986e+00 -9.79995782e-02  1.50000000e+00 
 5.00110128e-04  1.80332473e+00 -9.79995595e-02  1.50000000e+00 
