 time            v(Q)            v(A)-v(B)       v(B)           
 0.00000000e+00  1.79999994e+00  7.00000000e-01  0.00000000e+00 
 1.00000000e-09  1.79999994e+00  7.00000004e-01  0.00000000e+00 
 2.00000000e-09  1.79999994e+00  7.00000008e-01  0.00000000e+00 
 4.00000000e-09  1.79999994e+00  7.00000016e-01  0.00000000e+00 
 8.00000000e-09  1.79999994e+00  7.00000032e-01  0.00000000e+00 
 1.60000000e-08  1.79999994e+00  7.00000064e-01  0.00000000e+00 
 3.20000000e-08  1.79999994e+00  7.00000128e-01  0.00000000e+00 
 6.40000000e-08  1.79999994e+00  7.00000256e-01  0.00000000e+00 
 1.00000000e-07  1.79999994e+00  7.00000400e-01  0.00000000e+00 
 1.00010000e-07  1.80024775e+00  7.00000400e-01  0.00000000e+00 
 1.00030000e-07  1.80039557e+00  7.00000400e-01  0.00000000e+00 
 1.00070000e-07  1.79632770e+00  7.00000400e-01  0.00000000e+00 
 1.00100000e-07  1.79365370e+00  7.00000400e-01  0.00000000e+00 
 1.00107633e-07  1.79743061e+00  7.00000400e-01  0.00000000e+00 
 1.00122898e-07  1.80418152e+00  7.00000400e-01  0.00000000e+00 
 1.00153428e-07  1.81113831e+00  7.00000401e-01  0.00000000e+00 
 1.00214489e-07  1.80849386e+00  7.00000401e-01  0.00000000e+00 
 1.00292931e-07  1.79493180e+00  7.00000401e-01  0.00000000e+00 
 1.00449813e-07  1.79661638e+00  7.00000402e-01  0.00000000e+00 
 1.00707470e-07  1.80248001e+00  7.00000403e-01  0.00000000e+00 
 1.01074160e-07  1.79794257e+00  7.00000404e-01  0.00000000e+00 
 1.01587991e-07  1.80183640e+00  7.00000406e-01  0.00000000e+00 
 1.02615653e-07  1.79828094e+00  7.00000410e-01  0.00000000e+00 
 1.04670977e-07  1.80168324e+00  7.00000419e-01  0.00000000e+00 
 1.08781625e-07  1.79835028e+00  7.00000435e-01  0.00000000e+00 
 1.17002921e-07  1.80164517e+00  7.00000468e-01  0.00000000e+00 
 1.33445513e-07  1.79836538e+00  7.00000534e-01  0.00000000e+00 
 1.66330697e-07  1.80163488e+00  7.00000665e-01  0.00000000e+00 
 2.32101065e-07  1.79836879e+00  7.00000928e-01  0.00000000e+00 
 3.63641801e-07  1.80163252e+00  7.00001455e-01  0.00000000e+00 
 6.26723274e-07  1.79836987e+00  7.00002507e-01  0.00000000e+00 
 1.15288622e-06  1.80163198e+00  7.00004612e-01  0.00000000e+00 
 2.20521211e-06  1.79837013e+00  7.00008821e-01  0.00000000e+00 
 4.20521211e-06  1.80163185e+00  7.00016821e-01  0.00000000e+00 
 6.20521211e-06  1.79837023e+00  7.00024821e-01  0.00000000e+00 
 8.20521211e-06  1.80163175e+00  7.00032821e-01  0.00000000e+00 
 1.02052121e-05  1.79837032e+00  7.00040821e-01  0.00000000e+00 
 1.22052121e-05  1.80163166e+00  7.00048821e-01  0.00000000e+00 
 1.42052121e-05  1.79837042e+00  7.00056821e-01  0.00000000e+00 
 1.62052121e-05  1.80163156e+00  7.00064821e-01  0.00000000e+00 
 1.82052121e-05  1.79837051e+00  7.00072821e-01  0.00000000e+00 
 2.02052121e-05  1.80163147e+00  7.00080821e-01  0.00000000e+00 
 2.22052121e-05  1.79837061e+00  7.00088821e-01  0.00000000e+00 
 2.42052121e-05  1.80163137e+00  7.00096821e-01  0.00000000e+00 
 2.62052121e-05  1.79837070e+00  7.00104821e-01  0.00000000e+00 
 2.82052121e-05  1.80163127e+00  7.00112821e-01  0.00000000e+00 
 3.02052121e-05  1.79837080e+00  7.00120821e-01  0.00000000e+00 
 3.22052121e-05  1.80163118e+00  7.00128821e-01  0.00000000e+00 
 3.42052121e-05  1.79837089e+00  7.00136821e-01  0.00000000e+00 
 3.62052121e-05  1.80163108e+00  7.00144821e-01  0.00000000e+00 
 3.82052121e-05  1.79837099e+00  7.00152821e-01  0.00000000e+00 
 4.02052121e-05  1.80163099e+00  7.00160821e-01  0.00000000e+00 
 4.22052121e-05  1.79837108e+00  7.00168821e-01  0.00000000e+00 
 4.42052121e-05  1.80163089e+00  7.00176821e-01  0.00000000e+00 
 4.62052121e-05  1.79837118e+00  7.00184821e-01  0.00000000e+00 
 4.82052121e-05  1.80163080e+00  7.00192821e-01  0.00000000e+00 
 5.02052121e-05  1.79837127e+00  7.00200821e-01  0.00000000e+00 
 5.22052121e-05  1.80163070e+00  7.00208821e-01  0.00000000e+00 
 5.42052121e-05  1.79837137e+00  7.00216821e-01  0.00000000e+00 
 5.62052121e-05  1.80163061e+00  7.00224821e-01  0.00000000e+00 
 5.82052121e-05  1.79837146e+00  7.00232821e-01  0.00000000e+00 
 6.02052121e-05  1.80163051e+00  7.00240821e-01  0.00000000e+00 
 6.22052121e-05  1.79837156e+00  7.00248821e-01  0.00000000e+00 
 6.42052121e-05  1.80163042e+00  7.00256821e-01  0.00000000e+00 
 6.62052121e-05  1.79837165e+00  7.00264821e-01  0.00000000e+00 
 6.82052121e-05  1.80163032e+00  7.00272821e-01  0.00000000e+00 
 7.02052121e-05  1.79837175e+00  7.00280821e-01  0.00000000e+00 
 7.22052121e-05  1.80163023e+00  7.00288821e-01  0.00000000e+00 
 7.42052121e-05  1.79837184e+00  7.00296821e-01  0.00000000e+00 
 7.62052121e-05  1.80163013e+00  7.00304821e-01  0.00000000e+00 
 7.82052121e-05  1.79837194e+00  7.00312821e-01  0.00000000e+00 
 8.02052121e-05  1.80163004e+00  7.00320821e-01  0.00000000e+00 
 8.22052121e-05  1.79837203e+00  7.00328821e-01  0.00000000e+00 
 8.42052121e-05  1.80162994e+00  7.00336821e-01  0.00000000e+00 
 8.62052121e-05  1.79837213e+00  7.00344821e-01  0.00000000e+00 
 8.82052121e-05  1.80162985e+00  7.00352821e-01  0.00000000e+00 
 9.02052121e-05  1.79837222e+00  7.00360821e-01  0.00000000e+00 
 9.22052121e-05  1.80162975e+00  7.00368821e-01  0.00000000e+00 
 9.42052121e-05  1.79837232e+00  7.00376821e-01  0.00000000e+00 
 9.62052121e-05  1.80162965e+00  7.00384821e-01  0.00000000e+00 
 9.82052121e-05  1.79837241e+00  7.00392821e-01  0.00000000e+00 
 1.00205212e-04  1.80162956e+00  7.00400821e-01  0.00000000e+00 
 1.02205212e-04  1.79837251e+00  7.00408821e-01  0.00000000e+00 
 1.04205212e-04  1.80162946e+00  7.00416821e-01  0.00000000e+00 
 1.06205212e-04  1.79837260e+00  7.00424821e-01  0.00000000e+00 
 1.08205212e-04  1.80162937e+00  7.00432821e-01  0.00000000e+00 
 1.10205212e-04  1.79837270e+00  7.00440821e-01  0.00000000e+00 
 1.12205212e-04  1.80162927e+00  7.00448821e-01  0.00000000e+00 
 1.14205212e-04  1.79837279e+00  7.00456821e-01  0.00000000e+00 
 1.16205212e-04  1.80162918e+00  7.00464821e-01  0.00000000e+00 
 1.18205212e-04  1.79837289e+00  7.00472821e-01  0.00000000e+00 
 1.20205212e-04  1.80162908e+00  7.00480821e-01  0.00000000e+00 
 1.22205212e-04  1.79837298e+00  7.00488821e-01  0.00000000e+00 
 1.24205212e-04  1.80162899e+00  7.00496821e-01  0.00000000e+00 
 1.26205212e-04  1.79837308e+00  7.00504821e-01  0.00000000e+00 
 1.28205212e-04  1.80162889e+00  7.00512821e-01  0.00000000e+00 
 1.30205212e-04  1.79837317e+00  7.00520821e-01  0.00000000e+00 
 1.32205212e-04  1.80162880e+00  7.00528821e-01  0.00000000e+00 
 1.34205212e-04  1.79837327e+00  7.00536821e-01  0.00000000e+00 
 1.36205212e-04  1.80162870e+00  7.00544821e-01  0.00000000e+00 
 1.38205212e-04  1.79837336e+00  7.00552821e-01  0.00000000e+00 
 1.40205212e-04  1.80162861e+00  7.00560821e-01  0.00000000e+00 
 1.42205212e-04  1.79837346e+00  7.00568821e-01  0.00000000e+00 
 1.44205212e-04  1.80162851e+00  7.00576821e-01  0.00000000e+00 
 1.46205212e-04  1.79837355e+00  7.00584821e-01  0.00000000e+00 
 1.48205212e-04  1.80162842e+00  7.00592821e-01  0.00000000e+00 
 1.50205212e-04  1.79837364e+00  7.00600821e-01  0.00000000e+00 
 1.52205212e-04  1.80162832e+00  7.00608821e-01  0.00000000e+00 
 1.54205212e-04  1.79837374e+00  7.00616821e-01  0.00000000e+00 
 1.56205212e-04  1.80162823e+00  7.00624821e-01  0.00000000e+00 
 1.58205212e-04  1.79837383e+00  7.00632821e-01  0.00000000e+00 
 1.60205212e-04  1.80162813e+00  7.00640821e-01  0.00000000e+00 
 1.62205212e-04  1.79837393e+00  7.00648821e-01  0.00000000e+00 
 1.64205212e-04  1.80162804e+00  7.00656821e-01  0.00000000e+00 
 1.66205212e-04  1.79837402e+00  7.00664821e-01  0.00000000e+00 
 1.68205212e-04  1.80162794e+00  7.00672821e-01  0.00000000e+00 
 1.70205212e-04  1.79837412e+00  7.00680821e-01  0.00000000e+00 
 1.72205212e-04  1.80162785e+00  7.00688821e-01  0.00000000e+00 
 1.74205212e-04  1.79837421e+00  7.00696821e-01  0.00000000e+00 
 1.76205212e-04  1.80162775e+00  7.00704821e-01  0.00000000e+00 
 1.78205212e-04  1.79837431e+00  7.00712821e-01  0.00000000e+00 
 1.80205212e-04  1.80162766e+00  7.00720821e-01  0.00000000e+00 
 1.82205212e-04  1.79837440e+00  7.00728821e-01  0.00000000e+00 
 1.84205212e-04  1.80162756e+00  7.00736821e-01  0.00000000e+00 
 1.86205212e-04  1.79837450e+00  7.00744821e-01  0.00000000e+00 
 1.88205212e-04  1.80162747e+00  7.00752821e-01  0.00000000e+00 
 1.90205212e-04  1.79837459e+00  7.00760821e-01  0.00000000e+00 
 1.92205212e-04  1.80162737e+00  7.00768821e-01  0.00000000e+00 
 1.94205212e-04  1.79837469e+00  7.00776821e-01  0.00000000e+00 
 1.96205212e-04  1.80162728e+00  7.00784821e-01  0.00000000e+00 
 1.98205212e-04  1.79837478e+00  7.00792821e-01  0.00000000e+00 
 2.00000000e-04  1.80162718e+00  7.00800000e-01  0.00000000e+00 
 2.00133057e-04  8.18600010e-05 -9.91994678e-02  8.00000000e-01 
 2.00399170e-04 -5.14976607e-05 -9.91984033e-02  8.00000000e-01 
 2.00607489e-04  5.15078146e-05 -9.91975700e-02  8.00000000e-01 
 2.00856017e-04 -5.14867055e-05 -9.91965759e-02  8.00000000e-01 
 2.01345114e-04  5.15000578e-05 -9.91946195e-02  8.00000000e-01 
 2.02254296e-04 -5.14827215e-05 -9.91909828e-02  8.00000000e-01 
 2.04072662e-04  5.14979514e-05 -9.91837094e-02  8.00000000e-01 
 2.06072662e-04 -5.14813881e-05 -9.91757094e-02  8.00000000e-01 
 2.08072662e-04  5.14966773e-05 -9.91677094e-02  8.00000000e-01 
 2.10072662e-04 -5.14801162e-05 -9.91597094e-02  8.00000000e-01 
 2.12072662e-04  5.14954030e-05 -9.91517094e-02  8.00000000e-01 
 2.14072662e-04 -5.14788440e-05 -9.91437094e-02  8.00000000e-01 
 2.16072662e-04  5.14941289e-05 -9.91357094e-02  8.00000000e-01 
 2.18072662e-04 -5.14775718e-05 -9.91277094e-02  8.00000000e-01 
 2.20072662e-04  5.14928548e-05 -9.91197094e-02  8.00000000e-01 
 2.22072662e-04 -5.14762997e-05 -9.91117094e-02  8.00000000e-01 
 2.24072662e-04  5.14915809e-05 -9.91037094e-02  8.00000000e-01 
 2.26072662e-04 -5.14750276e-05 -9.90957094e-02  8.00000000e-01 
 2.28072662e-04  5.14903071e-05 -9.90877094e-02  8.00000000e-01 
 2.30072662e-04 -5.14737555e-05 -9.90797094e-02  8.00000000e-01 
 2.32072662e-04  5.14890333e-05 -9.90717094e-02  8.00000000e-01 
 2.34072662e-04 -5.14724836e-05 -9.90637094e-02  8.00000000e-01 
 2.36072662e-04  5.14877597e-05 -9.90557094e-02  8.00000000e-01 
 2.38072662e-04 -5.14712117e-05 -9.90477094e-02  8.00000000e-01 
 2.40072662e-04  5.14864861e-05 -9.90397094e-02  8.00000000e-01 
 2.42072662e-04 -5.14699400e-05 -9.90317094e-02  8.00000000e-01 
 2.44072662e-04  5.14852126e-05 -9.90237094e-02  8.00000000e-01 
 2.46072662e-04 -5.14686682e-05 -9.90157094e-02  8.00000000e-01 
 2.48072662e-04  5.14839391e-05 -9.90077094e-02  8.00000000e-01 
 2.50072662e-04 -5.14673966e-05 -9.89997094e-02  8.00000000e-01 
 2.52072662e-04  5.14826658e-05 -9.89917094e-02  8.00000000e-01 
 2.54072662e-04 -5.14661251e-05 -9.89837094e-02  8.00000000e-01 
 2.56072662e-04  5.14813925e-05 -9.89757094e-02  8.00000000e-01 
 2.58072662e-04 -5.14648536e-05 -9.89677094e-02  8.00000000e-01 
 2.60072662e-04  5.14801193e-05 -9.89597094e-02  8.00000000e-01 
 2.62072662e-04 -5.14635822e-05 -9.89517094e-02  8.00000000e-01 
 2.64072662e-04  5.14788462e-05 -9.89437094e-02  8.00000000e-01 
 2.66072662e-04 -5.14623109e-05 -9.89357094e-02  8.00000000e-01 
 2.68072662e-04  5.14775732e-05 -9.89277094e-02  8.00000000e-01 
 2.70072662e-04 -5.14610397e-05 -9.89197094e-02  8.00000000e-01 
 2.72072662e-04  5.14763003e-05 -9.89117094e-02  8.00000000e-01 
 2.74072662e-04 -5.14597685e-05 -9.89037094e-02  8.00000000e-01 
 2.76072662e-04  5.14750274e-05 -9.88957094e-02  8.00000000e-01 
 2.78072662e-04 -5.14584974e-05 -9.88877094e-02  8.00000000e-01 
 2.80072662e-04  5.14737547e-05 -9.88797094e-02  8.00000000e-01 
 2.82072662e-04 -5.14572265e-05 -9.88717094e-02  8.00000000e-01 
 2.84072662e-04  5.14724820e-05 -9.88637094e-02  8.00000000e-01 
 2.86072662e-04 -5.14559555e-05 -9.88557094e-02  8.00000000e-01 
 2.88072662e-04  5.14712094e-05 -9.88477094e-02  8.00000000e-01 
 2.90072662e-04 -5.14546847e-05 -9.88397094e-02  8.00000000e-01 
 2.92072662e-04  5.14699369e-05 -9.88317094e-02  8.00000000e-01 
 2.94072662e-04 -5.14534139e-05 -9.88237094e-02  8.00000000e-01 
 2.96072662e-04  5.14686645e-05 -9.88157094e-02  8.00000000e-01 
 2.98072662e-04 -5.14521433e-05 -9.88077094e-02  8.00000000e-01 
 3.00072662e-04  5.14673921e-05 -9.87997094e-02  8.00000000e-01 
 3.02072662e-04 -5.14508727e-05 -9.87917094e-02  8.00000000e-01 
 3.04072662e-04  5.14661198e-05 -9.87837094e-02  8.00000000e-01 
 3.06072662e-04 -5.14496022e-05 -9.87757094e-02  8.00000000e-01 
 3.08072662e-04  5.14648476e-05 -9.87677094e-02  8.00000000e-01 
 3.10072662e-04 -5.14483318e-05 -9.87597094e-02  8.00000000e-01 
 3.12072662e-04  5.14635754e-05 -9.87517094e-02  8.00000000e-01 
 3.14072662e-04 -5.14470615e-05 -9.87437094e-02  8.00000000e-01 
 3.16072662e-04  5.14623030e-05 -9.87357094e-02  8.00000000e-01 
 3.18072662e-04 -5.14457934e-05 -9.87277094e-02  8.00000000e-01 
 3.20072662e-04  5.14610360e-05 -9.87197094e-02  8.00000000e-01 
 3.22072662e-04 -5.14445288e-05 -9.87117094e-02  8.00000000e-01 
 3.24072662e-04  5.14597606e-05 -9.87037094e-02  8.00000000e-01 
 3.26072662e-04 -5.14432612e-05 -9.86957094e-02  8.00000000e-01 
 3.28072662e-04  5.14584862e-05 -9.86877094e-02  8.00000000e-01 
 3.30072662e-04 -5.14419943e-05 -9.86797094e-02  8.00000000e-01 
 3.32072662e-04  5.14572109e-05 -9.86717094e-02  8.00000000e-01 
 3.34072662e-04 -5.14407285e-05 -9.86637094e-02  8.00000000e-01 
 3.36072662e-04  5.14559346e-05 -9.86557094e-02  8.00000000e-01 
 3.38072662e-04 -5.14394636e-05 -9.86477094e-02  8.00000000e-01 
 3.40072662e-04  5.14546591e-05 -9.86397094e-02  8.00000000e-01 
 3.42072662e-04 -5.14381939e-05 -9.86317094e-02  8.00000000e-01 
 3.44072662e-04  5.14533983e-05 -9.86237094e-02  8.00000000e-01 
 3.46072662e-04 -5.14368870e-05 -9.86157094e-02  8.00000000e-01 
 3.48072662e-04  5.14522247e-05 -9.86077094e-02  8.00000000e-01 
 3.50072662e-04 -5.14353909e-05 -9.85997094e-02  8.00000000e-01 
 3.52072662e-04  5.14514253e-05 -9.85917094e-02  8.00000000e-01 
 3.54072662e-04 -5.14332595e-05 -9.85837094e-02  8.00000000e-01 
 3.56072662e-04  5.14514695e-05 -9.85757094e-02  8.00000000e-01 
 3.58072662e-04 -5.14303798e-05 -9.85677094e-02  8.00000000e-01 
 3.60072662e-04  5.14517789e-05 -9.85597094e-02  8.00000000e-01 
 3.62072662e-04 -5.14278094e-05 -9.85517094e-02  8.00000000e-01 
 3.64072662e-04  5.14514804e-05 -9.85437094e-02  8.00000000e-01 
 3.66072662e-04 -5.14258344e-05 -9.85357094e-02  8.00000000e-01 
 3.68072662e-04  5.14507205e-05 -9.85277094e-02  8.00000000e-01 
 3.70072662e-04 -5.14241964e-05 -9.85197094e-02  8.00000000e-01 
 3.72072662e-04  5.14497125e-05 -9.85117094e-02  8.00000000e-01 
 3.74072662e-04 -5.14227420e-05 -9.85037094e-02  8.00000000e-01 
 3.76072662e-04  5.14485702e-05 -9.84957094e-02  8.00000000e-01 
 3.78072662e-04 -5.14213841e-05 -9.84877094e-02  8.00000000e-01 
 3.80072662e-04  5.14473601e-05 -9.84797094e-02  8.00000000e-01 
 3.82072662e-04 -5.14200734e-05 -9.84717094e-02  8.00000000e-01 
 3.84072662e-04  5.14461174e-05 -9.84637094e-02  8.00000000e-01 
 3.86072662e-04 -5.14187852e-05 -9.84557094e-02  8.00000000e-01 
 3.88072662e-04  5.14448595e-05 -9.84477094e-02  8.00000000e-01 
 3.90072662e-04 -5.14175074e-05 -9.84397094e-02  8.00000000e-01 
 3.92072662e-04  5.14435947e-05 -9.84317094e-02  8.00000000e-01 
 3.94072662e-04 -5.14162344e-05 -9.84237094e-02  8.00000000e-01 
 3.96072662e-04  5.14423267e-05 -9.84157094e-02  8.00000000e-01 
 3.98072662e-04 -5.14149637e-05 -9.84077094e-02  8.00000000e-01 
 4.00072662e-04  5.14410574e-05 -9.83997094e-02  8.00000000e-01 
 4.02072662e-04 -5.14136941e-05 -9.83917094e-02  8.00000000e-01 
 4.04072662e-04  5.14397875e-05 -9.83837094e-02  8.00000000e-01 
 4.06072662e-04 -5.14124250e-05 -9.83757094e-02  8.00000000e-01 
 4.08072662e-04  5.14385173e-05 -9.83677094e-02  8.00000000e-01 
 4.10072662e-04 -5.14111561e-05 -9.83597094e-02  8.00000000e-01 
 4.12072662e-04  5.14372471e-05 -9.83517094e-02  8.00000000e-01 
 4.14072662e-04 -5.14098875e-05 -9.83437094e-02  8.00000000e-01 
 4.16072662e-04  5.14359769e-05 -9.83357094e-02  8.00000000e-01 
 4.18072662e-04 -5.14086189e-05 -9.83277094e-02  8.00000000e-01 
 4.20072662e-04  5.14347068e-05 -9.83197094e-02  8.00000000e-01 
 4.22072662e-04 -5.14073505e-05 -9.83117094e-02  8.00000000e-01 
 4.24072662e-04  5.14334367e-05 -9.83037094e-02  8.00000000e-01 
 4.26072662e-04 -5.14060821e-05 -9.82957094e-02  8.00000000e-01 
 4.28072662e-04  5.14321667e-05 -9.82877094e-02  8.00000000e-01 
 4.30072662e-04 -5.14048139e-05 -9.82797094e-02  8.00000000e-01 
 4.32072662e-04  5.14308967e-05 -9.82717094e-02  8.00000000e-01 
 4.34072662e-04 -5.14035457e-05 -9.82637094e-02  8.00000000e-01 
 4.36072662e-04  5.14296269e-05 -9.82557094e-02  8.00000000e-01 
 4.38072662e-04 -5.14022776e-05 -9.82477094e-02  8.00000000e-01 
 4.40072662e-04  5.14283571e-05 -9.82397094e-02  8.00000000e-01 
 4.42072662e-04 -5.14010095e-05 -9.82317094e-02  8.00000000e-01 
 4.44072662e-04  5.14270874e-05 -9.82237094e-02  8.00000000e-01 
 4.46072662e-04 -5.13997416e-05 -9.82157094e-02  8.00000000e-01 
 4.48072662e-04  5.14258177e-05 -9.82077094e-02  8.00000000e-01 
 4.50072662e-04 -5.13984737e-05 -9.81997094e-02  8.00000000e-01 
 4.52072662e-04  5.14245482e-05 -9.81917094e-02  8.00000000e-01 
 4.54072662e-04 -5.13972059e-05 -9.81837094e-02  8.00000000e-01 
 4.56072662e-04  5.14232787e-05 -9.81757094e-02  8.00000000e-01 
 4.58072662e-04 -5.13959382e-05 -9.81677094e-02  8.00000000e-01 
 4.60072662e-04  5.14220093e-05 -9.81597094e-02  8.00000000e-01 
 4.62072662e-04 -5.13946705e-05 -9.81517094e-02  8.00000000e-01 
 4.64072662e-04  5.14207400e-05 -9.81437094e-02  8.00000000e-01 
 4.66072662e-04 -5.13934030e-05 -9.81357094e-02  8.00000000e-01 
 4.68072662e-04  5.14194708e-05 -9.81277094e-02  8.00000000e-01 
 4.70072662e-04 -5.13921355e-05 -9.81197094e-02  8.00000000e-01 
 4.72072662e-04  5.14182016e-05 -9.81117094e-02  8.00000000e-01 
 4.74072662e-04 -5.13908681e-05 -9.81037094e-02  8.00000000e-01 
 4.76072662e-04  5.14169326e-05 -9.80957094e-02  8.00000000e-01 
 4.78072662e-04 -5.13896007e-05 -9.80877094e-02  8.00000000e-01 
 4.80072662e-04  5.14156636e-05 -9.80797094e-02  8.00000000e-01 
 4.82072662e-04 -5.13883335e-05 -9.80717094e-02  8.00000000e-01 
 4.84072662e-04  5.14143947e-05 -9.80637094e-02  8.00000000e-01 
 4.86072662e-04 -5.13870663e-05 -9.80557094e-02  8.00000000e-01 
 4.88072662e-04  5.14131258e-05 -9.80477094e-02  8.00000000e-01 
 4.90072662e-04 -5.13857992e-05 -9.80397094e-02  8.00000000e-01 
 4.92072662e-04  5.14118570e-05 -9.80317094e-02  8.00000000e-01 
 4.94072662e-04 -5.13845322e-05 -9.80237094e-02  8.00000000e-01 
 4.96072662e-04  5.14105884e-05 -9.80157094e-02  8.00000000e-01 
 4.98072662e-04 -5.13832652e-05 -9.80077094e-02  8.00000000e-01 
 5.00072662e-04  5.14093198e-05 -9.79997094e-02  8.00000000e-01 
 5.00100100e-04 -5.13365093e-05 -9.79995996e-02  8.00000000e-01 
 5.00100110e-04 -1.06239407e-04 -9.79995996e-02  8.00000000e-01 
 5.00100130e-04 -3.24340105e-05 -9.79995995e-02  8.00000000e-01 
 5.00100170e-04  7.10062804e-05 -9.79995993e-02  8.00000000e-01 
 5.00100200e-04  5.85775066e-04 -9.79995992e-02  8.00000000e-01 
 5.00100208e-04  5.99481430e-04 -9.79995992e-02  8.00000000e-01 
 5.00100224e-04  1.33523316e-05 -9.79995991e-02  8.00000000e-01 
 5.00100256e-04 -5.85890956e-04 -9.79995990e-02  8.00000000e-01 
 5.00100320e-04 -1.20636557e-01 -9.79995987e-02  8.00000000e-01 
 5.00100389e-04  3.05336589e-03 -9.79995984e-02  8.00000000e-01 
 5.00100470e-04  5.93432635e-03 -9.79995981e-02  8.00000000e-01 
 5.00100597e-04 -4.01013709e-03 -9.79995976e-02  8.00000000e-01 
 5.00100730e-04  3.85297441e-03 -9.79995971e-02  8.00000000e-01 
 5.00100996e-04 -3.82275544e-03 -9.79995960e-02  8.00000000e-01 
 5.00101429e-04  3.76556092e-03 -9.79995943e-02  8.00000000e-01 
 5.00102086e-04 -3.75797233e-03 -9.79995917e-02  8.00000000e-01 
 5.00103282e-04  3.72612904e-03 -9.79995869e-02  8.00000000e-01 
 5.00105133e-04 -3.73284396e-03 -9.79995795e-02  8.00000000e-01 
 5.00108616e-04  3.71159757e-03 -9.79995655e-02  8.00000000e-01 
