 time            v(Q)            v(A)-v(B)       v(B)           
 0.00000000e+00  1.79999994e+00  8.00000000e-01  0.00000000e+00 
 1.00000000e-09  1.79999994e+00  8.00000004e-01  0.00000000e+00 
 2.00000000e-09  1.79999994e+00  8.00000008e-01  0.00000000e+00 
 4.00000000e-09  1.79999994e+00  8.00000016e-01  0.00000000e+00 
 8.00000000e-09  1.79999994e+00  8.00000032e-01  0.00000000e+00 
 1.60000000e-08  1.79999994e+00  8.00000064e-01  0.00000000e+00 
 3.20000000e-08  1.79999994e+00  8.00000128e-01  0.00000000e+00 
 6.40000000e-08  1.79999994e+00  8.00000256e-01  0.00000000e+00 
 1.00000000e-07  1.79999994e+00  8.00000400e-01  0.00000000e+00 
 1.00010000e-07  1.80024123e+00  8.00000400e-01  0.00000000e+00 
 1.00030000e-07  1.80038105e+00  8.00000400e-01  0.00000000e+00 
 1.00070000e-07  1.79648962e+00  8.00000400e-01  0.00000000e+00 
 1.00100000e-07  1.79439566e+00  8.00000400e-01  0.00000000e+00 
 1.00107627e-07  1.79837225e+00  8.00000400e-01  0.00000000e+00 
 1.00122880e-07  1.80441892e+00  8.00000400e-01  0.00000000e+00 
 1.00153388e-07  1.80782461e+00  8.00000401e-01  0.00000000e+00 
 1.00214402e-07  1.80466903e+00  8.00000401e-01  0.00000000e+00 
 1.00291818e-07  1.79754576e+00  8.00000401e-01  0.00000000e+00 
 1.00446650e-07  1.79741855e+00  8.00000402e-01  0.00000000e+00 
 1.00713891e-07  1.80294579e+00  8.00000403e-01  0.00000000e+00 
 1.01056941e-07  1.79799846e+00  8.00000404e-01  0.00000000e+00 
 1.01405818e-07  1.80152698e+00  8.00000406e-01  0.00000000e+00 
 1.02103572e-07  1.79863549e+00  8.00000408e-01  0.00000000e+00 
 1.02933133e-07  1.80124927e+00  8.00000412e-01  0.00000000e+00 
 1.04592256e-07  1.79880273e+00  8.00000418e-01  0.00000000e+00 
 1.07404705e-07  1.80116951e+00  8.00000430e-01  0.00000000e+00 
 1.12850564e-07  1.79884565e+00  8.00000451e-01  0.00000000e+00 
 1.23214245e-07  1.80114782e+00  8.00000493e-01  0.00000000e+00 
 1.43941607e-07  1.79885672e+00  8.00000576e-01  0.00000000e+00 
 1.85396329e-07  1.80114233e+00  8.00000742e-01  0.00000000e+00 
 2.68305775e-07  1.79885946e+00  8.00001073e-01  0.00000000e+00 
 4.34124666e-07  1.80114096e+00  8.00001736e-01  0.00000000e+00 
 7.65762447e-07  1.79886014e+00  8.00003063e-01  0.00000000e+00 
 1.42903801e-06  1.80114062e+00  8.00005716e-01  0.00000000e+00 
 2.75558914e-06  1.79886031e+00  8.00011022e-01  0.00000000e+00 
 4.75558914e-06  1.80114052e+00  8.00019022e-01  0.00000000e+00 
 6.75558914e-06  1.79886038e+00  8.00027022e-01  0.00000000e+00 
 8.75558914e-06  1.80114045e+00  8.00035022e-01  0.00000000e+00 
 1.07555891e-05  1.79886046e+00  8.00043022e-01  0.00000000e+00 
 1.27555891e-05  1.80114037e+00  8.00051022e-01  0.00000000e+00 
 1.47555891e-05  1.79886053e+00  8.00059022e-01  0.00000000e+00 
 1.67555891e-05  1.80114030e+00  8.00067022e-01  0.00000000e+00 
 1.87555891e-05  1.79886061e+00  8.00075022e-01  0.00000000e+00 
 2.07555891e-05  1.80114022e+00  8.00083022e-01  0.00000000e+00 
 2.27555891e-05  1.79886068e+00  8.00091022e-01  0.00000000e+00 
 2.47555891e-05  1.80114015e+00  8.00099022e-01  0.00000000e+00 
 2.67555891e-05  1.79886076e+00  8.00107022e-01  0.00000000e+00 
 2.87555891e-05  1.80114007e+00  8.00115022e-01  0.00000000e+00 
 3.07555891e-05  1.79886083e+00  8.00123022e-01  0.00000000e+00 
 3.27555891e-05  1.80114000e+00  8.00131022e-01  0.00000000e+00 
 3.47555891e-05  1.79886091e+00  8.00139022e-01  0.00000000e+00 
 3.67555891e-05  1.80113992e+00  8.00147022e-01  0.00000000e+00 
 3.87555891e-05  1.79886098e+00  8.00155022e-01  0.00000000e+00 
 4.07555891e-05  1.80113985e+00  8.00163022e-01  0.00000000e+00 
 4.27555891e-05  1.79886106e+00  8.00171022e-01  0.00000000e+00 
 4.47555891e-05  1.80113977e+00  8.00179022e-01  0.00000000e+00 
 4.67555891e-05  1.79886113e+00  8.00187022e-01  0.00000000e+00 
 4.87555891e-05  1.80113970e+00  8.00195022e-01  0.00000000e+00 
 5.07555891e-05  1.79886121e+00  8.00203022e-01  0.00000000e+00 
 5.27555891e-05  1.80113962e+00  8.00211022e-01  0.00000000e+00 
 5.47555891e-05  1.79886128e+00  8.00219022e-01  0.00000000e+00 
 5.67555891e-05  1.80113955e+00  8.00227022e-01  0.00000000e+00 
 5.87555891e-05  1.79886136e+00  8.00235022e-01  0.00000000e+00 
 6.07555891e-05  1.80113947e+00  8.00243022e-01  0.00000000e+00 
 6.27555891e-05  1.79886143e+00  8.00251022e-01  0.00000000e+00 
 6.47555891e-05  1.80113940e+00  8.00259022e-01  0.00000000e+00 
 6.67555891e-05  1.79886151e+00  8.00267022e-01  0.00000000e+00 
 6.87555891e-05  1.80113932e+00  8.00275022e-01  0.00000000e+00 
 7.07555891e-05  1.79886158e+00  8.00283022e-01  0.00000000e+00 
 7.27555891e-05  1.80113925e+00  8.00291022e-01  0.00000000e+00 
 7.47555891e-05  1.79886166e+00  8.00299022e-01  0.00000000e+00 
 7.67555891e-05  1.80113917e+00  8.00307022e-01  0.00000000e+00 
 7.87555891e-05  1.79886173e+00  8.00315022e-01  0.00000000e+00 
 8.07555891e-05  1.80113910e+00  8.00323022e-01  0.00000000e+00 
 8.27555891e-05  1.79886180e+00  8.00331022e-01  0.00000000e+00 
 8.47555891e-05  1.80113902e+00  8.00339022e-01  0.00000000e+00 
 8.67555891e-05  1.79886188e+00  8.00347022e-01  0.00000000e+00 
 8.87555891e-05  1.80113895e+00  8.00355022e-01  0.00000000e+00 
 9.07555891e-05  1.79886195e+00  8.00363022e-01  0.00000000e+00 
 9.27555891e-05  1.80113887e+00  8.00371022e-01  0.00000000e+00 
 9.47555891e-05  1.79886203e+00  8.00379022e-01  0.00000000e+00 
 9.67555891e-05  1.80113880e+00  8.00387022e-01  0.00000000e+00 
 9.87555891e-05  1.79886210e+00  8.00395022e-01  0.00000000e+00 
 1.00755589e-04  1.80113873e+00  8.00403022e-01  0.00000000e+00 
 1.02755589e-04  1.79886218e+00  8.00411022e-01  0.00000000e+00 
 1.04755589e-04  1.80113865e+00  8.00419022e-01  0.00000000e+00 
 1.06755589e-04  1.79886225e+00  8.00427022e-01  0.00000000e+00 
 1.08755589e-04  1.80113858e+00  8.00435022e-01  0.00000000e+00 
 1.10755589e-04  1.79886232e+00  8.00443022e-01  0.00000000e+00 
 1.12755589e-04  1.80113850e+00  8.00451022e-01  0.00000000e+00 
 1.14755589e-04  1.79886240e+00  8.00459022e-01  0.00000000e+00 
 1.16755589e-04  1.80113843e+00  8.00467022e-01  0.00000000e+00 
 1.18755589e-04  1.79886247e+00  8.00475022e-01  0.00000000e+00 
 1.20755589e-04  1.80113835e+00  8.00483022e-01  0.00000000e+00 
 1.22755589e-04  1.79886255e+00  8.00491022e-01  0.00000000e+00 
 1.24755589e-04  1.80113828e+00  8.00499022e-01  0.00000000e+00 
 1.26755589e-04  1.79886262e+00  8.00507022e-01  0.00000000e+00 
 1.28755589e-04  1.80113821e+00  8.00515022e-01  0.00000000e+00 
 1.30755589e-04  1.79886269e+00  8.00523022e-01  0.00000000e+00 
 1.32755589e-04  1.80113813e+00  8.00531022e-01  0.00000000e+00 
 1.34755589e-04  1.79886277e+00  8.00539022e-01  0.00000000e+00 
 1.36755589e-04  1.80113806e+00  8.00547022e-01  0.00000000e+00 
 1.38755589e-04  1.79886284e+00  8.00555022e-01  0.00000000e+00 
 1.40755589e-04  1.80113798e+00  8.00563022e-01  0.00000000e+00 
 1.42755589e-04  1.79886292e+00  8.00571022e-01  0.00000000e+00 
 1.44755589e-04  1.80113791e+00  8.00579022e-01  0.00000000e+00 
 1.46755589e-04  1.79886299e+00  8.00587022e-01  0.00000000e+00 
 1.48755589e-04  1.80113784e+00  8.00595022e-01  0.00000000e+00 
 1.50755589e-04  1.79886306e+00  8.00603022e-01  0.00000000e+00 
 1.52755589e-04  1.80113776e+00  8.00611022e-01  0.00000000e+00 
 1.54755589e-04  1.79886314e+00  8.00619022e-01  0.00000000e+00 
 1.56755589e-04  1.80113769e+00  8.00627022e-01  0.00000000e+00 
 1.58755589e-04  1.79886321e+00  8.00635022e-01  0.00000000e+00 
 1.60755589e-04  1.80113762e+00  8.00643022e-01  0.00000000e+00 
 1.62755589e-04  1.79886328e+00  8.00651022e-01  0.00000000e+00 
 1.64755589e-04  1.80113754e+00  8.00659022e-01  0.00000000e+00 
 1.66755589e-04  1.79886336e+00  8.00667022e-01  0.00000000e+00 
 1.68755589e-04  1.80113747e+00  8.00675022e-01  0.00000000e+00 
 1.70755589e-04  1.79886343e+00  8.00683022e-01  0.00000000e+00 
 1.72755589e-04  1.80113739e+00  8.00691022e-01  0.00000000e+00 
 1.74755589e-04  1.79886350e+00  8.00699022e-01  0.00000000e+00 
 1.76755589e-04  1.80113732e+00  8.00707022e-01  0.00000000e+00 
 1.78755589e-04  1.79886358e+00  8.00715022e-01  0.00000000e+00 
 1.80755589e-04  1.80113725e+00  8.00723022e-01  0.00000000e+00 
 1.82755589e-04  1.79886365e+00  8.00731022e-01  0.00000000e+00 
 1.84755589e-04  1.80113717e+00  8.00739022e-01  0.00000000e+00 
 1.86755589e-04  1.79886372e+00  8.00747022e-01  0.00000000e+00 
 1.88755589e-04  1.80113710e+00  8.00755022e-01  0.00000000e+00 
 1.90755589e-04  1.79886380e+00  8.00763022e-01  0.00000000e+00 
 1.92755589e-04  1.80113703e+00  8.00771022e-01  0.00000000e+00 
 1.94755589e-04  1.79886387e+00  8.00779022e-01  0.00000000e+00 
 1.96755589e-04  1.80113695e+00  8.00787022e-01  0.00000000e+00 
 1.98755589e-04  1.79886394e+00  8.00795022e-01  0.00000000e+00 
 2.00000000e-04  1.80113686e+00  8.00800000e-01  0.00000000e+00 
 2.00125731e-04  7.38820372e-05 -9.91994971e-02  9.00000000e-01 
 2.00377192e-04 -5.60667493e-05 -9.91984912e-02  9.00000000e-01 
 2.00581876e-04  5.61958154e-05 -9.91976725e-02  9.00000000e-01 
 2.00813429e-04 -5.60231884e-05 -9.91967463e-02  9.00000000e-01 
 2.01276534e-04  5.61633082e-05 -9.91948939e-02  9.00000000e-01 
 2.02105081e-04 -5.60075328e-05 -9.91915797e-02  9.00000000e-01 
 2.03762175e-04  5.61547968e-05 -9.91849513e-02  9.00000000e-01 
 2.05762175e-04 -5.60026384e-05 -9.91769513e-02  9.00000000e-01 
 2.07762175e-04  5.61509129e-05 -9.91689513e-02  9.00000000e-01 
 2.09762175e-04 -5.59984755e-05 -9.91609513e-02  9.00000000e-01 
 2.11762175e-04  5.61466947e-05 -9.91529513e-02  9.00000000e-01 
 2.13762175e-04 -5.59943598e-05 -9.91449513e-02  9.00000000e-01 
 2.15762175e-04  5.61424791e-05 -9.91369513e-02  9.00000000e-01 
 2.17762175e-04 -5.59902467e-05 -9.91289513e-02  9.00000000e-01 
 2.19762175e-04  5.61382663e-05 -9.91209513e-02  9.00000000e-01 
 2.21762175e-04 -5.59861362e-05 -9.91129513e-02  9.00000000e-01 
 2.23762175e-04  5.61340563e-05 -9.91049513e-02  9.00000000e-01 
 2.25762175e-04 -5.59820284e-05 -9.90969513e-02  9.00000000e-01 
 2.27762175e-04  5.61298492e-05 -9.90889513e-02  9.00000000e-01 
 2.29762175e-04 -5.59779235e-05 -9.90809513e-02  9.00000000e-01 
 2.31762175e-04  5.61256448e-05 -9.90729513e-02  9.00000000e-01 
 2.33762175e-04 -5.59738214e-05 -9.90649513e-02  9.00000000e-01 
 2.35762175e-04  5.61214431e-05 -9.90569513e-02  9.00000000e-01 
 2.37762175e-04 -5.59697237e-05 -9.90489513e-02  9.00000000e-01 
 2.39762175e-04  5.61172481e-05 -9.90409513e-02  9.00000000e-01 
 2.41762175e-04 -5.59656284e-05 -9.90329513e-02  9.00000000e-01 
 2.43762175e-04  5.61130492e-05 -9.90249513e-02  9.00000000e-01 
 2.45762175e-04 -5.59615364e-05 -9.90169513e-02  9.00000000e-01 
 2.47762175e-04  5.61088557e-05 -9.90089513e-02  9.00000000e-01 
 2.49762175e-04 -5.59574470e-05 -9.90009513e-02  9.00000000e-01 
 2.51762175e-04  5.61046653e-05 -9.89929513e-02  9.00000000e-01 
 2.53762175e-04 -5.59533608e-05 -9.89849513e-02  9.00000000e-01 
 2.55762175e-04  5.61004778e-05 -9.89769513e-02  9.00000000e-01 
 2.57762175e-04 -5.59492778e-05 -9.89689513e-02  9.00000000e-01 
 2.59762175e-04  5.60962932e-05 -9.89609513e-02  9.00000000e-01 
 2.61762175e-04 -5.59451981e-05 -9.89529513e-02  9.00000000e-01 
 2.63762175e-04  5.60921116e-05 -9.89449513e-02  9.00000000e-01 
 2.65762175e-04 -5.59411215e-05 -9.89369513e-02  9.00000000e-01 
 2.67762175e-04  5.60879337e-05 -9.89289513e-02  9.00000000e-01 
 2.69762175e-04 -5.59370473e-05 -9.89209513e-02  9.00000000e-01 
 2.71762175e-04  5.60837609e-05 -9.89129513e-02  9.00000000e-01 
 2.73762175e-04 -5.59329732e-05 -9.89049513e-02  9.00000000e-01 
 2.75762175e-04  5.60795971e-05 -9.88969513e-02  9.00000000e-01 
 2.77762175e-04 -5.59288931e-05 -9.88889513e-02  9.00000000e-01 
 2.79762175e-04  5.60754525e-05 -9.88809513e-02  9.00000000e-01 
 2.81762175e-04 -5.59247913e-05 -9.88729513e-02  9.00000000e-01 
 2.83762175e-04  5.60713510e-05 -9.88649513e-02  9.00000000e-01 
 2.85762175e-04 -5.59206317e-05 -9.88569513e-02  9.00000000e-01 
 2.87762175e-04  5.60673431e-05 -9.88489513e-02  9.00000000e-01 
 2.89762175e-04 -5.59163468e-05 -9.88409513e-02  9.00000000e-01 
 2.91762175e-04  5.60635080e-05 -9.88329513e-02  9.00000000e-01 
 2.93762175e-04 -5.59118577e-05 -9.88249513e-02  9.00000000e-01 
 2.95762175e-04  5.60598959e-05 -9.88169513e-02  9.00000000e-01 
 2.97762175e-04 -5.59071766e-05 -9.88089513e-02  9.00000000e-01 
 2.99762175e-04  5.60564067e-05 -9.88009513e-02  9.00000000e-01 
 3.01762175e-04 -5.59024882e-05 -9.87929513e-02  9.00000000e-01 
 3.03762175e-04  5.60528223e-05 -9.87849513e-02  9.00000000e-01 
 3.05762175e-04 -5.58979844e-05 -9.87769513e-02  9.00000000e-01 
 3.07762175e-04  5.60490306e-05 -9.87689513e-02  9.00000000e-01 
 3.09762175e-04 -5.58936902e-05 -9.87609513e-02  9.00000000e-01 
 3.11762175e-04  5.60450709e-05 -9.87529513e-02  9.00000000e-01 
 3.13762175e-04 -5.58895334e-05 -9.87449513e-02  9.00000000e-01 
 3.15762175e-04  5.60410181e-05 -9.87369513e-02  9.00000000e-01 
 3.17762175e-04 -5.58854476e-05 -9.87289513e-02  9.00000000e-01 
 3.19762175e-04  5.60369229e-05 -9.87209513e-02  9.00000000e-01 
 3.21762175e-04 -5.58813955e-05 -9.87129513e-02  9.00000000e-01 
 3.23762175e-04  5.60328106e-05 -9.87049513e-02  9.00000000e-01 
 3.25762175e-04 -5.58773594e-05 -9.86969513e-02  9.00000000e-01 
 3.27762175e-04  5.60286927e-05 -9.86889513e-02  9.00000000e-01 
 3.29762175e-04 -5.58733317e-05 -9.86809513e-02  9.00000000e-01 
 3.31762175e-04  5.60245741e-05 -9.86729513e-02  9.00000000e-01 
 3.33762175e-04 -5.58693091e-05 -9.86649513e-02  9.00000000e-01 
 3.35762175e-04  5.60204568e-05 -9.86569513e-02  9.00000000e-01 
 3.37762175e-04 -5.58652902e-05 -9.86489513e-02  9.00000000e-01 
 3.39762175e-04  5.60163418e-05 -9.86409513e-02  9.00000000e-01 
 3.41762175e-04 -5.58612745e-05 -9.86329513e-02  9.00000000e-01 
 3.43762175e-04  5.60122294e-05 -9.86249513e-02  9.00000000e-01 
 3.45762175e-04 -5.58572617e-05 -9.86169513e-02  9.00000000e-01 
 3.47762175e-04  5.60081197e-05 -9.86089513e-02  9.00000000e-01 
 3.49762175e-04 -5.58532517e-05 -9.86009513e-02  9.00000000e-01 
 3.51762175e-04  5.60040128e-05 -9.85929513e-02  9.00000000e-01 
 3.53762175e-04 -5.58492446e-05 -9.85849513e-02  9.00000000e-01 
 3.55762175e-04  5.59999087e-05 -9.85769513e-02  9.00000000e-01 
 3.57762175e-04 -5.58452402e-05 -9.85689513e-02  9.00000000e-01 
 3.59762175e-04  5.59958075e-05 -9.85609513e-02  9.00000000e-01 
 3.61762175e-04 -5.58412386e-05 -9.85529513e-02  9.00000000e-01 
 3.63762175e-04  5.59917090e-05 -9.85449513e-02  9.00000000e-01 
 3.65762175e-04 -5.58372398e-05 -9.85369513e-02  9.00000000e-01 
 3.67762175e-04  5.59876134e-05 -9.85289513e-02  9.00000000e-01 
 3.69762175e-04 -5.58332438e-05 -9.85209513e-02  9.00000000e-01 
 3.71762175e-04  5.59835207e-05 -9.85129513e-02  9.00000000e-01 
 3.73762175e-04 -5.58292505e-05 -9.85049513e-02  9.00000000e-01 
 3.75762175e-04  5.59794307e-05 -9.84969513e-02  9.00000000e-01 
 3.77762175e-04 -5.58252599e-05 -9.84889513e-02  9.00000000e-01 
 3.79762175e-04  5.59753436e-05 -9.84809513e-02  9.00000000e-01 
 3.81762175e-04 -5.58212721e-05 -9.84729513e-02  9.00000000e-01 
 3.83762175e-04  5.59712593e-05 -9.84649513e-02  9.00000000e-01 
 3.85762175e-04 -5.58172871e-05 -9.84569513e-02  9.00000000e-01 
 3.87762175e-04  5.59671778e-05 -9.84489513e-02  9.00000000e-01 
 3.89762175e-04 -5.58133049e-05 -9.84409513e-02  9.00000000e-01 
 3.91762175e-04  5.59630992e-05 -9.84329513e-02  9.00000000e-01 
 3.93762175e-04 -5.58093254e-05 -9.84249513e-02  9.00000000e-01 
 3.95762175e-04  5.59590234e-05 -9.84169513e-02  9.00000000e-01 
 3.97762175e-04 -5.58053486e-05 -9.84089513e-02  9.00000000e-01 
 3.99762175e-04  5.59549504e-05 -9.84009513e-02  9.00000000e-01 
 4.01762175e-04 -5.58013746e-05 -9.83929513e-02  9.00000000e-01 
 4.03762175e-04  5.59508802e-05 -9.83849513e-02  9.00000000e-01 
 4.05762175e-04 -5.57974034e-05 -9.83769513e-02  9.00000000e-01 
 4.07762175e-04  5.59468128e-05 -9.83689513e-02  9.00000000e-01 
 4.09762175e-04 -5.57934349e-05 -9.83609513e-02  9.00000000e-01 
 4.11762175e-04  5.59427482e-05 -9.83529513e-02  9.00000000e-01 
 4.13762175e-04 -5.57894691e-05 -9.83449513e-02  9.00000000e-01 
 4.15762175e-04  5.59386865e-05 -9.83369513e-02  9.00000000e-01 
 4.17762175e-04 -5.57855061e-05 -9.83289513e-02  9.00000000e-01 
 4.19762175e-04  5.59346276e-05 -9.83209513e-02  9.00000000e-01 
 4.21762175e-04 -5.57815459e-05 -9.83129513e-02  9.00000000e-01 
 4.23762175e-04  5.59305715e-05 -9.83049513e-02  9.00000000e-01 
 4.25762175e-04 -5.57775884e-05 -9.82969513e-02  9.00000000e-01 
 4.27762175e-04  5.59265182e-05 -9.82889513e-02  9.00000000e-01 
 4.29762175e-04 -5.57736336e-05 -9.82809513e-02  9.00000000e-01 
 4.31762175e-04  5.59224677e-05 -9.82729513e-02  9.00000000e-01 
 4.33762175e-04 -5.57696816e-05 -9.82649513e-02  9.00000000e-01 
 4.35762175e-04  5.59184200e-05 -9.82569513e-02  9.00000000e-01 
 4.37762175e-04 -5.57657323e-05 -9.82489513e-02  9.00000000e-01 
 4.39762175e-04  5.59143751e-05 -9.82409513e-02  9.00000000e-01 
 4.41762175e-04 -5.57617858e-05 -9.82329513e-02  9.00000000e-01 
 4.43762175e-04  5.59103331e-05 -9.82249513e-02  9.00000000e-01 
 4.45762175e-04 -5.57578420e-05 -9.82169513e-02  9.00000000e-01 
 4.47762175e-04  5.59062939e-05 -9.82089513e-02  9.00000000e-01 
 4.49762175e-04 -5.57539011e-05 -9.82009513e-02  9.00000000e-01 
 4.51762175e-04  5.59022575e-05 -9.81929513e-02  9.00000000e-01 
 4.53762175e-04 -5.57499629e-05 -9.81849513e-02  9.00000000e-01 
 4.55762175e-04  5.58982241e-05 -9.81769513e-02  9.00000000e-01 
 4.57762175e-04 -5.57460276e-05 -9.81689513e-02  9.00000000e-01 
 4.59762175e-04  5.58941936e-05 -9.81609513e-02  9.00000000e-01 
 4.61762175e-04 -5.57420952e-05 -9.81529513e-02  9.00000000e-01 
 4.63762175e-04  5.58901661e-05 -9.81449513e-02  9.00000000e-01 
 4.65762175e-04 -5.57381657e-05 -9.81369513e-02  9.00000000e-01 
 4.67762175e-04  5.58861413e-05 -9.81289513e-02  9.00000000e-01 
 4.69762175e-04 -5.57342387e-05 -9.81209513e-02  9.00000000e-01 
 4.71762175e-04  5.58821192e-05 -9.81129513e-02  9.00000000e-01 
 4.73762175e-04 -5.57303143e-05 -9.81049513e-02  9.00000000e-01 
 4.75762175e-04  5.58780997e-05 -9.80969513e-02  9.00000000e-01 
 4.77762175e-04 -5.57263925e-05 -9.80889513e-02  9.00000000e-01 
 4.79762175e-04  5.58740829e-05 -9.80809513e-02  9.00000000e-01 
 4.81762175e-04 -5.57224734e-05 -9.80729513e-02  9.00000000e-01 
 4.83762175e-04  5.58700689e-05 -9.80649513e-02  9.00000000e-01 
 4.85762175e-04 -5.57185570e-05 -9.80569513e-02  9.00000000e-01 
 4.87762175e-04  5.58660576e-05 -9.80489513e-02  9.00000000e-01 
 4.89762175e-04 -5.57146433e-05 -9.80409513e-02  9.00000000e-01 
 4.91762175e-04  5.58620492e-05 -9.80329513e-02  9.00000000e-01 
 4.93762175e-04 -5.57107323e-05 -9.80249513e-02  9.00000000e-01 
 4.95762175e-04  5.58580435e-05 -9.80169513e-02  9.00000000e-01 
 4.97762175e-04 -5.57068240e-05 -9.80089513e-02  9.00000000e-01 
 4.99762175e-04  5.58540406e-05 -9.80009513e-02  9.00000000e-01 
 5.00100100e-04 -5.60812332e-05 -9.79995996e-02  9.00000000e-01 
 5.00100110e-04 -5.34108360e-05 -9.79995996e-02  9.00000000e-01 
 5.00100130e-04 -2.21079959e-05 -9.79995995e-02  9.00000000e-01 
 5.00100170e-04  2.35394107e-04 -9.79995993e-02  9.00000000e-01 
 5.00100200e-04  1.33253371e-03 -9.79995992e-02  9.00000000e-01 
 5.00100208e-04  6.70847627e-04 -9.79995992e-02  9.00000000e-01 
 5.00100224e-04 -4.36038979e-03 -9.79995991e-02  9.00000000e-01 
 5.00100256e-04 -2.21801655e-02 -9.79995990e-02  9.00000000e-01 
 5.00100320e-04  7.44336979e-02 -9.79995987e-02  9.00000000e-01 
 5.00100388e-04  5.63664614e-01 -9.79995984e-02  9.00000000e-01 
 5.00100470e-04  9.35800172e-01 -9.79995981e-02  9.00000000e-01 
 5.00100590e-04  1.37885466e+00 -9.79995976e-02  9.00000000e-01 
 5.00100716e-04  1.79416748e+00 -9.79995971e-02  9.00000000e-01 
 5.00100901e-04  1.79326396e+00 -9.79995964e-02  9.00000000e-01 
 5.00101257e-04  1.80683846e+00 -9.79995950e-02  9.00000000e-01 
 5.00101619e-04  1.79209678e+00 -9.79995935e-02  9.00000000e-01 
 5.00102345e-04  1.80718479e+00 -9.79995906e-02  9.00000000e-01 
