 time            v(Q)            v(A)-v(B)       v(B)           
 0.00000000e+00  4.69645952e-09  2.00000000e-01  0.00000000e+00 
 1.00000000e-09  4.69675276e-09  2.00000004e-01  0.00000000e+00 
 2.00000000e-09  4.69675445e-09  2.00000008e-01  0.00000000e+00 
 4.00000000e-09  4.69675441e-09  2.00000016e-01  0.00000000e+00 
 8.00000000e-09  4.69675416e-09  2.00000032e-01  0.00000000e+00 
 1.60000000e-08  4.69675382e-09  2.00000064e-01  0.00000000e+00 
 3.20000000e-08  4.69675295e-09  2.00000128e-01  0.00000000e+00 
 6.40000000e-08  4.69675133e-09  2.00000256e-01  0.00000000e+00 
 1.00000000e-07  4.69674944e-09  2.00000400e-01  0.00000000e+00 
 1.00010000e-07  1.58120264e-05  2.00000400e-01  0.00000000e+00 
 1.00030000e-07 -4.24504487e-06  2.00000400e-01  0.00000000e+00 
 1.00070000e-07 -1.29807699e-05  2.00000400e-01  0.00000000e+00 
 1.00100000e-07  1.15525348e-06  2.00000400e-01  0.00000000e+00 
 1.00108000e-07  4.37930929e-06  2.00000400e-01  0.00000000e+00 
 1.00124000e-07  7.54947500e-06  2.00000400e-01  0.00000000e+00 
 1.00156000e-07 -5.70283304e-07  2.00000401e-01  0.00000000e+00 
 1.00220000e-07  6.47325300e-07  2.00000401e-01  0.00000000e+00 
 1.00348000e-07 -3.50237829e-07  2.00000401e-01  0.00000000e+00 
 1.00604000e-07  1.67313262e-07  2.00000402e-01  0.00000000e+00 
 1.01116000e-07 -7.43552440e-08  2.00000404e-01  0.00000000e+00 
 1.02140000e-07  4.26930807e-08  2.00000409e-01  0.00000000e+00 
 1.04188000e-07 -1.31252671e-08  2.00000417e-01  0.00000000e+00 
 1.08284000e-07  1.24959394e-08  2.00000433e-01  0.00000000e+00 
 1.16476000e-07  1.89160382e-09  2.00000466e-01  0.00000000e+00 
 1.32860000e-07  5.00926719e-09  2.00000531e-01  0.00000000e+00 
 1.65628000e-07  5.62939763e-09  2.00000663e-01  0.00000000e+00 
 2.31164000e-07  3.14177795e-09  2.00000925e-01  0.00000000e+00 
 3.62236000e-07  6.56277861e-09  2.00001449e-01  0.00000000e+00 
 6.24380000e-07  2.67514990e-09  2.00002498e-01  0.00000000e+00 
 1.14866800e-06  6.79602518e-09  2.00004595e-01  0.00000000e+00 
 2.19724400e-06  2.55845073e-09  2.00008789e-01  0.00000000e+00 
 4.19724400e-06  6.85518676e-09  2.00016789e-01  0.00000000e+00 
 6.19724400e-06  2.51765452e-09  2.00024789e-01  0.00000000e+00 
 8.19724400e-06  6.89588720e-09  2.00032789e-01  0.00000000e+00 
 1.01972440e-05  2.47683854e-09  2.00040789e-01  0.00000000e+00 
 1.21972440e-05  6.93662217e-09  2.00048789e-01  0.00000000e+00 
 1.41972440e-05  2.43604808e-09  2.00056789e-01  0.00000000e+00 
 1.61972440e-05  6.97737364e-09  2.00064789e-01  0.00000000e+00 
 1.81972440e-05  2.39527045e-09  2.00072789e-01  0.00000000e+00 
 2.01972440e-05  7.01813269e-09  2.00080789e-01  0.00000000e+00 
 2.21972440e-05  2.35449951e-09  2.00088789e-01  0.00000000e+00 
 2.41972440e-05  7.05889510e-09  2.00096789e-01  0.00000000e+00 
 2.61972440e-05  2.31373212e-09  2.00104789e-01  0.00000000e+00 
 2.81972440e-05  7.09965861e-09  2.00112789e-01  0.00000000e+00 
 3.01972440e-05  2.27296701e-09  2.00120789e-01  0.00000000e+00 
 3.21972440e-05  7.14042234e-09  2.00128789e-01  0.00000000e+00 
 3.41972440e-05  2.23220333e-09  2.00136789e-01  0.00000000e+00 
 3.61972440e-05  7.18118576e-09  2.00144789e-01  0.00000000e+00 
 3.81972440e-05  2.19144078e-09  2.00152789e-01  0.00000000e+00 
 4.01972440e-05  7.22194851e-09  2.00160789e-01  0.00000000e+00 
 4.21972440e-05  2.15067921e-09  2.00168789e-01  0.00000000e+00 
 4.41972440e-05  7.26271072e-09  2.00176789e-01  0.00000000e+00 
 4.61972440e-05  2.10991853e-09  2.00184789e-01  0.00000000e+00 
 4.81972440e-05  7.30347208e-09  2.00192789e-01  0.00000000e+00 
 5.01972440e-05  2.06915870e-09  2.00200789e-01  0.00000000e+00 
 5.21972440e-05  7.34423270e-09  2.00208789e-01  0.00000000e+00 
 5.41972440e-05  2.02839964e-09  2.00216789e-01  0.00000000e+00 
 5.61972440e-05  7.38499251e-09  2.00224789e-01  0.00000000e+00 
 5.81972440e-05  1.98764142e-09  2.00232789e-01  0.00000000e+00 
 6.01972440e-05  7.42575154e-09  2.00240789e-01  0.00000000e+00 
 6.21972440e-05  1.94688396e-09  2.00248789e-01  0.00000000e+00 
 6.41972440e-05  7.46650986e-09  2.00256789e-01  0.00000000e+00 
 6.61972440e-05  1.90612731e-09  2.00264789e-01  0.00000000e+00 
 6.81972440e-05  7.50726724e-09  2.00272789e-01  0.00000000e+00 
 7.01972440e-05  1.86537154e-09  2.00280789e-01  0.00000000e+00 
 7.21972440e-05  7.54802396e-09  2.00288789e-01  0.00000000e+00 
 7.41972440e-05  1.82461647e-09  2.00296789e-01  0.00000000e+00 
 7.61972440e-05  7.58877980e-09  2.00304789e-01  0.00000000e+00 
 7.81972440e-05  1.78386227e-09  2.00312789e-01  0.00000000e+00 
 8.01972440e-05  7.62953486e-09  2.00320789e-01  0.00000000e+00 
 8.21972440e-05  1.74310878e-09  2.00328789e-01  0.00000000e+00 
 8.41972440e-05  7.67028909e-09  2.00336789e-01  0.00000000e+00 
 8.61972440e-05  1.70235616e-09  2.00344789e-01  0.00000000e+00 
 8.81972440e-05  7.71104261e-09  2.00352789e-01  0.00000000e+00 
 9.01972440e-05  1.66160429e-09  2.00360789e-01  0.00000000e+00 
 9.21972440e-05  7.75179523e-09  2.00368789e-01  0.00000000e+00 
 9.41972440e-05  1.62085325e-09  2.00376789e-01  0.00000000e+00 
 9.61972440e-05  7.79254709e-09  2.00384789e-01  0.00000000e+00 
 9.81972440e-05  1.58010302e-09  2.00392789e-01  0.00000000e+00 
 1.00197244e-04  7.83329817e-09  2.00400789e-01  0.00000000e+00 
 1.02197244e-04  1.53935359e-09  2.00408789e-01  0.00000000e+00 
 1.04197244e-04  7.87404849e-09  2.00416789e-01  0.00000000e+00 
 1.06197244e-04  1.49860488e-09  2.00424789e-01  0.00000000e+00 
 1.08197244e-04  7.91479791e-09  2.00432789e-01  0.00000000e+00 
 1.10197244e-04  1.45785704e-09  2.00440789e-01  0.00000000e+00 
 1.12197244e-04  7.95554662e-09  2.00448789e-01  0.00000000e+00 
 1.14197244e-04  1.41711000e-09  2.00456789e-01  0.00000000e+00 
 1.16197244e-04  7.99629449e-09  2.00464789e-01  0.00000000e+00 
 1.18197244e-04  1.37636374e-09  2.00472789e-01  0.00000000e+00 
 1.20197244e-04  8.03704159e-09  2.00480789e-01  0.00000000e+00 
 1.22197244e-04  1.33561822e-09  2.00488789e-01  0.00000000e+00 
 1.24197244e-04  8.07778787e-09  2.00496789e-01  0.00000000e+00 
 1.26197244e-04  1.29487360e-09  2.00504789e-01  0.00000000e+00 
 1.28197244e-04  8.11853332e-09  2.00512789e-01  0.00000000e+00 
 1.30197244e-04  1.25412971e-09  2.00520789e-01  0.00000000e+00 
 1.32197244e-04  8.15927805e-09  2.00528789e-01  0.00000000e+00 
 1.34197244e-04  1.21338664e-09  2.00536789e-01  0.00000000e+00 
 1.36197244e-04  8.20002195e-09  2.00544789e-01  0.00000000e+00 
 1.38197244e-04  1.17264439e-09  2.00552789e-01  0.00000000e+00 
 1.40197244e-04  8.24076502e-09  2.00560789e-01  0.00000000e+00 
 1.42197244e-04  1.13190291e-09  2.00568789e-01  0.00000000e+00 
 1.44197244e-04  8.28150731e-09  2.00576789e-01  0.00000000e+00 
 1.46197244e-04  1.09116223e-09  2.00584789e-01  0.00000000e+00 
 1.48197244e-04  8.32224884e-09  2.00592789e-01  0.00000000e+00 
 1.50197244e-04  1.05042236e-09  2.00600789e-01  0.00000000e+00 
 1.52197244e-04  8.36298954e-09  2.00608789e-01  0.00000000e+00 
 1.54197244e-04  1.00968326e-09  2.00616789e-01  0.00000000e+00 
 1.56197244e-04  8.40372941e-09  2.00624789e-01  0.00000000e+00 
 1.58197244e-04  9.68944967e-10  2.00632789e-01  0.00000000e+00 
 1.60197244e-04  8.44446856e-09  2.00640789e-01  0.00000000e+00 
 1.62197244e-04  9.28207444e-10  2.00648789e-01  0.00000000e+00 
 1.64197244e-04  8.48520683e-09  2.00656789e-01  0.00000000e+00 
 1.66197244e-04  8.87470788e-10  2.00664789e-01  0.00000000e+00 
 1.68197244e-04  8.52594432e-09  2.00672789e-01  0.00000000e+00 
 1.70197244e-04  8.46734877e-10  2.00680789e-01  0.00000000e+00 
 1.72197244e-04  8.56668110e-09  2.00688789e-01  0.00000000e+00 
 1.74197244e-04  8.05999790e-10  2.00696789e-01  0.00000000e+00 
 1.76197244e-04  8.60741699e-09  2.00704789e-01  0.00000000e+00 
 1.78197244e-04  7.65265461e-10  2.00712789e-01  0.00000000e+00 
 1.80197244e-04  8.64815211e-09  2.00720789e-01  0.00000000e+00 
 1.82197244e-04  7.24532000e-10  2.00728789e-01  0.00000000e+00 
 1.84197244e-04  8.68888645e-09  2.00736789e-01  0.00000000e+00 
 1.86197244e-04  6.83799247e-10  2.00744789e-01  0.00000000e+00 
 1.88197244e-04  8.72961992e-09  2.00752789e-01  0.00000000e+00 
 1.90197244e-04  6.43067368e-10  2.00760789e-01  0.00000000e+00 
 1.92197244e-04  8.77035272e-09  2.00768789e-01  0.00000000e+00 
 1.94197244e-04  6.02336240e-10  2.00776789e-01  0.00000000e+00 
 1.96197244e-04  8.81108464e-09  2.00784789e-01  0.00000000e+00 
 1.98197244e-04  5.61605929e-10  2.00792789e-01  0.00000000e+00 
 2.00000000e-04  8.85404402e-09  2.00800000e-01  0.00000000e+00 
 2.00200000e-04  4.64556140e-09 -9.91992000e-02  3.00000000e-01 
 2.00600000e-04  4.74737105e-09 -9.91976000e-02  3.00000000e-01 
 2.01233589e-04  4.64556583e-09 -9.91950656e-02  3.00000000e-01 
 2.01901888e-04  4.74736673e-09 -9.91923924e-02  3.00000000e-01 
 2.03238488e-04  4.64556870e-09 -9.91870460e-02  3.00000000e-01 
 2.05238488e-04  4.74736433e-09 -9.91790460e-02  3.00000000e-01 
 2.07238488e-04  4.64556989e-09 -9.91710460e-02  3.00000000e-01 
 2.09238488e-04  4.74736240e-09 -9.91630460e-02  3.00000000e-01 
 2.11238488e-04  4.64557143e-09 -9.91550460e-02  3.00000000e-01 
 2.13238488e-04  4.74736054e-09 -9.91470460e-02  3.00000000e-01 
 2.15238488e-04  4.64557313e-09 -9.91390460e-02  3.00000000e-01 
 2.17238488e-04  4.74735859e-09 -9.91310460e-02  3.00000000e-01 
 2.19238488e-04  4.64557498e-09 -9.91230460e-02  3.00000000e-01 
 2.21238488e-04  4.74735666e-09 -9.91150460e-02  3.00000000e-01 
 2.23238488e-04  4.64557695e-09 -9.91070460e-02  3.00000000e-01 
 2.25238488e-04  4.74735460e-09 -9.90990460e-02  3.00000000e-01 
 2.27238488e-04  4.64557899e-09 -9.90910460e-02  3.00000000e-01 
 2.29238488e-04  4.74735244e-09 -9.90830460e-02  3.00000000e-01 
 2.31238488e-04  4.64558118e-09 -9.90750460e-02  3.00000000e-01 
 2.33238488e-04  4.74735024e-09 -9.90670460e-02  3.00000000e-01 
 2.35238488e-04  4.64558349e-09 -9.90590460e-02  3.00000000e-01 
 2.37238488e-04  4.74734787e-09 -9.90510460e-02  3.00000000e-01 
 2.39238488e-04  4.64558580e-09 -9.90430460e-02  3.00000000e-01 
 2.41238488e-04  4.74734546e-09 -9.90350460e-02  3.00000000e-01 
 2.43238488e-04  4.64558832e-09 -9.90270460e-02  3.00000000e-01 
 2.45238488e-04  4.74734299e-09 -9.90190460e-02  3.00000000e-01 
 2.47238488e-04  4.64559084e-09 -9.90110460e-02  3.00000000e-01 
 2.49238488e-04  4.74734037e-09 -9.90030460e-02  3.00000000e-01 
 2.51238488e-04  4.64559352e-09 -9.89950460e-02  3.00000000e-01 
 2.53238488e-04  4.74733764e-09 -9.89870460e-02  3.00000000e-01 
 2.55238488e-04  4.64559630e-09 -9.89790460e-02  3.00000000e-01 
 2.57238488e-04  4.74733480e-09 -9.89710460e-02  3.00000000e-01 
 2.59238488e-04  4.64559914e-09 -9.89630460e-02  3.00000000e-01 
 2.61238488e-04  4.74733197e-09 -9.89550460e-02  3.00000000e-01 
 2.63238488e-04  4.64560213e-09 -9.89470460e-02  3.00000000e-01 
 2.65238488e-04  4.74732898e-09 -9.89390460e-02  3.00000000e-01 
 2.67238488e-04  4.64560511e-09 -9.89310460e-02  3.00000000e-01 
 2.69238488e-04  4.74732584e-09 -9.89230460e-02  3.00000000e-01 
 2.71238488e-04  4.64560825e-09 -9.89150460e-02  3.00000000e-01 
 2.73238488e-04  4.74732263e-09 -9.89070460e-02  3.00000000e-01 
 2.75238488e-04  4.64561151e-09 -9.88990460e-02  3.00000000e-01 
 2.77238488e-04  4.74731933e-09 -9.88910460e-02  3.00000000e-01 
 2.79238488e-04  4.64561486e-09 -9.88830460e-02  3.00000000e-01 
 2.81238488e-04  4.74731599e-09 -9.88750460e-02  3.00000000e-01 
 2.83238488e-04  4.64561831e-09 -9.88670460e-02  3.00000000e-01 
 2.85238488e-04  4.74731252e-09 -9.88590460e-02  3.00000000e-01 
 2.87238488e-04  4.64562177e-09 -9.88510460e-02  3.00000000e-01 
 2.89238488e-04  4.74730897e-09 -9.88430460e-02  3.00000000e-01 
 2.91238488e-04  4.64562544e-09 -9.88350460e-02  3.00000000e-01 
 2.93238488e-04  4.74730524e-09 -9.88270460e-02  3.00000000e-01 
 2.95238488e-04  4.64562917e-09 -9.88190460e-02  3.00000000e-01 
 2.97238488e-04  4.74730152e-09 -9.88110460e-02  3.00000000e-01 
 2.99238488e-04  4.64563293e-09 -9.88030460e-02  3.00000000e-01 
 3.01238488e-04  4.74729765e-09 -9.87950460e-02  3.00000000e-01 
 3.03238488e-04  4.64563685e-09 -9.87870460e-02  3.00000000e-01 
 3.05238488e-04  4.74729368e-09 -9.87790460e-02  3.00000000e-01 
 3.07238488e-04  4.64564088e-09 -9.87710460e-02  3.00000000e-01 
 3.09238488e-04  4.74728964e-09 -9.87630460e-02  3.00000000e-01 
 3.11238488e-04  4.64564497e-09 -9.87550460e-02  3.00000000e-01 
 3.13238488e-04  4.74728546e-09 -9.87470460e-02  3.00000000e-01 
 3.15238488e-04  4.64564915e-09 -9.87390460e-02  3.00000000e-01 
 3.17238488e-04  4.74728122e-09 -9.87310460e-02  3.00000000e-01 
 3.19238488e-04  4.64565350e-09 -9.87230460e-02  3.00000000e-01 
 3.21238488e-04  4.74727694e-09 -9.87150460e-02  3.00000000e-01 
 3.23238488e-04  4.64565782e-09 -9.87070460e-02  3.00000000e-01 
 3.25238488e-04  4.74727250e-09 -9.86990460e-02  3.00000000e-01 
 3.27238488e-04  4.64566232e-09 -9.86910460e-02  3.00000000e-01 
 3.29238488e-04  4.74726795e-09 -9.86830460e-02  3.00000000e-01 
 3.31238488e-04  4.64566693e-09 -9.86750460e-02  3.00000000e-01 
 3.33238488e-04  4.74726335e-09 -9.86670460e-02  3.00000000e-01 
 3.35238488e-04  4.64567158e-09 -9.86590460e-02  3.00000000e-01 
 3.37238488e-04  4.74725865e-09 -9.86510460e-02  3.00000000e-01 
 3.39238488e-04  4.64567633e-09 -9.86430460e-02  3.00000000e-01 
 3.41238488e-04  4.74725379e-09 -9.86350460e-02  3.00000000e-01 
 3.43238488e-04  4.64568124e-09 -9.86270460e-02  3.00000000e-01 
 3.45238488e-04  4.74724888e-09 -9.86190460e-02  3.00000000e-01 
 3.47238488e-04  4.64568614e-09 -9.86110460e-02  3.00000000e-01 
 3.49238488e-04  4.74724388e-09 -9.86030460e-02  3.00000000e-01 
 3.51238488e-04  4.64569125e-09 -9.85950460e-02  3.00000000e-01 
 3.53238488e-04  4.74723876e-09 -9.85870460e-02  3.00000000e-01 
 3.55238488e-04  4.64569636e-09 -9.85790460e-02  3.00000000e-01 
 3.57238488e-04  4.74723360e-09 -9.85710460e-02  3.00000000e-01 
 3.59238488e-04  4.64570164e-09 -9.85630460e-02  3.00000000e-01 
 3.61238488e-04  4.74722827e-09 -9.85550460e-02  3.00000000e-01 
 3.63238488e-04  4.64570696e-09 -9.85470460e-02  3.00000000e-01 
 3.65238488e-04  4.74722290e-09 -9.85390460e-02  3.00000000e-01 
 3.67238488e-04  4.64571238e-09 -9.85310460e-02  3.00000000e-01 
 3.69238488e-04  4.74721742e-09 -9.85230460e-02  3.00000000e-01 
 3.71238488e-04  4.64571790e-09 -9.85150460e-02  3.00000000e-01 
 3.73238488e-04  4.74721186e-09 -9.85070460e-02  3.00000000e-01 
 3.75238488e-04  4.64572352e-09 -9.84990460e-02  3.00000000e-01 
 3.77238488e-04  4.74720617e-09 -9.84910460e-02  3.00000000e-01 
 3.79238488e-04  4.64572921e-09 -9.84830460e-02  3.00000000e-01 
 3.81238488e-04  4.74720040e-09 -9.84750460e-02  3.00000000e-01 
 3.83238488e-04  4.64573504e-09 -9.84670460e-02  3.00000000e-01 
 3.85238488e-04  4.74719455e-09 -9.84590460e-02  3.00000000e-01 
 3.87238488e-04  4.64574092e-09 -9.84510460e-02  3.00000000e-01 
 3.89238488e-04  4.74718863e-09 -9.84430460e-02  3.00000000e-01 
 3.91238488e-04  4.64574696e-09 -9.84350460e-02  3.00000000e-01 
 3.93238488e-04  4.74718259e-09 -9.84270460e-02  3.00000000e-01 
 3.95238488e-04  4.64575305e-09 -9.84190460e-02  3.00000000e-01 
 3.97238488e-04  4.74717645e-09 -9.84110460e-02  3.00000000e-01 
 3.99238488e-04  4.64575919e-09 -9.84030460e-02  3.00000000e-01 
 4.01238488e-04  4.74717021e-09 -9.83950460e-02  3.00000000e-01 
 4.03238488e-04  4.64576548e-09 -9.83870460e-02  3.00000000e-01 
 4.05238488e-04  4.74716386e-09 -9.83790460e-02  3.00000000e-01 
 4.07238488e-04  4.64577189e-09 -9.83710460e-02  3.00000000e-01 
 4.09238488e-04  4.74715746e-09 -9.83630460e-02  3.00000000e-01 
 4.11238488e-04  4.64577832e-09 -9.83550460e-02  3.00000000e-01 
 4.13238488e-04  4.74715091e-09 -9.83470460e-02  3.00000000e-01 
 4.15238488e-04  4.64578494e-09 -9.83390460e-02  3.00000000e-01 
 4.17238488e-04  4.74714432e-09 -9.83310460e-02  3.00000000e-01 
 4.19238488e-04  4.64579153e-09 -9.83230460e-02  3.00000000e-01 
 4.21238488e-04  4.74713761e-09 -9.83150460e-02  3.00000000e-01 
 4.23238488e-04  4.64579834e-09 -9.83070460e-02  3.00000000e-01 
 4.25238488e-04  4.74713080e-09 -9.82990460e-02  3.00000000e-01 
 4.27238488e-04  4.64580519e-09 -9.82910460e-02  3.00000000e-01 
 4.29238488e-04  4.74712390e-09 -9.82830460e-02  3.00000000e-01 
 4.31238488e-04  4.64581210e-09 -9.82750460e-02  3.00000000e-01 
 4.33238488e-04  4.74711694e-09 -9.82670460e-02  3.00000000e-01 
 4.35238488e-04  4.64581916e-09 -9.82590460e-02  3.00000000e-01 
 4.37238488e-04  4.74710984e-09 -9.82510460e-02  3.00000000e-01 
 4.39238488e-04  4.64582632e-09 -9.82430460e-02  3.00000000e-01 
 4.41238488e-04  4.74710267e-09 -9.82350460e-02  3.00000000e-01 
 4.43238488e-04  4.64583353e-09 -9.82270460e-02  3.00000000e-01 
 4.45238488e-04  4.74709541e-09 -9.82190460e-02  3.00000000e-01 
 4.47238488e-04  4.64584085e-09 -9.82110460e-02  3.00000000e-01 
 4.49238488e-04  4.74708805e-09 -9.82030460e-02  3.00000000e-01 
 4.51238488e-04  4.64584820e-09 -9.81950460e-02  3.00000000e-01 
 4.53238488e-04  4.74708059e-09 -9.81870460e-02  3.00000000e-01 
 4.55238488e-04  4.64585578e-09 -9.81790460e-02  3.00000000e-01 
 4.57238488e-04  4.74707307e-09 -9.81710460e-02  3.00000000e-01 
 4.59238488e-04  4.64586335e-09 -9.81630460e-02  3.00000000e-01 
 4.61238488e-04  4.74706534e-09 -9.81550460e-02  3.00000000e-01 
 4.63238488e-04  4.64587101e-09 -9.81470460e-02  3.00000000e-01 
 4.65238488e-04  4.74705762e-09 -9.81390460e-02  3.00000000e-01 
 4.67238488e-04  4.64587878e-09 -9.81310460e-02  3.00000000e-01 
 4.69238488e-04  4.74704980e-09 -9.81230460e-02  3.00000000e-01 
 4.71238488e-04  4.64588671e-09 -9.81150460e-02  3.00000000e-01 
 4.73238488e-04  4.74704187e-09 -9.81070460e-02  3.00000000e-01 
 4.75238488e-04  4.64589463e-09 -9.80990460e-02  3.00000000e-01 
 4.77238488e-04  4.74703386e-09 -9.80910460e-02  3.00000000e-01 
 4.79238488e-04  4.64590270e-09 -9.80830460e-02  3.00000000e-01 
 4.81238488e-04  4.74702578e-09 -9.80750460e-02  3.00000000e-01 
 4.83238488e-04  4.64591087e-09 -9.80670460e-02  3.00000000e-01 
 4.85238488e-04  4.74701750e-09 -9.80590460e-02  3.00000000e-01 
 4.87238488e-04  4.64591911e-09 -9.80510460e-02  3.00000000e-01 
 4.89238488e-04  4.74700921e-09 -9.80430460e-02  3.00000000e-01 
 4.91238488e-04  4.64592749e-09 -9.80350460e-02  3.00000000e-01 
 4.93238488e-04  4.74700084e-09 -9.80270460e-02  3.00000000e-01 
 4.95238488e-04  4.64593598e-09 -9.80190460e-02  3.00000000e-01 
 4.97238488e-04  4.74699235e-09 -9.80110460e-02  3.00000000e-01 
 4.99238488e-04  4.64594451e-09 -9.80030460e-02  3.00000000e-01 
 5.00100100e-04  4.74697808e-09 -9.79995996e-02  3.00000000e-01 
 5.00100110e-04 -3.87733586e-06 -9.79995996e-02  3.00000000e-01 
 5.00100130e-04 -5.58914841e-07 -9.79995995e-02  3.00000000e-01 
 5.00100170e-04 -3.38149902e-06 -9.79995993e-02  3.00000000e-01 
 5.00100200e-04  8.87960621e-06 -9.79995992e-02  3.00000000e-01 
 5.00100208e-04  2.31238884e-05 -9.79995992e-02  3.00000000e-01 
 5.00100224e-04  3.33750914e-06 -9.79995991e-02  3.00000000e-01 
 5.00100256e-04 -2.05367537e-05 -9.79995990e-02  3.00000000e-01 
 5.00100320e-04  1.80449456e-05 -9.79995987e-02  3.00000000e-01 
 5.00100438e-04 -1.70370793e-05 -9.79995982e-02  3.00000000e-01 
 5.00100673e-04  1.66326640e-05 -9.79995973e-02  3.00000000e-01 
 5.00101144e-04 -1.64198110e-05 -9.79995954e-02  3.00000000e-01 
 5.00102087e-04  1.63277338e-05 -9.79995917e-02  3.00000000e-01 
 5.00103971e-04 -1.62670603e-05 -9.79995841e-02  3.00000000e-01 
 5.00107740e-04  1.62511439e-05 -9.79995690e-02  3.00000000e-01 
 5.00115278e-04 -1.62287209e-05 -9.79995389e-02  3.00000000e-01 
 5.00130353e-04  1.62319564e-05 -9.79994786e-02  3.00000000e-01 
 5.00160504e-04 -1.62191243e-05 -9.79993580e-02  3.00000000e-01 
 5.00220806e-04  1.62284952e-05 -9.79991168e-02  3.00000000e-01 
 5.00341411e-04 -1.62167174e-05 -9.79986344e-02  3.00000000e-01 
 5.00582619e-04  1.62270537e-05 -9.79976695e-02  3.00000000e-01 
 5.01065036e-04 -1.62161157e-05 -9.79957399e-02  3.00000000e-01 
 5.02029870e-04  1.62266949e-05 -9.79918805e-02  3.00000000e-01 
