 time            v(Q)            v(A)-v(B)       v(B)           
 0.00000000e+00  4.69646626e-09  6.00000000e-01  0.00000000e+00 
 1.00000000e-09  4.69646685e-09  6.00000004e-01  0.00000000e+00 
 2.00000000e-09  4.69646683e-09  6.00000008e-01  0.00000000e+00 
 4.00000000e-09  4.69646683e-09  6.00000016e-01  0.00000000e+00 
 8.00000000e-09  4.69646690e-09  6.00000032e-01  0.00000000e+00 
 1.60000000e-08  4.69646687e-09  6.00000064e-01  0.00000000e+00 
 3.20000000e-08  4.69646686e-09  6.00000128e-01  0.00000000e+00 
 6.40000000e-08  4.69646689e-09  6.00000256e-01  0.00000000e+00 
 1.00000000e-07  4.69646682e-09  6.00000400e-01  0.00000000e+00 
 1.00010000e-07  1.68282537e-05  6.00000400e-01  0.00000000e+00 
 1.00030000e-07 -3.83823106e-06  6.00000400e-01  0.00000000e+00 
 1.00070000e-07 -1.39859335e-05  6.00000400e-01  0.00000000e+00 
 1.00100000e-07  9.73493213e-07  6.00000400e-01  0.00000000e+00 
 1.00108000e-07  3.58935678e-06  6.00000400e-01  0.00000000e+00 
 1.00124000e-07  6.97802947e-06  6.00000400e-01  0.00000000e+00 
 1.00156000e-07  6.09531931e-08  6.00000401e-01  0.00000000e+00 
 1.00220000e-07  5.48040660e-07  6.00000401e-01  0.00000000e+00 
 1.00348000e-07 -1.43100825e-07  6.00000401e-01  0.00000000e+00 
 1.00604000e-07 -4.42130038e-08  6.00000402e-01  0.00000000e+00 
 1.01116000e-07  1.26702370e-07  6.00000404e-01  0.00000000e+00 
 1.02140000e-07 -1.54378851e-07  6.00000409e-01  0.00000000e+00 
 1.04188000e-07  1.81696188e-07  6.00000417e-01  0.00000000e+00 
 1.08284000e-07 -1.81184942e-07  6.00000433e-01  0.00000000e+00 
 1.16476000e-07  1.94993281e-07  6.00000466e-01  0.00000000e+00 
 1.32860000e-07 -1.87803576e-07  6.00000531e-01  0.00000000e+00 
 1.65628000e-07  1.98295955e-07  6.00000663e-01  0.00000000e+00 
 2.31164000e-07 -1.89453135e-07  6.00000925e-01  0.00000000e+00 
 3.62236000e-07  1.99120316e-07  6.00001449e-01  0.00000000e+00 
 6.24380000e-07 -1.89865207e-07  6.00002498e-01  0.00000000e+00 
 1.14866800e-06  1.99326325e-07  6.00004595e-01  0.00000000e+00 
 2.19724400e-06 -1.89968205e-07  6.00008789e-01  0.00000000e+00 
 4.19724400e-06  1.99378656e-07  6.00016789e-01  0.00000000e+00 
 6.19724400e-06 -1.90000537e-07  6.00024789e-01  0.00000000e+00 
 8.19724400e-06  1.99414656e-07  6.00032789e-01  0.00000000e+00 
 1.01972440e-05 -1.90036534e-07  6.00040789e-01  0.00000000e+00 
 1.21972440e-05  1.99450655e-07  6.00048789e-01  0.00000000e+00 
 1.41972440e-05 -1.90072531e-07  6.00056789e-01  0.00000000e+00 
 1.61972440e-05  1.99486652e-07  6.00064789e-01  0.00000000e+00 
 1.81972440e-05 -1.90108527e-07  6.00072789e-01  0.00000000e+00 
 2.01972440e-05  1.99522649e-07  6.00080789e-01  0.00000000e+00 
 2.21972440e-05 -1.90144522e-07  6.00088789e-01  0.00000000e+00 
 2.41972440e-05  1.99558644e-07  6.00096789e-01  0.00000000e+00 
 2.61972440e-05 -1.90180516e-07  6.00104789e-01  0.00000000e+00 
 2.81972440e-05  1.99594638e-07  6.00112789e-01  0.00000000e+00 
 3.01972440e-05 -1.90216510e-07  6.00120789e-01  0.00000000e+00 
 3.21972440e-05  1.99630631e-07  6.00128789e-01  0.00000000e+00 
 3.41972440e-05 -1.90252502e-07  6.00136789e-01  0.00000000e+00 
 3.61972440e-05  1.99666624e-07  6.00144789e-01  0.00000000e+00 
 3.81972440e-05 -1.90288494e-07  6.00152789e-01  0.00000000e+00 
 4.01972440e-05  1.99702615e-07  6.00160789e-01  0.00000000e+00 
 4.21972440e-05 -1.90324484e-07  6.00168789e-01  0.00000000e+00 
 4.41972440e-05  1.99738605e-07  6.00176789e-01  0.00000000e+00 
 4.61972440e-05 -1.90360474e-07  6.00184789e-01  0.00000000e+00 
 4.81972440e-05  1.99774595e-07  6.00192789e-01  0.00000000e+00 
 5.01972440e-05 -1.90396462e-07  6.00200789e-01  0.00000000e+00 
 5.21972440e-05  1.99810583e-07  6.00208789e-01  0.00000000e+00 
 5.41972440e-05 -1.90432450e-07  6.00216789e-01  0.00000000e+00 
 5.61972440e-05  1.99846570e-07  6.00224789e-01  0.00000000e+00 
 5.81972440e-05 -1.90468436e-07  6.00232789e-01  0.00000000e+00 
 6.01972440e-05  1.99882557e-07  6.00240789e-01  0.00000000e+00 
 6.21972440e-05 -1.90504422e-07  6.00248789e-01  0.00000000e+00 
 6.41972440e-05  1.99918542e-07  6.00256789e-01  0.00000000e+00 
 6.61972440e-05 -1.90540406e-07  6.00264789e-01  0.00000000e+00 
 6.81972440e-05  1.99954527e-07  6.00272789e-01  0.00000000e+00 
 7.01972440e-05 -1.90576390e-07  6.00280789e-01  0.00000000e+00 
 7.21972440e-05  1.99990510e-07  6.00288789e-01  0.00000000e+00 
 7.41972440e-05 -1.90612373e-07  6.00296789e-01  0.00000000e+00 
 7.61972440e-05  2.00026493e-07  6.00304789e-01  0.00000000e+00 
 7.81972440e-05 -1.90648354e-07  6.00312789e-01  0.00000000e+00 
 8.01972440e-05  2.00062474e-07  6.00320789e-01  0.00000000e+00 
 8.21972440e-05 -1.90684335e-07  6.00328789e-01  0.00000000e+00 
 8.41972440e-05  2.00098455e-07  6.00336789e-01  0.00000000e+00 
 8.61972440e-05 -1.90720315e-07  6.00344789e-01  0.00000000e+00 
 8.81972440e-05  2.00134434e-07  6.00352789e-01  0.00000000e+00 
 9.01972440e-05 -1.90756293e-07  6.00360789e-01  0.00000000e+00 
 9.21972440e-05  2.00170413e-07  6.00368789e-01  0.00000000e+00 
 9.41972440e-05 -1.90792271e-07  6.00376789e-01  0.00000000e+00 
 9.61972440e-05  2.00206391e-07  6.00384789e-01  0.00000000e+00 
 9.81972440e-05 -1.90828248e-07  6.00392789e-01  0.00000000e+00 
 1.00197244e-04  2.00242367e-07  6.00400789e-01  0.00000000e+00 
 1.02197244e-04 -1.90864224e-07  6.00408789e-01  0.00000000e+00 
 1.04197244e-04  2.00278343e-07  6.00416789e-01  0.00000000e+00 
 1.06197244e-04 -1.90900199e-07  6.00424789e-01  0.00000000e+00 
 1.08197244e-04  2.00314318e-07  6.00432789e-01  0.00000000e+00 
 1.10197244e-04 -1.90936173e-07  6.00440789e-01  0.00000000e+00 
 1.12197244e-04  2.00350292e-07  6.00448789e-01  0.00000000e+00 
 1.14197244e-04 -1.90972146e-07  6.00456789e-01  0.00000000e+00 
 1.16197244e-04  2.00386264e-07  6.00464789e-01  0.00000000e+00 
 1.18197244e-04 -1.91008118e-07  6.00472789e-01  0.00000000e+00 
 1.20197244e-04  2.00422236e-07  6.00480789e-01  0.00000000e+00 
 1.22197244e-04 -1.91044088e-07  6.00488789e-01  0.00000000e+00 
 1.24197244e-04  2.00458207e-07  6.00496789e-01  0.00000000e+00 
 1.26197244e-04 -1.91080058e-07  6.00504789e-01  0.00000000e+00 
 1.28197244e-04  2.00494177e-07  6.00512789e-01  0.00000000e+00 
 1.30197244e-04 -1.91116027e-07  6.00520789e-01  0.00000000e+00 
 1.32197244e-04  2.00530146e-07  6.00528789e-01  0.00000000e+00 
 1.34197244e-04 -1.91151996e-07  6.00536789e-01  0.00000000e+00 
 1.36197244e-04  2.00566114e-07  6.00544789e-01  0.00000000e+00 
 1.38197244e-04 -1.91187963e-07  6.00552789e-01  0.00000000e+00 
 1.40197244e-04  2.00602081e-07  6.00560789e-01  0.00000000e+00 
 1.42197244e-04 -1.91223929e-07  6.00568789e-01  0.00000000e+00 
 1.44197244e-04  2.00638047e-07  6.00576789e-01  0.00000000e+00 
 1.46197244e-04 -1.91259894e-07  6.00584789e-01  0.00000000e+00 
 1.48197244e-04  2.00674012e-07  6.00592789e-01  0.00000000e+00 
 1.50197244e-04 -1.91295858e-07  6.00600789e-01  0.00000000e+00 
 1.52197244e-04  2.00709976e-07  6.00608789e-01  0.00000000e+00 
 1.54197244e-04 -1.91331821e-07  6.00616789e-01  0.00000000e+00 
 1.56197244e-04  2.00745939e-07  6.00624789e-01  0.00000000e+00 
 1.58197244e-04 -1.91367783e-07  6.00632789e-01  0.00000000e+00 
 1.60197244e-04  2.00781901e-07  6.00640789e-01  0.00000000e+00 
 1.62197244e-04 -1.91403745e-07  6.00648789e-01  0.00000000e+00 
 1.64197244e-04  2.00817862e-07  6.00656789e-01  0.00000000e+00 
 1.66197244e-04 -1.91439705e-07  6.00664789e-01  0.00000000e+00 
 1.68197244e-04  2.00853822e-07  6.00672789e-01  0.00000000e+00 
 1.70197244e-04 -1.91475664e-07  6.00680789e-01  0.00000000e+00 
 1.72197244e-04  2.00889781e-07  6.00688789e-01  0.00000000e+00 
 1.74197244e-04 -1.91511623e-07  6.00696789e-01  0.00000000e+00 
 1.76197244e-04  2.00925739e-07  6.00704789e-01  0.00000000e+00 
 1.78197244e-04 -1.91547580e-07  6.00712789e-01  0.00000000e+00 
 1.80197244e-04  2.00961697e-07  6.00720789e-01  0.00000000e+00 
 1.82197244e-04 -1.91583536e-07  6.00728789e-01  0.00000000e+00 
 1.84197244e-04  2.00997653e-07  6.00736789e-01  0.00000000e+00 
 1.86197244e-04 -1.91619492e-07  6.00744789e-01  0.00000000e+00 
 1.88197244e-04  2.01033608e-07  6.00752789e-01  0.00000000e+00 
 1.90197244e-04 -1.91655446e-07  6.00760789e-01  0.00000000e+00 
 1.92197244e-04  2.01069562e-07  6.00768789e-01  0.00000000e+00 
 1.94197244e-04 -1.91691400e-07  6.00776789e-01  0.00000000e+00 
 1.96197244e-04  2.01105516e-07  6.00784789e-01  0.00000000e+00 
 1.98197244e-04 -1.91727352e-07  6.00792789e-01  0.00000000e+00 
 2.00000000e-04  2.01143435e-07  6.00800000e-01  0.00000000e+00 
 2.00156967e-04  2.60378913e-06 -9.91993721e-02  7.00000000e-01 
 2.00470901e-04 -2.60082694e-06 -9.91981164e-02  7.00000000e-01 
 2.00738600e-04  2.60253949e-06 -9.91970456e-02  7.00000000e-01 
 2.01050125e-04 -2.59957691e-06 -9.91957995e-02  7.00000000e-01 
 2.01673175e-04  2.60167330e-06 -9.91933073e-02  7.00000000e-01 
 2.02919274e-04 -2.59914482e-06 -9.91883229e-02  7.00000000e-01 
 2.04919274e-04  2.60143942e-06 -9.91803229e-02  7.00000000e-01 
 2.06919274e-04 -2.59896552e-06 -9.91723229e-02  7.00000000e-01 
 2.08919274e-04  2.60125998e-06 -9.91643229e-02  7.00000000e-01 
 2.10919274e-04 -2.59878633e-06 -9.91563229e-02  7.00000000e-01 
 2.12919274e-04  2.60108065e-06 -9.91483229e-02  7.00000000e-01 
 2.14919274e-04 -2.59860725e-06 -9.91403229e-02  7.00000000e-01 
 2.16919274e-04  2.60090142e-06 -9.91323229e-02  7.00000000e-01 
 2.18919274e-04 -2.59842827e-06 -9.91243229e-02  7.00000000e-01 
 2.20919274e-04  2.60072230e-06 -9.91163229e-02  7.00000000e-01 
 2.22919274e-04 -2.59824939e-06 -9.91083229e-02  7.00000000e-01 
 2.24919274e-04  2.60054328e-06 -9.91003229e-02  7.00000000e-01 
 2.26919274e-04 -2.59807062e-06 -9.90923229e-02  7.00000000e-01 
 2.28919274e-04  2.60036437e-06 -9.90843229e-02  7.00000000e-01 
 2.30919274e-04 -2.59789196e-06 -9.90763229e-02  7.00000000e-01 
 2.32919274e-04  2.60018556e-06 -9.90683229e-02  7.00000000e-01 
 2.34919274e-04 -2.59771340e-06 -9.90603229e-02  7.00000000e-01 
 2.36919274e-04  2.60000686e-06 -9.90523229e-02  7.00000000e-01 
 2.38919274e-04 -2.59753494e-06 -9.90443229e-02  7.00000000e-01 
 2.40919274e-04  2.59982826e-06 -9.90363229e-02  7.00000000e-01 
 2.42919274e-04 -2.59735659e-06 -9.90283229e-02  7.00000000e-01 
 2.44919274e-04  2.59964977e-06 -9.90203229e-02  7.00000000e-01 
 2.46919274e-04 -2.59717834e-06 -9.90123229e-02  7.00000000e-01 
 2.48919274e-04  2.59947138e-06 -9.90043229e-02  7.00000000e-01 
 2.50919274e-04 -2.59700020e-06 -9.89963229e-02  7.00000000e-01 
 2.52919274e-04  2.59929309e-06 -9.89883229e-02  7.00000000e-01 
 2.54919274e-04 -2.59682216e-06 -9.89803229e-02  7.00000000e-01 
 2.56919274e-04  2.59911491e-06 -9.89723229e-02  7.00000000e-01 
 2.58919274e-04 -2.59664422e-06 -9.89643229e-02  7.00000000e-01 
 2.60919274e-04  2.59893683e-06 -9.89563229e-02  7.00000000e-01 
 2.62919274e-04 -2.59646639e-06 -9.89483229e-02  7.00000000e-01 
 2.64919274e-04  2.59875886e-06 -9.89403229e-02  7.00000000e-01 
 2.66919274e-04 -2.59628866e-06 -9.89323229e-02  7.00000000e-01 
 2.68919274e-04  2.59858098e-06 -9.89243229e-02  7.00000000e-01 
 2.70919274e-04 -2.59611103e-06 -9.89163229e-02  7.00000000e-01 
 2.72919274e-04  2.59840322e-06 -9.89083229e-02  7.00000000e-01 
 2.74919274e-04 -2.59593351e-06 -9.89003229e-02  7.00000000e-01 
 2.76919274e-04  2.59822555e-06 -9.88923229e-02  7.00000000e-01 
 2.78919274e-04 -2.59575608e-06 -9.88843229e-02  7.00000000e-01 
 2.80919274e-04  2.59804799e-06 -9.88763229e-02  7.00000000e-01 
 2.82919274e-04 -2.59557876e-06 -9.88683229e-02  7.00000000e-01 
 2.84919274e-04  2.59787053e-06 -9.88603229e-02  7.00000000e-01 
 2.86919274e-04 -2.59540154e-06 -9.88523229e-02  7.00000000e-01 
 2.88919274e-04  2.59769317e-06 -9.88443229e-02  7.00000000e-01 
 2.90919274e-04 -2.59522443e-06 -9.88363229e-02  7.00000000e-01 
 2.92919274e-04  2.59751591e-06 -9.88283229e-02  7.00000000e-01 
 2.94919274e-04 -2.59504741e-06 -9.88203229e-02  7.00000000e-01 
 2.96919274e-04  2.59733875e-06 -9.88123229e-02  7.00000000e-01 
 2.98919274e-04 -2.59487049e-06 -9.88043229e-02  7.00000000e-01 
 3.00919274e-04  2.59716170e-06 -9.87963229e-02  7.00000000e-01 
 3.02919274e-04 -2.59469368e-06 -9.87883229e-02  7.00000000e-01 
 3.04919274e-04  2.59698475e-06 -9.87803229e-02  7.00000000e-01 
 3.06919274e-04 -2.59451697e-06 -9.87723229e-02  7.00000000e-01 
 3.08919274e-04  2.59680790e-06 -9.87643229e-02  7.00000000e-01 
 3.10919274e-04 -2.59434036e-06 -9.87563229e-02  7.00000000e-01 
 3.12919274e-04  2.59663114e-06 -9.87483229e-02  7.00000000e-01 
 3.14919274e-04 -2.59416385e-06 -9.87403229e-02  7.00000000e-01 
 3.16919274e-04  2.59645449e-06 -9.87323229e-02  7.00000000e-01 
 3.18919274e-04 -2.59398743e-06 -9.87243229e-02  7.00000000e-01 
 3.20919274e-04  2.59627794e-06 -9.87163229e-02  7.00000000e-01 
 3.22919274e-04 -2.59381112e-06 -9.87083229e-02  7.00000000e-01 
 3.24919274e-04  2.59610150e-06 -9.87003229e-02  7.00000000e-01 
 3.26919274e-04 -2.59363491e-06 -9.86923229e-02  7.00000000e-01 
 3.28919274e-04  2.59592515e-06 -9.86843229e-02  7.00000000e-01 
 3.30919274e-04 -2.59345880e-06 -9.86763229e-02  7.00000000e-01 
 3.32919274e-04  2.59574890e-06 -9.86683229e-02  7.00000000e-01 
 3.34919274e-04 -2.59328279e-06 -9.86603229e-02  7.00000000e-01 
 3.36919274e-04  2.59557275e-06 -9.86523229e-02  7.00000000e-01 
 3.38919274e-04 -2.59310688e-06 -9.86443229e-02  7.00000000e-01 
 3.40919274e-04  2.59539669e-06 -9.86363229e-02  7.00000000e-01 
 3.42919274e-04 -2.59293106e-06 -9.86283229e-02  7.00000000e-01 
 3.44919274e-04  2.59522074e-06 -9.86203229e-02  7.00000000e-01 
 3.46919274e-04 -2.59275535e-06 -9.86123229e-02  7.00000000e-01 
 3.48919274e-04  2.59504489e-06 -9.86043229e-02  7.00000000e-01 
 3.50919274e-04 -2.59257973e-06 -9.85963229e-02  7.00000000e-01 
 3.52919274e-04  2.59486914e-06 -9.85883229e-02  7.00000000e-01 
 3.54919274e-04 -2.59240421e-06 -9.85803229e-02  7.00000000e-01 
 3.56919274e-04  2.59469348e-06 -9.85723229e-02  7.00000000e-01 
 3.58919274e-04 -2.59222879e-06 -9.85643229e-02  7.00000000e-01 
 3.60919274e-04  2.59451792e-06 -9.85563229e-02  7.00000000e-01 
 3.62919274e-04 -2.59205347e-06 -9.85483229e-02  7.00000000e-01 
 3.64919274e-04  2.59434246e-06 -9.85403229e-02  7.00000000e-01 
 3.66919274e-04 -2.59187825e-06 -9.85323229e-02  7.00000000e-01 
 3.68919274e-04  2.59416710e-06 -9.85243229e-02  7.00000000e-01 
 3.70919274e-04 -2.59170312e-06 -9.85163229e-02  7.00000000e-01 
 3.72919274e-04  2.59399184e-06 -9.85083229e-02  7.00000000e-01 
 3.74919274e-04 -2.59152809e-06 -9.85003229e-02  7.00000000e-01 
 3.76919274e-04  2.59381667e-06 -9.84923229e-02  7.00000000e-01 
 3.78919274e-04 -2.59135316e-06 -9.84843229e-02  7.00000000e-01 
 3.80919274e-04  2.59364160e-06 -9.84763229e-02  7.00000000e-01 
 3.82919274e-04 -2.59117832e-06 -9.84683229e-02  7.00000000e-01 
 3.84919274e-04  2.59346663e-06 -9.84603229e-02  7.00000000e-01 
 3.86919274e-04 -2.59100359e-06 -9.84523229e-02  7.00000000e-01 
 3.88919274e-04  2.59329176e-06 -9.84443229e-02  7.00000000e-01 
 3.90919274e-04 -2.59082894e-06 -9.84363229e-02  7.00000000e-01 
 3.92919274e-04  2.59311698e-06 -9.84283229e-02  7.00000000e-01 
 3.94919274e-04 -2.59065440e-06 -9.84203229e-02  7.00000000e-01 
 3.96919274e-04  2.59294230e-06 -9.84123229e-02  7.00000000e-01 
 3.98919274e-04 -2.59047995e-06 -9.84043229e-02  7.00000000e-01 
 4.00919274e-04  2.59276771e-06 -9.83963229e-02  7.00000000e-01 
 4.02919274e-04 -2.59030560e-06 -9.83883229e-02  7.00000000e-01 
 4.04919274e-04  2.59259322e-06 -9.83803229e-02  7.00000000e-01 
 4.06919274e-04 -2.59013134e-06 -9.83723229e-02  7.00000000e-01 
 4.08919274e-04  2.59241883e-06 -9.83643229e-02  7.00000000e-01 
 4.10919274e-04 -2.58995717e-06 -9.83563229e-02  7.00000000e-01 
 4.12919274e-04  2.59224453e-06 -9.83483229e-02  7.00000000e-01 
 4.14919274e-04 -2.58978311e-06 -9.83403229e-02  7.00000000e-01 
 4.16919274e-04  2.59207033e-06 -9.83323229e-02  7.00000000e-01 
 4.18919274e-04 -2.58960914e-06 -9.83243229e-02  7.00000000e-01 
 4.20919274e-04  2.59189622e-06 -9.83163229e-02  7.00000000e-01 
 4.22919274e-04 -2.58943526e-06 -9.83083229e-02  7.00000000e-01 
 4.24919274e-04  2.59172220e-06 -9.83003229e-02  7.00000000e-01 
 4.26919274e-04 -2.58926147e-06 -9.82923229e-02  7.00000000e-01 
 4.28919274e-04  2.59154829e-06 -9.82843229e-02  7.00000000e-01 
 4.30919274e-04 -2.58908779e-06 -9.82763229e-02  7.00000000e-01 
 4.32919274e-04  2.59137446e-06 -9.82683229e-02  7.00000000e-01 
 4.34919274e-04 -2.58891419e-06 -9.82603229e-02  7.00000000e-01 
 4.36919274e-04  2.59120073e-06 -9.82523229e-02  7.00000000e-01 
 4.38919274e-04 -2.58874069e-06 -9.82443229e-02  7.00000000e-01 
 4.40919274e-04  2.59102710e-06 -9.82363229e-02  7.00000000e-01 
 4.42919274e-04 -2.58856728e-06 -9.82283229e-02  7.00000000e-01 
 4.44919274e-04  2.59085355e-06 -9.82203229e-02  7.00000000e-01 
 4.46919274e-04 -2.58839397e-06 -9.82123229e-02  7.00000000e-01 
 4.48919274e-04  2.59068011e-06 -9.82043229e-02  7.00000000e-01 
 4.50919274e-04 -2.58822075e-06 -9.81963229e-02  7.00000000e-01 
 4.52919274e-04  2.59050675e-06 -9.81883229e-02  7.00000000e-01 
 4.54919274e-04 -2.58804762e-06 -9.81803229e-02  7.00000000e-01 
 4.56919274e-04  2.59033349e-06 -9.81723229e-02  7.00000000e-01 
 4.58919274e-04 -2.58787459e-06 -9.81643229e-02  7.00000000e-01 
 4.60919274e-04  2.59016032e-06 -9.81563229e-02  7.00000000e-01 
 4.62919274e-04 -2.58770165e-06 -9.81483229e-02  7.00000000e-01 
 4.64919274e-04  2.58998724e-06 -9.81403229e-02  7.00000000e-01 
 4.66919274e-04 -2.58752880e-06 -9.81323229e-02  7.00000000e-01 
 4.68919274e-04  2.58981426e-06 -9.81243229e-02  7.00000000e-01 
 4.70919274e-04 -2.58735604e-06 -9.81163229e-02  7.00000000e-01 
 4.72919274e-04  2.58964137e-06 -9.81083229e-02  7.00000000e-01 
 4.74919274e-04 -2.58718338e-06 -9.81003229e-02  7.00000000e-01 
 4.76919274e-04  2.58946857e-06 -9.80923229e-02  7.00000000e-01 
 4.78919274e-04 -2.58701080e-06 -9.80843229e-02  7.00000000e-01 
 4.80919274e-04  2.58929586e-06 -9.80763229e-02  7.00000000e-01 
 4.82919274e-04 -2.58683832e-06 -9.80683229e-02  7.00000000e-01 
 4.84919274e-04  2.58912325e-06 -9.80603229e-02  7.00000000e-01 
 4.86919274e-04 -2.58666593e-06 -9.80523229e-02  7.00000000e-01 
 4.88919274e-04  2.58895072e-06 -9.80443229e-02  7.00000000e-01 
 4.90919274e-04 -2.58649363e-06 -9.80363229e-02  7.00000000e-01 
 4.92919274e-04  2.58877829e-06 -9.80283229e-02  7.00000000e-01 
 4.94919274e-04 -2.58632142e-06 -9.80203229e-02  7.00000000e-01 
 4.96919274e-04  2.58860595e-06 -9.80123229e-02  7.00000000e-01 
 4.98919274e-04 -2.58614930e-06 -9.80043229e-02  7.00000000e-01 
 5.00100100e-04  2.58837396e-06 -9.79995996e-02  7.00000000e-01 
 5.00100110e-04 -7.07656429e-05 -9.79995996e-02  7.00000000e-01 
 5.00100130e-04 -3.88899257e-05 -9.79995995e-02  7.00000000e-01 
 5.00100170e-04  5.08896878e-05 -9.79995993e-02  7.00000000e-01 
 5.00100200e-04  1.16923149e-04 -9.79995992e-02  7.00000000e-01 
 5.00100208e-04  2.77619335e-04 -9.79995992e-02  7.00000000e-01 
 5.00100224e-04  2.70126625e-04 -9.79995991e-02  7.00000000e-01 
 5.00100256e-04  4.56231209e-05 -9.79995990e-02  7.00000000e-01 
 5.00100320e-04 -4.07335838e-04 -9.79995987e-02  7.00000000e-01 
 5.00100438e-04 -1.26474203e-02 -9.79995982e-02  7.00000000e-01 
 5.00100575e-04  1.17345115e-02 -9.79995977e-02  7.00000000e-01 
 5.00100720e-04 -9.68598002e-03 -9.79995971e-02  7.00000000e-01 
 5.00100976e-04  9.25198543e-03 -9.79995961e-02  7.00000000e-01 
 5.00101405e-04 -8.65697367e-03 -9.79995944e-02  7.00000000e-01 
 5.00102204e-04  8.54758822e-03 -9.79995912e-02  7.00000000e-01 
 5.00103657e-04 -8.36840189e-03 -9.79995854e-02  7.00000000e-01 
 5.00106562e-04  8.35304744e-03 -9.79995738e-02  7.00000000e-01 
 5.00112371e-04 -8.29540498e-03 -9.79995505e-02  7.00000000e-01 
 5.00123991e-04  8.30538211e-03 -9.79995040e-02  7.00000000e-01 
 5.00147229e-04 -8.27726390e-03 -9.79994111e-02  7.00000000e-01 
 5.00193707e-04  8.29394116e-03 -9.79992252e-02  7.00000000e-01 
 5.00286662e-04 -8.27266533e-03 -9.79988534e-02  7.00000000e-01 
