 time            v(Q)            v(A)-v(B)       v(B)           
 0.00000000e+00  4.69646248e-09  8.00000000e-01  0.00000000e+00 
 1.00000000e-09  4.69662651e-09  8.00000004e-01  0.00000000e+00 
 2.00000000e-09  4.69662745e-09  8.00000008e-01  0.00000000e+00 
 4.00000000e-09  4.69662738e-09  8.00000016e-01  0.00000000e+00 
 8.00000000e-09  4.69662726e-09  8.00000032e-01  0.00000000e+00 
 1.60000000e-08  4.69662706e-09  8.00000064e-01  0.00000000e+00 
 3.20000000e-08  4.69662658e-09  8.00000128e-01  0.00000000e+00 
 6.40000000e-08  4.69662568e-09  8.00000256e-01  0.00000000e+00 
 1.00000000e-07  4.69662466e-09  8.00000400e-01  0.00000000e+00 
 1.00010000e-07  1.74876786e-05  8.00000400e-01  0.00000000e+00 
 1.00030000e-07 -3.50093813e-06  8.00000400e-01  0.00000000e+00 
 1.00070000e-07 -1.66988263e-05  8.00000400e-01  0.00000000e+00 
 1.00100000e-07 -1.05414098e-05  8.00000400e-01  0.00000000e+00 
 1.00108000e-07  3.53754308e-06  8.00000400e-01  0.00000000e+00 
 1.00124000e-07  1.77744275e-05  8.00000400e-01  0.00000000e+00 
 1.00156000e-07 -4.97479403e-06  8.00000401e-01  0.00000000e+00 
 1.00220000e-07  5.19767817e-06  8.00000401e-01  0.00000000e+00 
 1.00348000e-07 -7.03597750e-06  8.00000401e-01  0.00000000e+00 
 1.00604000e-07  6.23585510e-04  8.00000402e-01  0.00000000e+00 
 1.00997136e-07  1.26434273e+00  8.00000404e-01  0.00000000e+00 
 1.01370282e-07  1.73921808e+00  8.00000405e-01  0.00000000e+00 
 1.01812318e-07  1.47352820e+00  8.00000407e-01  0.00000000e+00 
 1.02554849e-07  1.68699873e+00  8.00000410e-01  0.00000000e+00 
 1.03304118e-07  1.51642123e+00  8.00000413e-01  0.00000000e+00 
 1.04684542e-07  1.66632492e+00  8.00000419e-01  0.00000000e+00 
 1.06503694e-07  1.53093727e+00  8.00000426e-01  0.00000000e+00 
 1.09334094e-07  1.65882655e+00  8.00000437e-01  0.00000000e+00 
 1.13832960e-07  1.53657085e+00  8.00000455e-01  0.00000000e+00 
 1.20525261e-07  1.65598671e+00  8.00000482e-01  0.00000000e+00 
 1.31378768e-07  1.53878163e+00  8.00000526e-01  0.00000000e+00 
 1.48109256e-07  1.65486637e+00  8.00000592e-01  0.00000000e+00 
 1.75827136e-07  1.53963495e+00  8.00000703e-01  0.00000000e+00 
 2.31262895e-07  1.65447328e+00  8.00000925e-01  0.00000000e+00 
 3.42134414e-07  1.53987705e+00  8.00001369e-01  0.00000000e+00 
 5.63877452e-07  1.65437563e+00  8.00002256e-01  0.00000000e+00 
 1.00736353e-06  1.53993632e+00  8.00004029e-01  0.00000000e+00 
 1.89433568e-06  1.65435127e+00  8.00007577e-01  0.00000000e+00 
 3.66827998e-06  1.53995111e+00  8.00014673e-01  0.00000000e+00 
 5.66827998e-06  1.65434362e+00  8.00022673e-01  0.00000000e+00 
 7.66827998e-06  1.53995269e+00  8.00030673e-01  0.00000000e+00 
 9.66827998e-06  1.65434127e+00  8.00038673e-01  0.00000000e+00 
 1.16682800e-05  1.53996141e+00  8.00046673e-01  0.00000000e+00 
 1.36682800e-05  1.65433408e+00  8.00054673e-01  0.00000000e+00 
 1.56682800e-05  1.53997012e+00  8.00062673e-01  0.00000000e+00 
 1.76682800e-05  1.65432689e+00  8.00070673e-01  0.00000000e+00 
 1.96682800e-05  1.53997884e+00  8.00078673e-01  0.00000000e+00 
 2.16682800e-05  1.65431970e+00  8.00086673e-01  0.00000000e+00 
 2.36682800e-05  1.53998755e+00  8.00094673e-01  0.00000000e+00 
 2.56682800e-05  1.65431251e+00  8.00102673e-01  0.00000000e+00 
 2.76682800e-05  1.53999626e+00  8.00110673e-01  0.00000000e+00 
 2.96682800e-05  1.65430532e+00  8.00118673e-01  0.00000000e+00 
 3.16682800e-05  1.54000496e+00  8.00126673e-01  0.00000000e+00 
 3.36682800e-05  1.65429814e+00  8.00134673e-01  0.00000000e+00 
 3.56682800e-05  1.54001367e+00  8.00142673e-01  0.00000000e+00 
 3.76682800e-05  1.65429095e+00  8.00150673e-01  0.00000000e+00 
 3.96682800e-05  1.54002237e+00  8.00158673e-01  0.00000000e+00 
 4.16682800e-05  1.65428377e+00  8.00166673e-01  0.00000000e+00 
 4.36682800e-05  1.54003107e+00  8.00174673e-01  0.00000000e+00 
 4.56682800e-05  1.65427659e+00  8.00182673e-01  0.00000000e+00 
 4.76682800e-05  1.54003977e+00  8.00190673e-01  0.00000000e+00 
 4.96682800e-05  1.65426941e+00  8.00198673e-01  0.00000000e+00 
 5.16682800e-05  1.54004846e+00  8.00206673e-01  0.00000000e+00 
 5.36682800e-05  1.65426223e+00  8.00214673e-01  0.00000000e+00 
 5.56682800e-05  1.54005716e+00  8.00222673e-01  0.00000000e+00 
 5.76682800e-05  1.65425505e+00  8.00230673e-01  0.00000000e+00 
 5.96682800e-05  1.54006585e+00  8.00238673e-01  0.00000000e+00 
 6.16682800e-05  1.65424787e+00  8.00246673e-01  0.00000000e+00 
 6.36682800e-05  1.54007455e+00  8.00254673e-01  0.00000000e+00 
 6.56682800e-05  1.65424070e+00  8.00262673e-01  0.00000000e+00 
 6.76682800e-05  1.54008324e+00  8.00270673e-01  0.00000000e+00 
 6.96682800e-05  1.65423352e+00  8.00278673e-01  0.00000000e+00 
 7.16682800e-05  1.54009193e+00  8.00286673e-01  0.00000000e+00 
 7.36682800e-05  1.65422635e+00  8.00294673e-01  0.00000000e+00 
 7.56682800e-05  1.54010062e+00  8.00302673e-01  0.00000000e+00 
 7.76682800e-05  1.65421917e+00  8.00310673e-01  0.00000000e+00 
 7.96682800e-05  1.54010930e+00  8.00318673e-01  0.00000000e+00 
 8.16682800e-05  1.65421200e+00  8.00326673e-01  0.00000000e+00 
 8.36682800e-05  1.54011799e+00  8.00334673e-01  0.00000000e+00 
 8.56682800e-05  1.65420483e+00  8.00342673e-01  0.00000000e+00 
 8.76682800e-05  1.54012667e+00  8.00350673e-01  0.00000000e+00 
 8.96682800e-05  1.65419766e+00  8.00358673e-01  0.00000000e+00 
 9.16682800e-05  1.54013535e+00  8.00366673e-01  0.00000000e+00 
 9.36682800e-05  1.65419049e+00  8.00374673e-01  0.00000000e+00 
 9.56682800e-05  1.54014403e+00  8.00382673e-01  0.00000000e+00 
 9.76682800e-05  1.65418332e+00  8.00390673e-01  0.00000000e+00 
 9.96682800e-05  1.54015271e+00  8.00398673e-01  0.00000000e+00 
 1.01668280e-04  1.65417616e+00  8.00406673e-01  0.00000000e+00 
 1.03668280e-04  1.54016139e+00  8.00414673e-01  0.00000000e+00 
 1.05668280e-04  1.65416899e+00  8.00422673e-01  0.00000000e+00 
 1.07668280e-04  1.54017007e+00  8.00430673e-01  0.00000000e+00 
 1.09668280e-04  1.65416183e+00  8.00438673e-01  0.00000000e+00 
 1.11668280e-04  1.54017874e+00  8.00446673e-01  0.00000000e+00 
 1.13668280e-04  1.65415466e+00  8.00454673e-01  0.00000000e+00 
 1.15668280e-04  1.54018742e+00  8.00462673e-01  0.00000000e+00 
 1.17668280e-04  1.65414750e+00  8.00470673e-01  0.00000000e+00 
 1.19668280e-04  1.54019609e+00  8.00478673e-01  0.00000000e+00 
 1.21668280e-04  1.65414033e+00  8.00486673e-01  0.00000000e+00 
 1.23668280e-04  1.54020477e+00  8.00494673e-01  0.00000000e+00 
 1.25668280e-04  1.65413317e+00  8.00502673e-01  0.00000000e+00 
 1.27668280e-04  1.54021344e+00  8.00510673e-01  0.00000000e+00 
 1.29668280e-04  1.65412601e+00  8.00518673e-01  0.00000000e+00 
 1.31668280e-04  1.54022211e+00  8.00526673e-01  0.00000000e+00 
 1.33668280e-04  1.65411885e+00  8.00534673e-01  0.00000000e+00 
 1.35668280e-04  1.54023078e+00  8.00542673e-01  0.00000000e+00 
 1.37668280e-04  1.65411169e+00  8.00550673e-01  0.00000000e+00 
 1.39668280e-04  1.54023945e+00  8.00558673e-01  0.00000000e+00 
 1.41668280e-04  1.65410453e+00  8.00566673e-01  0.00000000e+00 
 1.43668280e-04  1.54024812e+00  8.00574673e-01  0.00000000e+00 
 1.45668280e-04  1.65409737e+00  8.00582673e-01  0.00000000e+00 
 1.47668280e-04  1.54025678e+00  8.00590673e-01  0.00000000e+00 
 1.49668280e-04  1.65409021e+00  8.00598673e-01  0.00000000e+00 
 1.51668280e-04  1.54026545e+00  8.00606673e-01  0.00000000e+00 
 1.53668280e-04  1.65408305e+00  8.00614673e-01  0.00000000e+00 
 1.55668280e-04  1.54027411e+00  8.00622673e-01  0.00000000e+00 
 1.57668280e-04  1.65407589e+00  8.00630673e-01  0.00000000e+00 
 1.59668280e-04  1.54028278e+00  8.00638673e-01  0.00000000e+00 
 1.61668280e-04  1.65406874e+00  8.00646673e-01  0.00000000e+00 
 1.63668280e-04  1.54029144e+00  8.00654673e-01  0.00000000e+00 
 1.65668280e-04  1.65406158e+00  8.00662673e-01  0.00000000e+00 
 1.67668280e-04  1.54030010e+00  8.00670673e-01  0.00000000e+00 
 1.69668280e-04  1.65405442e+00  8.00678673e-01  0.00000000e+00 
 1.71668280e-04  1.54030876e+00  8.00686673e-01  0.00000000e+00 
 1.73668280e-04  1.65404727e+00  8.00694673e-01  0.00000000e+00 
 1.75668280e-04  1.54031742e+00  8.00702673e-01  0.00000000e+00 
 1.77668280e-04  1.65404012e+00  8.00710673e-01  0.00000000e+00 
 1.79668280e-04  1.54032608e+00  8.00718673e-01  0.00000000e+00 
 1.81668280e-04  1.65403296e+00  8.00726673e-01  0.00000000e+00 
 1.83668280e-04  1.54033473e+00  8.00734673e-01  0.00000000e+00 
 1.85668280e-04  1.65402581e+00  8.00742673e-01  0.00000000e+00 
 1.87668280e-04  1.54034339e+00  8.00750673e-01  0.00000000e+00 
 1.89668280e-04  1.65401866e+00  8.00758673e-01  0.00000000e+00 
 1.91668280e-04  1.54035204e+00  8.00766673e-01  0.00000000e+00 
 1.93668280e-04  1.65401151e+00  8.00774673e-01  0.00000000e+00 
 1.95668280e-04  1.54036070e+00  8.00782673e-01  0.00000000e+00 
 1.97668280e-04  1.65400436e+00  8.00790673e-01  0.00000000e+00 
 1.99668280e-04  1.54036935e+00  8.00798673e-01  0.00000000e+00 
 2.00000000e-04  1.65397469e+00  8.00800000e-01  0.00000000e+00 
 2.00045465e-04  1.60003769e+00 -9.91998181e-02  9.00000000e-01 
 2.00136394e-04  1.59996230e+00 -9.91994544e-02  9.00000000e-01 
 2.00230948e-04  1.60003758e+00 -9.91990762e-02  9.00000000e-01 
 2.00333737e-04  1.59996241e+00 -9.91986651e-02  9.00000000e-01 
 2.00539314e-04  1.60003751e+00 -9.91978427e-02  9.00000000e-01 
 2.00950468e-04  1.59996244e+00 -9.91961981e-02  9.00000000e-01 
 2.01772777e-04  1.60003749e+00 -9.91929089e-02  9.00000000e-01 
 2.03417395e-04  1.59996245e+00 -9.91863304e-02  9.00000000e-01 
 2.05417395e-04  1.60003748e+00 -9.91783304e-02  9.00000000e-01 
 2.07417395e-04  1.59996246e+00 -9.91703304e-02  9.00000000e-01 
 2.09417395e-04  1.60003748e+00 -9.91623304e-02  9.00000000e-01 
 2.11417395e-04  1.59996246e+00 -9.91543304e-02  9.00000000e-01 
 2.13417395e-04  1.60003747e+00 -9.91463304e-02  9.00000000e-01 
 2.15417395e-04  1.59996247e+00 -9.91383304e-02  9.00000000e-01 
 2.17417395e-04  1.60003747e+00 -9.91303304e-02  9.00000000e-01 
 2.19417395e-04  1.59996247e+00 -9.91223304e-02  9.00000000e-01 
 2.21417395e-04  1.60003746e+00 -9.91143304e-02  9.00000000e-01 
 2.23417395e-04  1.59996248e+00 -9.91063304e-02  9.00000000e-01 
 2.25417395e-04  1.60003746e+00 -9.90983304e-02  9.00000000e-01 
 2.27417395e-04  1.59996248e+00 -9.90903304e-02  9.00000000e-01 
 2.29417395e-04  1.60003745e+00 -9.90823304e-02  9.00000000e-01 
 2.31417395e-04  1.59996249e+00 -9.90743304e-02  9.00000000e-01 
 2.33417395e-04  1.60003745e+00 -9.90663304e-02  9.00000000e-01 
 2.35417395e-04  1.59996249e+00 -9.90583304e-02  9.00000000e-01 
 2.37417395e-04  1.60003744e+00 -9.90503304e-02  9.00000000e-01 
 2.39417395e-04  1.59996250e+00 -9.90423304e-02  9.00000000e-01 
 2.41417395e-04  1.60003744e+00 -9.90343304e-02  9.00000000e-01 
 2.43417395e-04  1.59996250e+00 -9.90263304e-02  9.00000000e-01 
 2.45417395e-04  1.60003743e+00 -9.90183304e-02  9.00000000e-01 
 2.47417395e-04  1.59996251e+00 -9.90103304e-02  9.00000000e-01 
 2.49417395e-04  1.60003743e+00 -9.90023304e-02  9.00000000e-01 
 2.51417395e-04  1.59996251e+00 -9.89943304e-02  9.00000000e-01 
 2.53417395e-04  1.60003742e+00 -9.89863304e-02  9.00000000e-01 
 2.55417395e-04  1.59996252e+00 -9.89783304e-02  9.00000000e-01 
 2.57417395e-04  1.60003742e+00 -9.89703304e-02  9.00000000e-01 
 2.59417395e-04  1.59996252e+00 -9.89623304e-02  9.00000000e-01 
 2.61417395e-04  1.60003741e+00 -9.89543304e-02  9.00000000e-01 
 2.63417395e-04  1.59996253e+00 -9.89463304e-02  9.00000000e-01 
 2.65417395e-04  1.60003741e+00 -9.89383304e-02  9.00000000e-01 
 2.67417395e-04  1.59996253e+00 -9.89303304e-02  9.00000000e-01 
 2.69417395e-04  1.60003740e+00 -9.89223304e-02  9.00000000e-01 
 2.71417395e-04  1.59996254e+00 -9.89143304e-02  9.00000000e-01 
 2.73417395e-04  1.60003740e+00 -9.89063304e-02  9.00000000e-01 
 2.75417395e-04  1.59996254e+00 -9.88983304e-02  9.00000000e-01 
 2.77417395e-04  1.60003739e+00 -9.88903304e-02  9.00000000e-01 
 2.79417395e-04  1.59996255e+00 -9.88823304e-02  9.00000000e-01 
 2.81417395e-04  1.60003739e+00 -9.88743304e-02  9.00000000e-01 
 2.83417395e-04  1.59996255e+00 -9.88663304e-02  9.00000000e-01 
 2.85417395e-04  1.60003738e+00 -9.88583304e-02  9.00000000e-01 
 2.87417395e-04  1.59996256e+00 -9.88503304e-02  9.00000000e-01 
 2.89417395e-04  1.60003738e+00 -9.88423304e-02  9.00000000e-01 
 2.91417395e-04  1.59996256e+00 -9.88343304e-02  9.00000000e-01 
 2.93417395e-04  1.60003737e+00 -9.88263304e-02  9.00000000e-01 
 2.95417395e-04  1.59996257e+00 -9.88183304e-02  9.00000000e-01 
 2.97417395e-04  1.60003737e+00 -9.88103304e-02  9.00000000e-01 
 2.99417395e-04  1.59996257e+00 -9.88023304e-02  9.00000000e-01 
 3.01417395e-04  1.60003736e+00 -9.87943304e-02  9.00000000e-01 
 3.03417395e-04  1.59996258e+00 -9.87863304e-02  9.00000000e-01 
 3.05417395e-04  1.60003736e+00 -9.87783304e-02  9.00000000e-01 
 3.07417395e-04  1.59996258e+00 -9.87703304e-02  9.00000000e-01 
 3.09417395e-04  1.60003735e+00 -9.87623304e-02  9.00000000e-01 
 3.11417395e-04  1.59996259e+00 -9.87543304e-02  9.00000000e-01 
 3.13417395e-04  1.60003735e+00 -9.87463304e-02  9.00000000e-01 
 3.15417395e-04  1.59996259e+00 -9.87383304e-02  9.00000000e-01 
 3.17417395e-04  1.60003734e+00 -9.87303304e-02  9.00000000e-01 
 3.19417395e-04  1.59996260e+00 -9.87223304e-02  9.00000000e-01 
 3.21417395e-04  1.60003734e+00 -9.87143304e-02  9.00000000e-01 
 3.23417395e-04  1.59996260e+00 -9.87063304e-02  9.00000000e-01 
 3.25417395e-04  1.60003733e+00 -9.86983304e-02  9.00000000e-01 
 3.27417395e-04  1.59996261e+00 -9.86903304e-02  9.00000000e-01 
 3.29417395e-04  1.60003733e+00 -9.86823304e-02  9.00000000e-01 
 3.31417395e-04  1.59996261e+00 -9.86743304e-02  9.00000000e-01 
 3.33417395e-04  1.60003732e+00 -9.86663304e-02  9.00000000e-01 
 3.35417395e-04  1.59996262e+00 -9.86583304e-02  9.00000000e-01 
 3.37417395e-04  1.60003732e+00 -9.86503304e-02  9.00000000e-01 
 3.39417395e-04  1.59996262e+00 -9.86423304e-02  9.00000000e-01 
 3.41417395e-04  1.60003731e+00 -9.86343304e-02  9.00000000e-01 
 3.43417395e-04  1.59996263e+00 -9.86263304e-02  9.00000000e-01 
 3.45417395e-04  1.60003731e+00 -9.86183304e-02  9.00000000e-01 
 3.47417395e-04  1.59996263e+00 -9.86103304e-02  9.00000000e-01 
 3.49417395e-04  1.60003730e+00 -9.86023304e-02  9.00000000e-01 
 3.51417395e-04  1.59996264e+00 -9.85943304e-02  9.00000000e-01 
 3.53417395e-04  1.60003730e+00 -9.85863304e-02  9.00000000e-01 
 3.55417395e-04  1.59996264e+00 -9.85783304e-02  9.00000000e-01 
 3.57417395e-04  1.60003729e+00 -9.85703304e-02  9.00000000e-01 
 3.59417395e-04  1.59996265e+00 -9.85623304e-02  9.00000000e-01 
 3.61417395e-04  1.60003729e+00 -9.85543304e-02  9.00000000e-01 
 3.63417395e-04  1.59996265e+00 -9.85463304e-02  9.00000000e-01 
 3.65417395e-04  1.60003728e+00 -9.85383304e-02  9.00000000e-01 
 3.67417395e-04  1.59996266e+00 -9.85303304e-02  9.00000000e-01 
 3.69417395e-04  1.60003728e+00 -9.85223304e-02  9.00000000e-01 
 3.71417395e-04  1.59996266e+00 -9.85143304e-02  9.00000000e-01 
 3.73417395e-04  1.60003727e+00 -9.85063304e-02  9.00000000e-01 
 3.75417395e-04  1.59996267e+00 -9.84983304e-02  9.00000000e-01 
 3.77417395e-04  1.60003727e+00 -9.84903304e-02  9.00000000e-01 
 3.79417395e-04  1.59996267e+00 -9.84823304e-02  9.00000000e-01 
 3.81417395e-04  1.60003726e+00 -9.84743304e-02  9.00000000e-01 
 3.83417395e-04  1.59996268e+00 -9.84663304e-02  9.00000000e-01 
 3.85417395e-04  1.60003726e+00 -9.84583304e-02  9.00000000e-01 
 3.87417395e-04  1.59996268e+00 -9.84503304e-02  9.00000000e-01 
 3.89417395e-04  1.60003725e+00 -9.84423304e-02  9.00000000e-01 
 3.91417395e-04  1.59996269e+00 -9.84343304e-02  9.00000000e-01 
 3.93417395e-04  1.60003725e+00 -9.84263304e-02  9.00000000e-01 
 3.95417395e-04  1.59996269e+00 -9.84183304e-02  9.00000000e-01 
 3.97417395e-04  1.60003724e+00 -9.84103304e-02  9.00000000e-01 
 3.99417395e-04  1.59996270e+00 -9.84023304e-02  9.00000000e-01 
 4.01417395e-04  1.60003724e+00 -9.83943304e-02  9.00000000e-01 
 4.03417395e-04  1.59996270e+00 -9.83863304e-02  9.00000000e-01 
 4.05417395e-04  1.60003723e+00 -9.83783304e-02  9.00000000e-01 
 4.07417395e-04  1.59996271e+00 -9.83703304e-02  9.00000000e-01 
 4.09417395e-04  1.60003723e+00 -9.83623304e-02  9.00000000e-01 
 4.11417395e-04  1.59996271e+00 -9.83543304e-02  9.00000000e-01 
 4.13417395e-04  1.60003722e+00 -9.83463304e-02  9.00000000e-01 
 4.15417395e-04  1.59996272e+00 -9.83383304e-02  9.00000000e-01 
 4.17417395e-04  1.60003722e+00 -9.83303304e-02  9.00000000e-01 
 4.19417395e-04  1.59996272e+00 -9.83223304e-02  9.00000000e-01 
 4.21417395e-04  1.60003721e+00 -9.83143304e-02  9.00000000e-01 
 4.23417395e-04  1.59996273e+00 -9.83063304e-02  9.00000000e-01 
 4.25417395e-04  1.60003721e+00 -9.82983304e-02  9.00000000e-01 
 4.27417395e-04  1.59996273e+00 -9.82903304e-02  9.00000000e-01 
 4.29417395e-04  1.60003720e+00 -9.82823304e-02  9.00000000e-01 
 4.31417395e-04  1.59996274e+00 -9.82743304e-02  9.00000000e-01 
 4.33417395e-04  1.60003720e+00 -9.82663304e-02  9.00000000e-01 
 4.35417395e-04  1.59996274e+00 -9.82583304e-02  9.00000000e-01 
 4.37417395e-04  1.60003719e+00 -9.82503304e-02  9.00000000e-01 
 4.39417395e-04  1.59996275e+00 -9.82423304e-02  9.00000000e-01 
 4.41417395e-04  1.60003719e+00 -9.82343304e-02  9.00000000e-01 
 4.43417395e-04  1.59996275e+00 -9.82263304e-02  9.00000000e-01 
 4.45417395e-04  1.60003718e+00 -9.82183304e-02  9.00000000e-01 
 4.47417395e-04  1.59996276e+00 -9.82103304e-02  9.00000000e-01 
 4.49417395e-04  1.60003718e+00 -9.82023304e-02  9.00000000e-01 
 4.51417395e-04  1.59996276e+00 -9.81943304e-02  9.00000000e-01 
 4.53417395e-04  1.60003717e+00 -9.81863304e-02  9.00000000e-01 
 4.55417395e-04  1.59996277e+00 -9.81783304e-02  9.00000000e-01 
 4.57417395e-04  1.60003717e+00 -9.81703304e-02  9.00000000e-01 
 4.59417395e-04  1.59996277e+00 -9.81623304e-02  9.00000000e-01 
 4.61417395e-04  1.60003716e+00 -9.81543304e-02  9.00000000e-01 
 4.63417395e-04  1.59996278e+00 -9.81463304e-02  9.00000000e-01 
 4.65417395e-04  1.60003716e+00 -9.81383304e-02  9.00000000e-01 
 4.67417395e-04  1.59996278e+00 -9.81303304e-02  9.00000000e-01 
 4.69417395e-04  1.60003715e+00 -9.81223304e-02  9.00000000e-01 
 4.71417395e-04  1.59996279e+00 -9.81143304e-02  9.00000000e-01 
 4.73417395e-04  1.60003715e+00 -9.81063304e-02  9.00000000e-01 
 4.75417395e-04  1.59996279e+00 -9.80983304e-02  9.00000000e-01 
 4.77417395e-04  1.60003714e+00 -9.80903304e-02  9.00000000e-01 
 4.79417395e-04  1.59996280e+00 -9.80823304e-02  9.00000000e-01 
 4.81417395e-04  1.60003714e+00 -9.80743304e-02  9.00000000e-01 
 4.83417395e-04  1.59996280e+00 -9.80663304e-02  9.00000000e-01 
 4.85417395e-04  1.60003713e+00 -9.80583304e-02  9.00000000e-01 
 4.87417395e-04  1.59996281e+00 -9.80503304e-02  9.00000000e-01 
 4.89417395e-04  1.60003713e+00 -9.80423304e-02  9.00000000e-01 
 4.91417395e-04  1.59996281e+00 -9.80343304e-02  9.00000000e-01 
 4.93417395e-04  1.60003712e+00 -9.80263304e-02  9.00000000e-01 
 4.95417395e-04  1.59996282e+00 -9.80183304e-02  9.00000000e-01 
 4.97417395e-04  1.60003712e+00 -9.80103304e-02  9.00000000e-01 
 4.99417395e-04  1.59996282e+00 -9.80023304e-02  9.00000000e-01 
 5.00100100e-04  1.60003711e+00 -9.79995996e-02  9.00000000e-01 
 5.00100110e-04  1.59997139e+00 -9.79995996e-02  9.00000000e-01 
 5.00100130e-04  1.59998522e+00 -9.79995995e-02  9.00000000e-01 
 5.00100170e-04  1.59999584e+00 -9.79995993e-02  9.00000000e-01 
 5.00100200e-04  1.60011532e+00 -9.79995992e-02  9.00000000e-01 
 5.00100208e-04  1.60027792e+00 -9.79995992e-02  9.00000000e-01 
 5.00100224e-04  1.60031978e+00 -9.79995991e-02  9.00000000e-01 
 5.00100256e-04  1.59987830e+00 -9.79995990e-02  9.00000000e-01 
 5.00100320e-04  1.59995785e+00 -9.79995987e-02  9.00000000e-01 
 5.00100438e-04  1.59862871e+00 -9.79995982e-02  9.00000000e-01 
 5.00100565e-04  1.60295526e+00 -9.79995977e-02  9.00000000e-01 
 5.00100697e-04  1.59713104e+00 -9.79995972e-02  9.00000000e-01 
 5.00100959e-04  1.60271788e+00 -9.79995962e-02  9.00000000e-01 
