 time            v(Q)            v(A)-v(B)       v(B)           
 0.00000000e+00  4.69646617e-09  5.00000000e-01  0.00000000e+00 
 1.00000000e-09  4.69647160e-09  5.00000004e-01  0.00000000e+00 
 2.00000000e-09  4.69647163e-09  5.00000008e-01  0.00000000e+00 
 4.00000000e-09  4.69647163e-09  5.00000016e-01  0.00000000e+00 
 8.00000000e-09  4.69647163e-09  5.00000032e-01  0.00000000e+00 
 1.60000000e-08  4.69647167e-09  5.00000064e-01  0.00000000e+00 
 3.20000000e-08  4.69647161e-09  5.00000128e-01  0.00000000e+00 
 6.40000000e-08  4.69647157e-09  5.00000256e-01  0.00000000e+00 
 1.00000000e-07  4.69647154e-09  5.00000400e-01  0.00000000e+00 
 1.00010000e-07  1.65062624e-05  5.00000400e-01  0.00000000e+00 
 1.00030000e-07 -3.94983609e-06  5.00000400e-01  0.00000000e+00 
 1.00070000e-07 -1.36039426e-05  5.00000400e-01  0.00000000e+00 
 1.00100000e-07  8.96029873e-07  5.00000400e-01  0.00000000e+00 
 1.00108000e-07  3.79449622e-06  5.00000400e-01  0.00000000e+00 
 1.00124000e-07  7.20183057e-06  5.00000400e-01  0.00000000e+00 
 1.00156000e-07 -2.35685892e-07  5.00000401e-01  0.00000000e+00 
 1.00220000e-07  6.60670638e-07  5.00000401e-01  0.00000000e+00 
 1.00348000e-07 -2.50351432e-07  5.00000401e-01  0.00000000e+00 
 1.00604000e-07  4.93512363e-08  5.00000402e-01  0.00000000e+00 
 1.01116000e-07  3.76898846e-08  5.00000404e-01  0.00000000e+00 
 1.02140000e-07 -6.64455462e-08  5.00000409e-01  0.00000000e+00 
 1.04188000e-07  9.44861701e-08  5.00000417e-01  0.00000000e+00 
 1.08284000e-07 -9.43412006e-08  5.00000433e-01  0.00000000e+00 
 1.16476000e-07  1.08332637e-07  5.00000466e-01  0.00000000e+00 
 1.32860000e-07 -1.01234274e-07  5.00000531e-01  0.00000000e+00 
 1.65628000e-07  1.11772471e-07  5.00000663e-01  0.00000000e+00 
 2.31164000e-07 -1.02952379e-07  5.00000925e-01  0.00000000e+00 
 3.62236000e-07  1.12631097e-07  5.00001449e-01  0.00000000e+00 
 6.24380000e-07 -1.03381582e-07  5.00002498e-01  0.00000000e+00 
 1.14866800e-06  1.12845670e-07  5.00004595e-01  0.00000000e+00 
 2.19724400e-06 -1.03488863e-07  5.00008789e-01  0.00000000e+00 
 4.19724400e-06  1.12900175e-07  5.00016789e-01  0.00000000e+00 
 6.19724400e-06 -1.03523359e-07  5.00024789e-01  0.00000000e+00 
 8.19724400e-06  1.12937673e-07  5.00032789e-01  0.00000000e+00 
 1.01972440e-05 -1.03560856e-07  5.00040789e-01  0.00000000e+00 
 1.21972440e-05  1.12975170e-07  5.00048789e-01  0.00000000e+00 
 1.41972440e-05 -1.03598352e-07  5.00056789e-01  0.00000000e+00 
 1.61972440e-05  1.13012666e-07  5.00064789e-01  0.00000000e+00 
 1.81972440e-05 -1.03635847e-07  5.00072789e-01  0.00000000e+00 
 2.01972440e-05  1.13050161e-07  5.00080789e-01  0.00000000e+00 
 2.21972440e-05 -1.03673341e-07  5.00088789e-01  0.00000000e+00 
 2.41972440e-05  1.13087655e-07  5.00096789e-01  0.00000000e+00 
 2.61972440e-05 -1.03710834e-07  5.00104789e-01  0.00000000e+00 
 2.81972440e-05  1.13125148e-07  5.00112789e-01  0.00000000e+00 
 3.01972440e-05 -1.03748326e-07  5.00120789e-01  0.00000000e+00 
 3.21972440e-05  1.13162641e-07  5.00128789e-01  0.00000000e+00 
 3.41972440e-05 -1.03785817e-07  5.00136789e-01  0.00000000e+00 
 3.61972440e-05  1.13200132e-07  5.00144789e-01  0.00000000e+00 
 3.81972440e-05 -1.03823307e-07  5.00152789e-01  0.00000000e+00 
 4.01972440e-05  1.13237622e-07  5.00160789e-01  0.00000000e+00 
 4.21972440e-05 -1.03860796e-07  5.00168789e-01  0.00000000e+00 
 4.41972440e-05  1.13275111e-07  5.00176789e-01  0.00000000e+00 
 4.61972440e-05 -1.03898284e-07  5.00184789e-01  0.00000000e+00 
 4.81972440e-05  1.13312600e-07  5.00192789e-01  0.00000000e+00 
 5.01972440e-05 -1.03935771e-07  5.00200789e-01  0.00000000e+00 
 5.21972440e-05  1.13350087e-07  5.00208789e-01  0.00000000e+00 
 5.41972440e-05 -1.03973257e-07  5.00216789e-01  0.00000000e+00 
 5.61972440e-05  1.13387573e-07  5.00224789e-01  0.00000000e+00 
 5.81972440e-05 -1.04010742e-07  5.00232789e-01  0.00000000e+00 
 6.01972440e-05  1.13425058e-07  5.00240789e-01  0.00000000e+00 
 6.21972440e-05 -1.04048226e-07  5.00248789e-01  0.00000000e+00 
 6.41972440e-05  1.13462543e-07  5.00256789e-01  0.00000000e+00 
 6.61972440e-05 -1.04085709e-07  5.00264789e-01  0.00000000e+00 
 6.81972440e-05  1.13500026e-07  5.00272789e-01  0.00000000e+00 
 7.01972440e-05 -1.04123191e-07  5.00280789e-01  0.00000000e+00 
 7.21972440e-05  1.13537508e-07  5.00288789e-01  0.00000000e+00 
 7.41972440e-05 -1.04160672e-07  5.00296789e-01  0.00000000e+00 
 7.61972440e-05  1.13574989e-07  5.00304789e-01  0.00000000e+00 
 7.81972440e-05 -1.04198152e-07  5.00312789e-01  0.00000000e+00 
 8.01972440e-05  1.13612470e-07  5.00320789e-01  0.00000000e+00 
 8.21972440e-05 -1.04235631e-07  5.00328789e-01  0.00000000e+00 
 8.41972440e-05  1.13649949e-07  5.00336789e-01  0.00000000e+00 
 8.61972440e-05 -1.04273109e-07  5.00344789e-01  0.00000000e+00 
 8.81972440e-05  1.13687427e-07  5.00352789e-01  0.00000000e+00 
 9.01972440e-05 -1.04310586e-07  5.00360789e-01  0.00000000e+00 
 9.21972440e-05  1.13724905e-07  5.00368789e-01  0.00000000e+00 
 9.41972440e-05 -1.04348062e-07  5.00376789e-01  0.00000000e+00 
 9.61972440e-05  1.13762381e-07  5.00384789e-01  0.00000000e+00 
 9.81972440e-05 -1.04385537e-07  5.00392789e-01  0.00000000e+00 
 1.00197244e-04  1.13799856e-07  5.00400789e-01  0.00000000e+00 
 1.02197244e-04 -1.04423011e-07  5.00408789e-01  0.00000000e+00 
 1.04197244e-04  1.13837330e-07  5.00416789e-01  0.00000000e+00 
 1.06197244e-04 -1.04460484e-07  5.00424789e-01  0.00000000e+00 
 1.08197244e-04  1.13874804e-07  5.00432789e-01  0.00000000e+00 
 1.10197244e-04 -1.04497956e-07  5.00440789e-01  0.00000000e+00 
 1.12197244e-04  1.13912276e-07  5.00448789e-01  0.00000000e+00 
 1.14197244e-04 -1.04535427e-07  5.00456789e-01  0.00000000e+00 
 1.16197244e-04  1.13949747e-07  5.00464789e-01  0.00000000e+00 
 1.18197244e-04 -1.04572897e-07  5.00472789e-01  0.00000000e+00 
 1.20197244e-04  1.13987218e-07  5.00480789e-01  0.00000000e+00 
 1.22197244e-04 -1.04610366e-07  5.00488789e-01  0.00000000e+00 
 1.24197244e-04  1.14024687e-07  5.00496789e-01  0.00000000e+00 
 1.26197244e-04 -1.04647834e-07  5.00504789e-01  0.00000000e+00 
 1.28197244e-04  1.14062155e-07  5.00512789e-01  0.00000000e+00 
 1.30197244e-04 -1.04685301e-07  5.00520789e-01  0.00000000e+00 
 1.32197244e-04  1.14099623e-07  5.00528789e-01  0.00000000e+00 
 1.34197244e-04 -1.04722767e-07  5.00536789e-01  0.00000000e+00 
 1.36197244e-04  1.14137089e-07  5.00544789e-01  0.00000000e+00 
 1.38197244e-04 -1.04760232e-07  5.00552789e-01  0.00000000e+00 
 1.40197244e-04  1.14174554e-07  5.00560789e-01  0.00000000e+00 
 1.42197244e-04 -1.04797697e-07  5.00568789e-01  0.00000000e+00 
 1.44197244e-04  1.14212019e-07  5.00576789e-01  0.00000000e+00 
 1.46197244e-04 -1.04835160e-07  5.00584789e-01  0.00000000e+00 
 1.48197244e-04  1.14249482e-07  5.00592789e-01  0.00000000e+00 
 1.50197244e-04 -1.04872622e-07  5.00600789e-01  0.00000000e+00 
 1.52197244e-04  1.14286944e-07  5.00608789e-01  0.00000000e+00 
 1.54197244e-04 -1.04910083e-07  5.00616789e-01  0.00000000e+00 
 1.56197244e-04  1.14324406e-07  5.00624789e-01  0.00000000e+00 
 1.58197244e-04 -1.04947543e-07  5.00632789e-01  0.00000000e+00 
 1.60197244e-04  1.14361866e-07  5.00640789e-01  0.00000000e+00 
 1.62197244e-04 -1.04985002e-07  5.00648789e-01  0.00000000e+00 
 1.64197244e-04  1.14399325e-07  5.00656789e-01  0.00000000e+00 
 1.66197244e-04 -1.05022460e-07  5.00664789e-01  0.00000000e+00 
 1.68197244e-04  1.14436784e-07  5.00672789e-01  0.00000000e+00 
 1.70197244e-04 -1.05059917e-07  5.00680789e-01  0.00000000e+00 
 1.72197244e-04  1.14474241e-07  5.00688789e-01  0.00000000e+00 
 1.74197244e-04 -1.05097373e-07  5.00696789e-01  0.00000000e+00 
 1.76197244e-04  1.14511698e-07  5.00704789e-01  0.00000000e+00 
 1.78197244e-04 -1.05134828e-07  5.00712789e-01  0.00000000e+00 
 1.80197244e-04  1.14549153e-07  5.00720789e-01  0.00000000e+00 
 1.82197244e-04 -1.05172283e-07  5.00728789e-01  0.00000000e+00 
 1.84197244e-04  1.14586607e-07  5.00736789e-01  0.00000000e+00 
 1.86197244e-04 -1.05209736e-07  5.00744789e-01  0.00000000e+00 
 1.88197244e-04  1.14624061e-07  5.00752789e-01  0.00000000e+00 
 1.90197244e-04 -1.05247188e-07  5.00760789e-01  0.00000000e+00 
 1.92197244e-04  1.14661513e-07  5.00768789e-01  0.00000000e+00 
 1.94197244e-04 -1.05284639e-07  5.00776789e-01  0.00000000e+00 
 1.96197244e-04  1.14698964e-07  5.00784789e-01  0.00000000e+00 
 1.98197244e-04 -1.05322089e-07  5.00792789e-01  0.00000000e+00 
 2.00000000e-04  1.14738464e-07  5.00800000e-01  0.00000000e+00 
 2.00200000e-04  4.64977289e-09 -9.91992000e-02  6.00000000e-01 
 2.00600000e-04  1.59970850e+00 -9.91976000e-02  6.00000000e-01 
 2.00944894e-04  1.60029118e+00 -9.91962204e-02  6.00000000e-01 
 2.01351919e-04  1.59971000e+00 -9.91945923e-02  6.00000000e-01 
 2.01971471e-04  1.60029292e+00 -9.91921141e-02  6.00000000e-01 
 2.03210573e-04  1.59971125e+00 -9.91871577e-02  6.00000000e-01 
 2.05210573e-04  1.60029301e+00 -9.91791577e-02  6.00000000e-01 
 2.07210573e-04  1.59970994e+00 -9.91711577e-02  6.00000000e-01 
 2.09210573e-04  1.60029213e+00 -9.91631577e-02  6.00000000e-01 
 2.11210573e-04  1.59970998e+00 -9.91551577e-02  6.00000000e-01 
 2.13210573e-04  1.60029208e+00 -9.91471577e-02  6.00000000e-01 
 2.15210573e-04  1.59971002e+00 -9.91391577e-02  6.00000000e-01 
 2.17210573e-04  1.60029204e+00 -9.91311577e-02  6.00000000e-01 
 2.19210573e-04  1.59971006e+00 -9.91231577e-02  6.00000000e-01 
 2.21210573e-04  1.60029200e+00 -9.91151577e-02  6.00000000e-01 
 2.23210573e-04  1.59971010e+00 -9.91071577e-02  6.00000000e-01 
 2.25210573e-04  1.60029196e+00 -9.90991577e-02  6.00000000e-01 
 2.27210573e-04  1.59971014e+00 -9.90911577e-02  6.00000000e-01 
 2.29210573e-04  1.60029192e+00 -9.90831577e-02  6.00000000e-01 
 2.31210573e-04  1.59971018e+00 -9.90751577e-02  6.00000000e-01 
 2.33210573e-04  1.60029188e+00 -9.90671577e-02  6.00000000e-01 
 2.35210573e-04  1.59971022e+00 -9.90591577e-02  6.00000000e-01 
 2.37210573e-04  1.60029184e+00 -9.90511577e-02  6.00000000e-01 
 2.39210573e-04  1.59971026e+00 -9.90431577e-02  6.00000000e-01 
 2.41210573e-04  1.60029180e+00 -9.90351577e-02  6.00000000e-01 
 2.43210573e-04  1.59971030e+00 -9.90271577e-02  6.00000000e-01 
 2.45210573e-04  1.60029176e+00 -9.90191577e-02  6.00000000e-01 
 2.47210573e-04  1.59971034e+00 -9.90111577e-02  6.00000000e-01 
 2.49210573e-04  1.60029172e+00 -9.90031577e-02  6.00000000e-01 
 2.51210573e-04  1.59971038e+00 -9.89951577e-02  6.00000000e-01 
 2.53210573e-04  1.60029168e+00 -9.89871577e-02  6.00000000e-01 
 2.55210573e-04  1.59971041e+00 -9.89791577e-02  6.00000000e-01 
 2.57210573e-04  1.60029164e+00 -9.89711577e-02  6.00000000e-01 
 2.59210573e-04  1.59971045e+00 -9.89631577e-02  6.00000000e-01 
 2.61210573e-04  1.60029160e+00 -9.89551577e-02  6.00000000e-01 
 2.63210573e-04  1.59971049e+00 -9.89471577e-02  6.00000000e-01 
 2.65210573e-04  1.60029156e+00 -9.89391577e-02  6.00000000e-01 
 2.67210573e-04  1.59971053e+00 -9.89311577e-02  6.00000000e-01 
 2.69210573e-04  1.60029152e+00 -9.89231577e-02  6.00000000e-01 
 2.71210573e-04  1.59971057e+00 -9.89151577e-02  6.00000000e-01 
 2.73210573e-04  1.60029148e+00 -9.89071577e-02  6.00000000e-01 
 2.75210573e-04  1.59971061e+00 -9.88991577e-02  6.00000000e-01 
 2.77210573e-04  1.60029144e+00 -9.88911577e-02  6.00000000e-01 
 2.79210573e-04  1.59971065e+00 -9.88831577e-02  6.00000000e-01 
 2.81210573e-04  1.60029140e+00 -9.88751577e-02  6.00000000e-01 
 2.83210573e-04  1.59971069e+00 -9.88671577e-02  6.00000000e-01 
 2.85210573e-04  1.60029136e+00 -9.88591577e-02  6.00000000e-01 
 2.87210573e-04  1.59971073e+00 -9.88511577e-02  6.00000000e-01 
 2.89210573e-04  1.60029132e+00 -9.88431577e-02  6.00000000e-01 
 2.91210573e-04  1.59971077e+00 -9.88351577e-02  6.00000000e-01 
 2.93210573e-04  1.60029128e+00 -9.88271577e-02  6.00000000e-01 
 2.95210573e-04  1.59971081e+00 -9.88191577e-02  6.00000000e-01 
 2.97210573e-04  1.60029124e+00 -9.88111577e-02  6.00000000e-01 
 2.99210573e-04  1.59971085e+00 -9.88031577e-02  6.00000000e-01 
 3.01210573e-04  1.60029120e+00 -9.87951577e-02  6.00000000e-01 
 3.03210573e-04  1.59971089e+00 -9.87871577e-02  6.00000000e-01 
 3.05210573e-04  1.60029116e+00 -9.87791577e-02  6.00000000e-01 
 3.07210573e-04  1.59971093e+00 -9.87711577e-02  6.00000000e-01 
 3.09210573e-04  1.60029112e+00 -9.87631577e-02  6.00000000e-01 
 3.11210573e-04  1.59971097e+00 -9.87551577e-02  6.00000000e-01 
 3.13210573e-04  1.60029108e+00 -9.87471577e-02  6.00000000e-01 
 3.15210573e-04  1.59971101e+00 -9.87391577e-02  6.00000000e-01 
 3.17210573e-04  1.60029104e+00 -9.87311577e-02  6.00000000e-01 
 3.19210573e-04  1.59971105e+00 -9.87231577e-02  6.00000000e-01 
 3.21210573e-04  1.60029100e+00 -9.87151577e-02  6.00000000e-01 
 3.23210573e-04  1.59971109e+00 -9.87071577e-02  6.00000000e-01 
 3.25210573e-04  1.60029096e+00 -9.86991577e-02  6.00000000e-01 
 3.27210573e-04  1.59971113e+00 -9.86911577e-02  6.00000000e-01 
 3.29210573e-04  1.60029092e+00 -9.86831577e-02  6.00000000e-01 
 3.31210573e-04  1.59971116e+00 -9.86751577e-02  6.00000000e-01 
 3.33210573e-04  1.60029088e+00 -9.86671577e-02  6.00000000e-01 
 3.35210573e-04  1.59971120e+00 -9.86591577e-02  6.00000000e-01 
 3.37210573e-04  1.60029084e+00 -9.86511577e-02  6.00000000e-01 
 3.39210573e-04  1.59971124e+00 -9.86431577e-02  6.00000000e-01 
 3.41210573e-04  1.60029080e+00 -9.86351577e-02  6.00000000e-01 
 3.43210573e-04  1.59971128e+00 -9.86271577e-02  6.00000000e-01 
 3.45210573e-04  1.60029076e+00 -9.86191577e-02  6.00000000e-01 
 3.47210573e-04  1.59971132e+00 -9.86111577e-02  6.00000000e-01 
 3.49210573e-04  1.60029072e+00 -9.86031577e-02  6.00000000e-01 
 3.51210573e-04  1.59971136e+00 -9.85951577e-02  6.00000000e-01 
 3.53210573e-04  1.60029068e+00 -9.85871577e-02  6.00000000e-01 
 3.55210573e-04  1.59971140e+00 -9.85791577e-02  6.00000000e-01 
 3.57210573e-04  1.60029064e+00 -9.85711577e-02  6.00000000e-01 
 3.59210573e-04  1.59971144e+00 -9.85631577e-02  6.00000000e-01 
 3.61210573e-04  1.60029060e+00 -9.85551577e-02  6.00000000e-01 
 3.63210573e-04  1.59971148e+00 -9.85471577e-02  6.00000000e-01 
 3.65210573e-04  1.60029056e+00 -9.85391577e-02  6.00000000e-01 
 3.67210573e-04  1.59971152e+00 -9.85311577e-02  6.00000000e-01 
 3.69210573e-04  1.60029052e+00 -9.85231577e-02  6.00000000e-01 
 3.71210573e-04  1.59971156e+00 -9.85151577e-02  6.00000000e-01 
 3.73210573e-04  1.60029048e+00 -9.85071577e-02  6.00000000e-01 
 3.75210573e-04  1.59971160e+00 -9.84991577e-02  6.00000000e-01 
 3.77210573e-04  1.60029044e+00 -9.84911577e-02  6.00000000e-01 
 3.79210573e-04  1.59971164e+00 -9.84831577e-02  6.00000000e-01 
 3.81210573e-04  1.60029040e+00 -9.84751577e-02  6.00000000e-01 
 3.83210573e-04  1.59971168e+00 -9.84671577e-02  6.00000000e-01 
 3.85210573e-04  1.60029036e+00 -9.84591577e-02  6.00000000e-01 
 3.87210573e-04  1.59971172e+00 -9.84511577e-02  6.00000000e-01 
 3.89210573e-04  1.60029032e+00 -9.84431577e-02  6.00000000e-01 
 3.91210573e-04  1.59971176e+00 -9.84351577e-02  6.00000000e-01 
 3.93210573e-04  1.60029028e+00 -9.84271577e-02  6.00000000e-01 
 3.95210573e-04  1.59971179e+00 -9.84191577e-02  6.00000000e-01 
 3.97210573e-04  1.60029024e+00 -9.84111577e-02  6.00000000e-01 
 3.99210573e-04  1.59971183e+00 -9.84031577e-02  6.00000000e-01 
 4.01210573e-04  1.60029020e+00 -9.83951577e-02  6.00000000e-01 
 4.03210573e-04  1.59971187e+00 -9.83871577e-02  6.00000000e-01 
 4.05210573e-04  1.60029016e+00 -9.83791577e-02  6.00000000e-01 
 4.07210573e-04  1.59971191e+00 -9.83711577e-02  6.00000000e-01 
 4.09210573e-04  1.60029012e+00 -9.83631577e-02  6.00000000e-01 
 4.11210573e-04  1.59971195e+00 -9.83551577e-02  6.00000000e-01 
 4.13210573e-04  1.60029008e+00 -9.83471577e-02  6.00000000e-01 
 4.15210573e-04  1.59971199e+00 -9.83391577e-02  6.00000000e-01 
 4.17210573e-04  1.60029004e+00 -9.83311577e-02  6.00000000e-01 
 4.19210573e-04  1.59971203e+00 -9.83231577e-02  6.00000000e-01 
 4.21210573e-04  1.60029000e+00 -9.83151577e-02  6.00000000e-01 
 4.23210573e-04  1.59971207e+00 -9.83071577e-02  6.00000000e-01 
 4.25210573e-04  1.60028996e+00 -9.82991577e-02  6.00000000e-01 
 4.27210573e-04  1.59971211e+00 -9.82911577e-02  6.00000000e-01 
 4.29210573e-04  1.60028992e+00 -9.82831577e-02  6.00000000e-01 
 4.31210573e-04  1.59971215e+00 -9.82751577e-02  6.00000000e-01 
 4.33210573e-04  1.60028988e+00 -9.82671577e-02  6.00000000e-01 
 4.35210573e-04  1.59971219e+00 -9.82591577e-02  6.00000000e-01 
 4.37210573e-04  1.60028984e+00 -9.82511577e-02  6.00000000e-01 
 4.39210573e-04  1.59971223e+00 -9.82431577e-02  6.00000000e-01 
 4.41210573e-04  1.60028980e+00 -9.82351577e-02  6.00000000e-01 
 4.43210573e-04  1.59971227e+00 -9.82271577e-02  6.00000000e-01 
 4.45210573e-04  1.60028976e+00 -9.82191577e-02  6.00000000e-01 
 4.47210573e-04  1.59971231e+00 -9.82111577e-02  6.00000000e-01 
 4.49210573e-04  1.60028972e+00 -9.82031577e-02  6.00000000e-01 
 4.51210573e-04  1.59971235e+00 -9.81951577e-02  6.00000000e-01 
 4.53210573e-04  1.60028968e+00 -9.81871577e-02  6.00000000e-01 
 4.55210573e-04  1.59971238e+00 -9.81791577e-02  6.00000000e-01 
 4.57210573e-04  1.60028964e+00 -9.81711577e-02  6.00000000e-01 
 4.59210573e-04  1.59971242e+00 -9.81631577e-02  6.00000000e-01 
 4.61210573e-04  1.60028960e+00 -9.81551577e-02  6.00000000e-01 
 4.63210573e-04  1.59971246e+00 -9.81471577e-02  6.00000000e-01 
 4.65210573e-04  1.60028956e+00 -9.81391577e-02  6.00000000e-01 
 4.67210573e-04  1.59971250e+00 -9.81311577e-02  6.00000000e-01 
 4.69210573e-04  1.60028952e+00 -9.81231577e-02  6.00000000e-01 
 4.71210573e-04  1.59971254e+00 -9.81151577e-02  6.00000000e-01 
 4.73210573e-04  1.60028948e+00 -9.81071577e-02  6.00000000e-01 
 4.75210573e-04  1.59971258e+00 -9.80991577e-02  6.00000000e-01 
 4.77210573e-04  1.60028944e+00 -9.80911577e-02  6.00000000e-01 
 4.79210573e-04  1.59971262e+00 -9.80831577e-02  6.00000000e-01 
 4.81210573e-04  1.60028941e+00 -9.80751577e-02  6.00000000e-01 
 4.83210573e-04  1.59971266e+00 -9.80671577e-02  6.00000000e-01 
 4.85210573e-04  1.60028937e+00 -9.80591577e-02  6.00000000e-01 
 4.87210573e-04  1.59971270e+00 -9.80511577e-02  6.00000000e-01 
 4.89210573e-04  1.60028933e+00 -9.80431577e-02  6.00000000e-01 
 4.91210573e-04  1.59971274e+00 -9.80351577e-02  6.00000000e-01 
 4.93210573e-04  1.60028929e+00 -9.80271577e-02  6.00000000e-01 
 4.95210573e-04  1.59971278e+00 -9.80191577e-02  6.00000000e-01 
 4.97210573e-04  1.60028925e+00 -9.80111577e-02  6.00000000e-01 
 4.99210573e-04  1.59971282e+00 -9.80031577e-02  6.00000000e-01 
 5.00100100e-04  1.60028861e+00 -9.79995996e-02  6.00000000e-01 
 5.00100110e-04  1.60017440e+00 -9.79995996e-02  6.00000000e-01 
 5.00100130e-04  1.60004159e+00 -9.79995995e-02  6.00000000e-01 
 5.00100170e-04  1.59997445e+00 -9.79995993e-02  6.00000000e-01 
 5.00100200e-04  1.60008086e+00 -9.79995992e-02  6.00000000e-01 
 5.00100208e-04  1.60022595e+00 -9.79995992e-02  6.00000000e-01 
 5.00100224e-04  1.60025501e+00 -9.79995991e-02  6.00000000e-01 
 5.00100256e-04  1.59996338e+00 -9.79995990e-02  6.00000000e-01 
 5.00100320e-04  1.59996413e+00 -9.79995987e-02  6.00000000e-01 
 5.00100438e-04  1.59999274e+00 -9.79995982e-02  6.00000000e-01 
 5.00100673e-04  1.60000612e+00 -9.79995973e-02  6.00000000e-01 
 5.00101145e-04  1.59999434e+00 -9.79995954e-02  6.00000000e-01 
 5.00102087e-04  1.60000532e+00 -9.79995917e-02  6.00000000e-01 
 5.00103973e-04  1.59999476e+00 -9.79995841e-02  6.00000000e-01 
 5.00107743e-04  1.60000511e+00 -9.79995690e-02  6.00000000e-01 
 5.00115284e-04  1.59999487e+00 -9.79995389e-02  6.00000000e-01 
 5.00130366e-04  1.60000506e+00 -9.79994785e-02  6.00000000e-01 
 5.00160529e-04  1.59999489e+00 -9.79993579e-02  6.00000000e-01 
 5.00220856e-04  1.60000504e+00 -9.79991166e-02  6.00000000e-01 
 5.00341509e-04  1.59999490e+00 -9.79986340e-02  6.00000000e-01 
 5.00582816e-04  1.60000504e+00 -9.79976687e-02  6.00000000e-01 
 5.01065430e-04  1.59999490e+00 -9.79957383e-02  6.00000000e-01 
