 time            v(Q)            v(A)-v(B)       v(B)           
 0.00000000e+00  4.69646623e-09  1.00000000e+00  0.00000000e+00 
 1.00000000e-09  4.69646978e-09  1.00000000e+00  0.00000000e+00 
 2.00000000e-09  4.69646981e-09  1.00000001e+00  0.00000000e+00 
 4.00000000e-09  4.69646980e-09  1.00000002e+00  0.00000000e+00 
 8.00000000e-09  4.69646980e-09  1.00000003e+00  0.00000000e+00 
 1.60000000e-08  4.69646979e-09  1.00000006e+00  0.00000000e+00 
 3.20000000e-08  4.69646979e-09  1.00000013e+00  0.00000000e+00 
 6.40000000e-08  4.69646976e-09  1.00000026e+00  0.00000000e+00 
 1.00000000e-07  4.69646976e-09  1.00000040e+00  0.00000000e+00 
 1.00010000e-07  1.78297408e-05  1.00000040e+00  0.00000000e+00 
 1.00030000e-07 -3.49317795e-06  1.00000040e+00  0.00000000e+00 
 1.00070000e-07 -2.89415637e-05  1.00000040e+00  0.00000000e+00 
 1.00100000e-07 -6.08298570e-05  1.00000040e+00  0.00000000e+00 
 1.00108000e-07 -2.25470193e-05  1.00000040e+00  0.00000000e+00 
 1.00124000e-07 -2.63082546e-05  1.00000040e+00  0.00000000e+00 
 1.00156000e-07 -2.75994154e-04  1.00000040e+00  0.00000000e+00 
 1.00220000e-07  5.16599411e-03  1.00000040e+00  0.00000000e+00 
 1.00309498e-07 -4.28002941e-01  1.00000040e+00  0.00000000e+00 
 1.00408229e-07  9.50349979e-01  1.00000040e+00  0.00000000e+00 
 1.00519697e-07  1.63056106e+00  1.00000040e+00  0.00000000e+00 
 1.00695428e-07  1.57067964e+00  1.00000040e+00  0.00000000e+00 
 1.00948844e-07  1.62451045e+00  1.00000040e+00  0.00000000e+00 
 1.01248353e-07  1.57455600e+00  1.00000040e+00  0.00000000e+00 
 1.01847372e-07  1.62267375e+00  1.00000041e+00  0.00000000e+00 
 1.02703807e-07  1.57571027e+00  1.00000041e+00  0.00000000e+00 
 1.04293991e-07  1.62210033e+00  1.00000042e+00  0.00000000e+00 
 1.06901325e-07  1.57609112e+00  1.00000043e+00  0.00000000e+00 
 1.11500010e-07  1.62191608e+00  1.00000045e+00  0.00000000e+00 
 1.20697380e-07  1.57622002e+00  1.00000048e+00  0.00000000e+00 
 1.39092120e-07  1.62186684e+00  1.00000056e+00  0.00000000e+00 
 1.75881600e-07  1.57624945e+00  1.00000070e+00  0.00000000e+00 
 2.49460560e-07  1.62185456e+00  1.00000100e+00  0.00000000e+00 
 3.96618480e-07  1.57625679e+00  1.00000159e+00  0.00000000e+00 
 6.90934320e-07  1.62185149e+00  1.00000276e+00  0.00000000e+00 
 1.27956600e-06  1.57625863e+00  1.00000512e+00  0.00000000e+00 
 2.45682936e-06  1.62185072e+00  1.00000983e+00  0.00000000e+00 
 4.45682936e-06  1.57624975e+00  1.00001783e+00  0.00000000e+00 
 6.45682936e-06  1.62195471e+00  1.00002583e+00  0.00000000e+00 
 8.45682936e-06  1.57624504e+00  1.00003383e+00  0.00000000e+00 
 1.04568294e-05  1.62195463e+00  1.00004183e+00  0.00000000e+00 
 1.24568294e-05  1.57624540e+00  1.00004983e+00  0.00000000e+00 
 1.44568294e-05  1.62195431e+00  1.00005783e+00  0.00000000e+00 
 1.64568294e-05  1.57624577e+00  1.00006583e+00  0.00000000e+00 
 1.84568294e-05  1.62195400e+00  1.00007383e+00  0.00000000e+00 
 2.04568294e-05  1.57624614e+00  1.00008183e+00  0.00000000e+00 
 2.24568294e-05  1.62195368e+00  1.00008983e+00  0.00000000e+00 
 2.44568294e-05  1.57624650e+00  1.00009783e+00  0.00000000e+00 
 2.64568294e-05  1.62195336e+00  1.00010583e+00  0.00000000e+00 
 2.84568294e-05  1.57624687e+00  1.00011383e+00  0.00000000e+00 
 3.04568294e-05  1.62195305e+00  1.00012183e+00  0.00000000e+00 
 3.24568294e-05  1.57624723e+00  1.00012983e+00  0.00000000e+00 
 3.44568294e-05  1.62195273e+00  1.00013783e+00  0.00000000e+00 
 3.64568294e-05  1.57624760e+00  1.00014583e+00  0.00000000e+00 
 3.84568294e-05  1.62195241e+00  1.00015383e+00  0.00000000e+00 
 4.04568294e-05  1.57624797e+00  1.00016183e+00  0.00000000e+00 
 4.24568294e-05  1.62195210e+00  1.00016983e+00  0.00000000e+00 
 4.44568294e-05  1.57624833e+00  1.00017783e+00  0.00000000e+00 
 4.64568294e-05  1.62195178e+00  1.00018583e+00  0.00000000e+00 
 4.84568294e-05  1.57624870e+00  1.00019383e+00  0.00000000e+00 
 5.04568294e-05  1.62195146e+00  1.00020183e+00  0.00000000e+00 
 5.24568294e-05  1.57624906e+00  1.00020983e+00  0.00000000e+00 
 5.44568294e-05  1.62195115e+00  1.00021783e+00  0.00000000e+00 
 5.64568294e-05  1.57624943e+00  1.00022583e+00  0.00000000e+00 
 5.84568294e-05  1.62195083e+00  1.00023383e+00  0.00000000e+00 
 6.04568294e-05  1.57624980e+00  1.00024183e+00  0.00000000e+00 
 6.24568294e-05  1.62195052e+00  1.00024983e+00  0.00000000e+00 
 6.44568294e-05  1.57625016e+00  1.00025783e+00  0.00000000e+00 
 6.64568294e-05  1.62195020e+00  1.00026583e+00  0.00000000e+00 
 6.84568294e-05  1.57625053e+00  1.00027383e+00  0.00000000e+00 
 7.04568294e-05  1.62194988e+00  1.00028183e+00  0.00000000e+00 
 7.24568294e-05  1.57625090e+00  1.00028983e+00  0.00000000e+00 
 7.44568294e-05  1.62194957e+00  1.00029783e+00  0.00000000e+00 
 7.64568294e-05  1.57625126e+00  1.00030583e+00  0.00000000e+00 
 7.84568294e-05  1.62194925e+00  1.00031383e+00  0.00000000e+00 
 8.04568294e-05  1.57625163e+00  1.00032183e+00  0.00000000e+00 
 8.24568294e-05  1.62194893e+00  1.00032983e+00  0.00000000e+00 
 8.44568294e-05  1.57625200e+00  1.00033783e+00  0.00000000e+00 
 8.64568294e-05  1.62194862e+00  1.00034583e+00  0.00000000e+00 
 8.84568294e-05  1.57625236e+00  1.00035383e+00  0.00000000e+00 
 9.04568294e-05  1.62194830e+00  1.00036183e+00  0.00000000e+00 
 9.24568294e-05  1.57625273e+00  1.00036983e+00  0.00000000e+00 
 9.44568294e-05  1.62194798e+00  1.00037783e+00  0.00000000e+00 
 9.64568294e-05  1.57625310e+00  1.00038583e+00  0.00000000e+00 
 9.84568294e-05  1.62194767e+00  1.00039383e+00  0.00000000e+00 
 1.00456829e-04  1.57625346e+00  1.00040183e+00  0.00000000e+00 
 1.02456829e-04  1.62194735e+00  1.00040983e+00  0.00000000e+00 
 1.04456829e-04  1.57625383e+00  1.00041783e+00  0.00000000e+00 
 1.06456829e-04  1.62194703e+00  1.00042583e+00  0.00000000e+00 
 1.08456829e-04  1.57625420e+00  1.00043383e+00  0.00000000e+00 
 1.10456829e-04  1.62194671e+00  1.00044183e+00  0.00000000e+00 
 1.12456829e-04  1.57625456e+00  1.00044983e+00  0.00000000e+00 
 1.14456829e-04  1.62194640e+00  1.00045783e+00  0.00000000e+00 
 1.16456829e-04  1.57625493e+00  1.00046583e+00  0.00000000e+00 
 1.18456829e-04  1.62194608e+00  1.00047383e+00  0.00000000e+00 
 1.20456829e-04  1.57625530e+00  1.00048183e+00  0.00000000e+00 
 1.22456829e-04  1.62194576e+00  1.00048983e+00  0.00000000e+00 
 1.24456829e-04  1.57625566e+00  1.00049783e+00  0.00000000e+00 
 1.26456829e-04  1.62194545e+00  1.00050583e+00  0.00000000e+00 
 1.28456829e-04  1.57625603e+00  1.00051383e+00  0.00000000e+00 
 1.30456829e-04  1.62194513e+00  1.00052183e+00  0.00000000e+00 
 1.32456829e-04  1.57625640e+00  1.00052983e+00  0.00000000e+00 
 1.34456829e-04  1.62194481e+00  1.00053783e+00  0.00000000e+00 
 1.36456829e-04  1.57625676e+00  1.00054583e+00  0.00000000e+00 
 1.38456829e-04  1.62194450e+00  1.00055383e+00  0.00000000e+00 
 1.40456829e-04  1.57625713e+00  1.00056183e+00  0.00000000e+00 
 1.42456829e-04  1.62194418e+00  1.00056983e+00  0.00000000e+00 
 1.44456829e-04  1.57625750e+00  1.00057783e+00  0.00000000e+00 
 1.46456829e-04  1.62194386e+00  1.00058583e+00  0.00000000e+00 
 1.48456829e-04  1.57625786e+00  1.00059383e+00  0.00000000e+00 
 1.50456829e-04  1.62194354e+00  1.00060183e+00  0.00000000e+00 
 1.52456829e-04  1.57625823e+00  1.00060983e+00  0.00000000e+00 
 1.54456829e-04  1.62194323e+00  1.00061783e+00  0.00000000e+00 
 1.56456829e-04  1.57625860e+00  1.00062583e+00  0.00000000e+00 
 1.58456829e-04  1.62194291e+00  1.00063383e+00  0.00000000e+00 
 1.60456829e-04  1.57625897e+00  1.00064183e+00  0.00000000e+00 
 1.62456829e-04  1.62194259e+00  1.00064983e+00  0.00000000e+00 
 1.64456829e-04  1.57625933e+00  1.00065783e+00  0.00000000e+00 
 1.66456829e-04  1.62194227e+00  1.00066583e+00  0.00000000e+00 
 1.68456829e-04  1.57625970e+00  1.00067383e+00  0.00000000e+00 
 1.70456829e-04  1.62194196e+00  1.00068183e+00  0.00000000e+00 
 1.72456829e-04  1.57626007e+00  1.00068983e+00  0.00000000e+00 
 1.74456829e-04  1.62194164e+00  1.00069783e+00  0.00000000e+00 
 1.76456829e-04  1.57626043e+00  1.00070583e+00  0.00000000e+00 
 1.78456829e-04  1.62194132e+00  1.00071383e+00  0.00000000e+00 
 1.80456829e-04  1.57626080e+00  1.00072183e+00  0.00000000e+00 
 1.82456829e-04  1.62194101e+00  1.00072983e+00  0.00000000e+00 
 1.84456829e-04  1.57626117e+00  1.00073783e+00  0.00000000e+00 
 1.86456829e-04  1.62194069e+00  1.00074583e+00  0.00000000e+00 
 1.88456829e-04  1.57626154e+00  1.00075383e+00  0.00000000e+00 
 1.90456829e-04  1.62194037e+00  1.00076183e+00  0.00000000e+00 
 1.92456829e-04  1.57626190e+00  1.00076983e+00  0.00000000e+00 
 1.94456829e-04  1.62194005e+00  1.00077783e+00  0.00000000e+00 
 1.96456829e-04  1.57626227e+00  1.00078583e+00  0.00000000e+00 
 1.98456829e-04  1.62193974e+00  1.00079383e+00  0.00000000e+00 
 2.00000000e-04  1.57626247e+00  1.00080000e+00  0.00000000e+00 
 2.00200000e-04  1.59999867e+00 -9.91992000e-02  1.10000000e+00 
 2.00600000e-04  1.60000127e+00 -9.91976000e-02  1.10000000e+00 
 2.00998016e-04  1.59999867e+00 -9.91960079e-02  1.10000000e+00 
 2.01433491e-04  1.60000127e+00 -9.91942660e-02  1.10000000e+00 
 2.02304440e-04  1.59999867e+00 -9.91907822e-02  1.10000000e+00 
 2.04013770e-04  1.60000127e+00 -9.91839449e-02  1.10000000e+00 
 2.06013770e-04  1.59999867e+00 -9.91759449e-02  1.10000000e+00 
 2.08013770e-04  1.60000127e+00 -9.91679449e-02  1.10000000e+00 
 2.10013770e-04  1.59999867e+00 -9.91599449e-02  1.10000000e+00 
 2.12013770e-04  1.60000127e+00 -9.91519449e-02  1.10000000e+00 
 2.14013770e-04  1.59999867e+00 -9.91439449e-02  1.10000000e+00 
 2.16013770e-04  1.60000127e+00 -9.91359449e-02  1.10000000e+00 
 2.18013770e-04  1.59999867e+00 -9.91279449e-02  1.10000000e+00 
 2.20013770e-04  1.60000127e+00 -9.91199449e-02  1.10000000e+00 
 2.22013770e-04  1.59999867e+00 -9.91119449e-02  1.10000000e+00 
 2.24013770e-04  1.60000127e+00 -9.91039449e-02  1.10000000e+00 
 2.26013770e-04  1.59999867e+00 -9.90959449e-02  1.10000000e+00 
 2.28013770e-04  1.60000127e+00 -9.90879449e-02  1.10000000e+00 
 2.30013770e-04  1.59999867e+00 -9.90799449e-02  1.10000000e+00 
 2.32013770e-04  1.60000127e+00 -9.90719449e-02  1.10000000e+00 
 2.34013770e-04  1.59999867e+00 -9.90639449e-02  1.10000000e+00 
 2.36013770e-04  1.60000127e+00 -9.90559449e-02  1.10000000e+00 
 2.38013770e-04  1.59999867e+00 -9.90479449e-02  1.10000000e+00 
 2.40013770e-04  1.60000127e+00 -9.90399449e-02  1.10000000e+00 
 2.42013770e-04  1.59999867e+00 -9.90319449e-02  1.10000000e+00 
 2.44013770e-04  1.60000127e+00 -9.90239449e-02  1.10000000e+00 
 2.46013770e-04  1.59999867e+00 -9.90159449e-02  1.10000000e+00 
 2.48013770e-04  1.60000127e+00 -9.90079449e-02  1.10000000e+00 
 2.50013770e-04  1.59999867e+00 -9.89999449e-02  1.10000000e+00 
 2.52013770e-04  1.60000127e+00 -9.89919449e-02  1.10000000e+00 
 2.54013770e-04  1.59999867e+00 -9.89839449e-02  1.10000000e+00 
 2.56013770e-04  1.60000127e+00 -9.89759449e-02  1.10000000e+00 
 2.58013770e-04  1.59999867e+00 -9.89679449e-02  1.10000000e+00 
 2.60013770e-04  1.60000127e+00 -9.89599449e-02  1.10000000e+00 
 2.62013770e-04  1.59999867e+00 -9.89519449e-02  1.10000000e+00 
 2.64013770e-04  1.60000127e+00 -9.89439449e-02  1.10000000e+00 
 2.66013770e-04  1.59999867e+00 -9.89359449e-02  1.10000000e+00 
 2.68013770e-04  1.60000127e+00 -9.89279449e-02  1.10000000e+00 
 2.70013770e-04  1.59999867e+00 -9.89199449e-02  1.10000000e+00 
 2.72013770e-04  1.60000127e+00 -9.89119449e-02  1.10000000e+00 
 2.74013770e-04  1.59999867e+00 -9.89039449e-02  1.10000000e+00 
 2.76013770e-04  1.60000127e+00 -9.88959449e-02  1.10000000e+00 
 2.78013770e-04  1.59999867e+00 -9.88879449e-02  1.10000000e+00 
 2.80013770e-04  1.60000127e+00 -9.88799449e-02  1.10000000e+00 
 2.82013770e-04  1.59999867e+00 -9.88719449e-02  1.10000000e+00 
 2.84013770e-04  1.60000127e+00 -9.88639449e-02  1.10000000e+00 
 2.86013770e-04  1.59999868e+00 -9.88559449e-02  1.10000000e+00 
 2.88013770e-04  1.60000127e+00 -9.88479449e-02  1.10000000e+00 
 2.90013770e-04  1.59999868e+00 -9.88399449e-02  1.10000000e+00 
 2.92013770e-04  1.60000127e+00 -9.88319449e-02  1.10000000e+00 
 2.94013770e-04  1.59999868e+00 -9.88239449e-02  1.10000000e+00 
 2.96013770e-04  1.60000127e+00 -9.88159449e-02  1.10000000e+00 
 2.98013770e-04  1.59999868e+00 -9.88079449e-02  1.10000000e+00 
 3.00013770e-04  1.60000127e+00 -9.87999449e-02  1.10000000e+00 
 3.02013770e-04  1.59999868e+00 -9.87919449e-02  1.10000000e+00 
 3.04013770e-04  1.60000127e+00 -9.87839449e-02  1.10000000e+00 
 3.06013770e-04  1.59999868e+00 -9.87759449e-02  1.10000000e+00 
 3.08013770e-04  1.60000127e+00 -9.87679449e-02  1.10000000e+00 
 3.10013770e-04  1.59999868e+00 -9.87599449e-02  1.10000000e+00 
 3.12013770e-04  1.60000127e+00 -9.87519449e-02  1.10000000e+00 
 3.14013770e-04  1.59999868e+00 -9.87439449e-02  1.10000000e+00 
 3.16013770e-04  1.60000127e+00 -9.87359449e-02  1.10000000e+00 
 3.18013770e-04  1.59999868e+00 -9.87279449e-02  1.10000000e+00 
 3.20013770e-04  1.60000127e+00 -9.87199449e-02  1.10000000e+00 
 3.22013770e-04  1.59999868e+00 -9.87119449e-02  1.10000000e+00 
 3.24013770e-04  1.60000127e+00 -9.87039449e-02  1.10000000e+00 
 3.26013770e-04  1.59999868e+00 -9.86959449e-02  1.10000000e+00 
 3.28013770e-04  1.60000127e+00 -9.86879449e-02  1.10000000e+00 
 3.30013770e-04  1.59999868e+00 -9.86799449e-02  1.10000000e+00 
 3.32013770e-04  1.60000127e+00 -9.86719449e-02  1.10000000e+00 
 3.34013770e-04  1.59999868e+00 -9.86639449e-02  1.10000000e+00 
 3.36013770e-04  1.60000127e+00 -9.86559449e-02  1.10000000e+00 
 3.38013770e-04  1.59999868e+00 -9.86479449e-02  1.10000000e+00 
 3.40013770e-04  1.60000127e+00 -9.86399449e-02  1.10000000e+00 
 3.42013770e-04  1.59999868e+00 -9.86319449e-02  1.10000000e+00 
 3.44013770e-04  1.60000127e+00 -9.86239449e-02  1.10000000e+00 
 3.46013770e-04  1.59999868e+00 -9.86159449e-02  1.10000000e+00 
 3.48013770e-04  1.60000127e+00 -9.86079449e-02  1.10000000e+00 
 3.50013770e-04  1.59999868e+00 -9.85999449e-02  1.10000000e+00 
 3.52013770e-04  1.60000127e+00 -9.85919449e-02  1.10000000e+00 
 3.54013770e-04  1.59999868e+00 -9.85839449e-02  1.10000000e+00 
 3.56013770e-04  1.60000127e+00 -9.85759449e-02  1.10000000e+00 
 3.58013770e-04  1.59999868e+00 -9.85679449e-02  1.10000000e+00 
 3.60013770e-04  1.60000127e+00 -9.85599449e-02  1.10000000e+00 
 3.62013770e-04  1.59999868e+00 -9.85519449e-02  1.10000000e+00 
 3.64013770e-04  1.60000127e+00 -9.85439449e-02  1.10000000e+00 
 3.66013770e-04  1.59999868e+00 -9.85359449e-02  1.10000000e+00 
 3.68013770e-04  1.60000127e+00 -9.85279449e-02  1.10000000e+00 
 3.70013770e-04  1.59999868e+00 -9.85199449e-02  1.10000000e+00 
 3.72013770e-04  1.60000127e+00 -9.85119449e-02  1.10000000e+00 
 3.74013770e-04  1.59999868e+00 -9.85039449e-02  1.10000000e+00 
 3.76013770e-04  1.60000127e+00 -9.84959449e-02  1.10000000e+00 
 3.78013770e-04  1.59999868e+00 -9.84879449e-02  1.10000000e+00 
 3.80013770e-04  1.60000127e+00 -9.84799449e-02  1.10000000e+00 
 3.82013770e-04  1.59999868e+00 -9.84719449e-02  1.10000000e+00 
 3.84013770e-04  1.60000126e+00 -9.84639449e-02  1.10000000e+00 
 3.86013770e-04  1.59999868e+00 -9.84559449e-02  1.10000000e+00 
 3.88013770e-04  1.60000126e+00 -9.84479449e-02  1.10000000e+00 
 3.90013770e-04  1.59999868e+00 -9.84399449e-02  1.10000000e+00 
 3.92013770e-04  1.60000126e+00 -9.84319449e-02  1.10000000e+00 
 3.94013770e-04  1.59999868e+00 -9.84239449e-02  1.10000000e+00 
 3.96013770e-04  1.60000126e+00 -9.84159449e-02  1.10000000e+00 
 3.98013770e-04  1.59999868e+00 -9.84079449e-02  1.10000000e+00 
 4.00013770e-04  1.60000126e+00 -9.83999449e-02  1.10000000e+00 
 4.02013770e-04  1.59999868e+00 -9.83919449e-02  1.10000000e+00 
 4.04013770e-04  1.60000126e+00 -9.83839449e-02  1.10000000e+00 
 4.06013770e-04  1.59999868e+00 -9.83759449e-02  1.10000000e+00 
 4.08013770e-04  1.60000126e+00 -9.83679449e-02  1.10000000e+00 
 4.10013770e-04  1.59999868e+00 -9.83599449e-02  1.10000000e+00 
 4.12013770e-04  1.60000126e+00 -9.83519449e-02  1.10000000e+00 
 4.14013770e-04  1.59999868e+00 -9.83439449e-02  1.10000000e+00 
 4.16013770e-04  1.60000126e+00 -9.83359449e-02  1.10000000e+00 
 4.18013770e-04  1.59999868e+00 -9.83279449e-02  1.10000000e+00 
 4.20013770e-04  1.60000126e+00 -9.83199449e-02  1.10000000e+00 
 4.22013770e-04  1.59999868e+00 -9.83119449e-02  1.10000000e+00 
 4.24013770e-04  1.60000126e+00 -9.83039449e-02  1.10000000e+00 
 4.26013770e-04  1.59999868e+00 -9.82959449e-02  1.10000000e+00 
 4.28013770e-04  1.60000126e+00 -9.82879449e-02  1.10000000e+00 
 4.30013770e-04  1.59999868e+00 -9.82799449e-02  1.10000000e+00 
 4.32013770e-04  1.60000126e+00 -9.82719449e-02  1.10000000e+00 
 4.34013770e-04  1.59999868e+00 -9.82639449e-02  1.10000000e+00 
 4.36013770e-04  1.60000126e+00 -9.82559449e-02  1.10000000e+00 
 4.38013770e-04  1.59999868e+00 -9.82479449e-02  1.10000000e+00 
 4.40013770e-04  1.60000126e+00 -9.82399449e-02  1.10000000e+00 
 4.42013770e-04  1.59999868e+00 -9.82319449e-02  1.10000000e+00 
 4.44013770e-04  1.60000126e+00 -9.82239449e-02  1.10000000e+00 
 4.46013770e-04  1.59999868e+00 -9.82159449e-02  1.10000000e+00 
 4.48013770e-04  1.60000126e+00 -9.82079449e-02  1.10000000e+00 
 4.50013770e-04  1.59999868e+00 -9.81999449e-02  1.10000000e+00 
 4.52013770e-04  1.60000126e+00 -9.81919449e-02  1.10000000e+00 
 4.54013770e-04  1.59999868e+00 -9.81839449e-02  1.10000000e+00 
 4.56013770e-04  1.60000126e+00 -9.81759449e-02  1.10000000e+00 
 4.58013770e-04  1.59999868e+00 -9.81679449e-02  1.10000000e+00 
 4.60013770e-04  1.60000126e+00 -9.81599449e-02  1.10000000e+00 
 4.62013770e-04  1.59999868e+00 -9.81519449e-02  1.10000000e+00 
 4.64013770e-04  1.60000126e+00 -9.81439449e-02  1.10000000e+00 
 4.66013770e-04  1.59999868e+00 -9.81359449e-02  1.10000000e+00 
 4.68013770e-04  1.60000126e+00 -9.81279449e-02  1.10000000e+00 
 4.70013770e-04  1.59999868e+00 -9.81199449e-02  1.10000000e+00 
 4.72013770e-04  1.60000126e+00 -9.81119449e-02  1.10000000e+00 
 4.74013770e-04  1.59999868e+00 -9.81039449e-02  1.10000000e+00 
 4.76013770e-04  1.60000126e+00 -9.80959449e-02  1.10000000e+00 
 4.78013770e-04  1.59999868e+00 -9.80879449e-02  1.10000000e+00 
 4.80013770e-04  1.60000126e+00 -9.80799449e-02  1.10000000e+00 
 4.82013770e-04  1.59999868e+00 -9.80719449e-02  1.10000000e+00 
 4.84013770e-04  1.60000126e+00 -9.80639449e-02  1.10000000e+00 
 4.86013770e-04  1.59999868e+00 -9.80559449e-02  1.10000000e+00 
 4.88013770e-04  1.60000126e+00 -9.80479449e-02  1.10000000e+00 
 4.90013770e-04  1.59999868e+00 -9.80399449e-02  1.10000000e+00 
 4.92013770e-04  1.60000126e+00 -9.80319449e-02  1.10000000e+00 
 4.94013770e-04  1.59999868e+00 -9.80239449e-02  1.10000000e+00 
 4.96013770e-04  1.60000126e+00 -9.80159449e-02  1.10000000e+00 
 4.98013770e-04  1.59999868e+00 -9.80079449e-02  1.10000000e+00 
 5.00013770e-04  1.60000126e+00 -9.79999449e-02  1.10000000e+00 
 5.00100100e-04  1.59999868e+00 -9.79995996e-02  1.10000000e+00 
 5.00100110e-04  1.59995572e+00 -9.79995996e-02  1.10000000e+00 
 5.00100130e-04  1.59997942e+00 -9.79995995e-02  1.10000000e+00 
 5.00100170e-04  1.59997229e+00 -9.79995993e-02  1.10000000e+00 
 5.00100200e-04  1.60011368e+00 -9.79995992e-02  1.10000000e+00 
 5.00100208e-04  1.60028675e+00 -9.79995992e-02  1.10000000e+00 
 5.00100224e-04  1.60032420e+00 -9.79995991e-02  1.10000000e+00 
 5.00100256e-04  1.59987904e+00 -9.79995990e-02  1.10000000e+00 
 5.00100320e-04  1.59992903e+00 -9.79995987e-02  1.10000000e+00 
 5.00100438e-04  1.60033105e+00 -9.79995982e-02  1.10000000e+00 
 5.00100565e-04  1.60245199e+00 -9.79995977e-02  1.10000000e+00 
 5.00100697e-04  1.59728696e+00 -9.79995972e-02  1.10000000e+00 
 5.00100959e-04  1.60263636e+00 -9.79995962e-02  1.10000000e+00 
 5.00101243e-04  1.59752120e+00 -9.79995950e-02  1.10000000e+00 
 5.00101740e-04  1.60241030e+00 -9.79995930e-02  1.10000000e+00 
 5.00102442e-04  1.59768254e+00 -9.79995902e-02  1.10000000e+00 
 5.00103515e-04  1.60229618e+00 -9.79995859e-02  1.10000000e+00 
