 time            v(Q)            v(A)-v(B)       v(B)           
 0.00000000e+00  2.67657754e-09  1.60000000e+00  0.00000000e+00 
 1.00000000e-09  2.67657748e-09  1.60000000e+00  0.00000000e+00 
 2.00000000e-09  2.67657749e-09  1.60000001e+00  0.00000000e+00 
 4.00000000e-09  2.67657749e-09  1.60000002e+00  0.00000000e+00 
 8.00000000e-09  2.67657748e-09  1.60000003e+00  0.00000000e+00 
 1.60000000e-08  2.67657754e-09  1.60000006e+00  0.00000000e+00 
 3.20000000e-08  2.67657752e-09  1.60000013e+00  0.00000000e+00 
 6.40000000e-08  2.67657754e-09  1.60000026e+00  0.00000000e+00 
 1.00000000e-07  2.67657753e-09  1.60000040e+00  0.00000000e+00 
 1.00010000e-07  1.20589028e-05  1.60000040e+00  0.00000000e+00 
 1.00030000e-07 -4.57717917e-06  1.60000040e+00  0.00000000e+00 
 1.00070000e-07 -4.17374105e-05  1.60000040e+00  0.00000000e+00 
 1.00100000e-07 -1.89901201e-04  1.60000040e+00  0.00000000e+00 
 1.00107586e-07 -3.43189641e-04  1.60000040e+00  0.00000000e+00 
 1.00122758e-07  1.06632968e-03  1.60000040e+00  0.00000000e+00 
 1.00153101e-07  5.52797788e-03  1.60000040e+00  0.00000000e+00 
 1.00197114e-07 -2.16655758e-01  1.60000040e+00  0.00000000e+00 
 1.00244157e-07  2.84236919e-01  1.60000040e+00  0.00000000e+00 
 1.00306423e-07  1.15521060e+00  1.60000040e+00  0.00000000e+00 
 1.00408604e-07  1.66768289e+00  1.60000040e+00  0.00000000e+00 
 1.00507915e-07  1.80365291e+00  1.60000040e+00  0.00000000e+00 
 1.00672064e-07  1.78951938e+00  1.60000040e+00  0.00000000e+00 
 1.00829343e-07  1.81182884e+00  1.60000040e+00  0.00000000e+00 
 1.01132074e-07  1.78835594e+00  1.60000040e+00  0.00000000e+00 
 1.01543009e-07  1.81165285e+00  1.60000041e+00  0.00000000e+00 
 1.02212630e-07  1.78855486e+00  1.60000041e+00  0.00000000e+00 
 1.03360583e-07  1.81151257e+00  1.60000041e+00  0.00000000e+00 
 1.05161386e-07  1.78860074e+00  1.60000042e+00  0.00000000e+00 
 1.08315678e-07  1.81145381e+00  1.60000043e+00  0.00000000e+00 
 1.13663821e-07  1.78862560e+00  1.60000045e+00  0.00000000e+00 
 1.24360107e-07  1.81143552e+00  1.60000050e+00  0.00000000e+00 
 1.45752680e-07  1.78860255e+00  1.60000058e+00  0.00000000e+00 
 1.88537825e-07  1.81143045e+00  1.60000075e+00  0.00000000e+00 
 2.74108116e-07  1.78860529e+00  1.60000110e+00  0.00000000e+00 
 4.45248698e-07  1.81142919e+00  1.60000178e+00  0.00000000e+00 
 7.87529861e-07  1.78860602e+00  1.60000315e+00  0.00000000e+00 
 1.47209219e-06  1.81142888e+00  1.60000589e+00  0.00000000e+00 
 2.84121684e-06  1.78860621e+00  1.60001136e+00  0.00000000e+00 
 4.84121684e-06  1.81142671e+00  1.60001936e+00  0.00000000e+00 
 6.84121684e-06  1.78867725e+00  1.60002736e+00  0.00000000e+00 
 8.84121684e-06  1.81142584e+00  1.60003536e+00  0.00000000e+00 
 1.08412168e-05  1.78867734e+00  1.60004336e+00  0.00000000e+00 
 1.28412168e-05  1.81142577e+00  1.60005136e+00  0.00000000e+00 
 1.48412168e-05  1.78867740e+00  1.60005936e+00  0.00000000e+00 
 1.68412168e-05  1.81142571e+00  1.60006736e+00  0.00000000e+00 
 1.88412168e-05  1.78867747e+00  1.60007536e+00  0.00000000e+00 
 2.08412168e-05  1.81142565e+00  1.60008336e+00  0.00000000e+00 
 2.28412168e-05  1.78867753e+00  1.60009136e+00  0.00000000e+00 
 2.48412168e-05  1.81142558e+00  1.60009936e+00  0.00000000e+00 
 2.68412168e-05  1.78867759e+00  1.60010736e+00  0.00000000e+00 
 2.88412168e-05  1.81142552e+00  1.60011536e+00  0.00000000e+00 
 3.08412168e-05  1.78867765e+00  1.60012336e+00  0.00000000e+00 
 3.28412168e-05  1.81142545e+00  1.60013136e+00  0.00000000e+00 
 3.48412168e-05  1.78867771e+00  1.60013936e+00  0.00000000e+00 
 3.68412168e-05  1.81142539e+00  1.60014736e+00  0.00000000e+00 
 3.88412168e-05  1.78867777e+00  1.60015536e+00  0.00000000e+00 
 4.08412168e-05  1.81142533e+00  1.60016336e+00  0.00000000e+00 
 4.28412168e-05  1.78867784e+00  1.60017136e+00  0.00000000e+00 
 4.48412168e-05  1.81142526e+00  1.60017936e+00  0.00000000e+00 
 4.68412168e-05  1.78867790e+00  1.60018736e+00  0.00000000e+00 
 4.88412168e-05  1.81142520e+00  1.60019536e+00  0.00000000e+00 
 5.08412168e-05  1.78867796e+00  1.60020336e+00  0.00000000e+00 
 5.28412168e-05  1.81142514e+00  1.60021136e+00  0.00000000e+00 
 5.48412168e-05  1.78867802e+00  1.60021936e+00  0.00000000e+00 
 5.68412168e-05  1.81142507e+00  1.60022736e+00  0.00000000e+00 
 5.88412168e-05  1.78867808e+00  1.60023536e+00  0.00000000e+00 
 6.08412168e-05  1.81142501e+00  1.60024336e+00  0.00000000e+00 
 6.28412168e-05  1.78867814e+00  1.60025136e+00  0.00000000e+00 
 6.48412168e-05  1.81142495e+00  1.60025936e+00  0.00000000e+00 
 6.68412168e-05  1.78867820e+00  1.60026736e+00  0.00000000e+00 
 6.88412168e-05  1.81142488e+00  1.60027536e+00  0.00000000e+00 
 7.08412168e-05  1.78867827e+00  1.60028336e+00  0.00000000e+00 
 7.28412168e-05  1.81142482e+00  1.60029136e+00  0.00000000e+00 
 7.48412168e-05  1.78867833e+00  1.60029936e+00  0.00000000e+00 
 7.68412168e-05  1.81142476e+00  1.60030736e+00  0.00000000e+00 
 7.88412168e-05  1.78867839e+00  1.60031536e+00  0.00000000e+00 
 8.08412168e-05  1.81142469e+00  1.60032336e+00  0.00000000e+00 
 8.28412168e-05  1.78867845e+00  1.60033136e+00  0.00000000e+00 
 8.48412168e-05  1.81142463e+00  1.60033936e+00  0.00000000e+00 
 8.68412168e-05  1.78867851e+00  1.60034736e+00  0.00000000e+00 
 8.88412168e-05  1.81142457e+00  1.60035536e+00  0.00000000e+00 
 9.08412168e-05  1.78867857e+00  1.60036336e+00  0.00000000e+00 
 9.28412168e-05  1.81142450e+00  1.60037136e+00  0.00000000e+00 
 9.48412168e-05  1.78867863e+00  1.60037936e+00  0.00000000e+00 
 9.68412168e-05  1.81142444e+00  1.60038736e+00  0.00000000e+00 
 9.88412168e-05  1.78867869e+00  1.60039536e+00  0.00000000e+00 
 1.00841217e-04  1.81142438e+00  1.60040336e+00  0.00000000e+00 
 1.02841217e-04  1.78867876e+00  1.60041136e+00  0.00000000e+00 
 1.04841217e-04  1.81142431e+00  1.60041936e+00  0.00000000e+00 
 1.06841217e-04  1.78867882e+00  1.60042736e+00  0.00000000e+00 
 1.08841217e-04  1.81142425e+00  1.60043536e+00  0.00000000e+00 
 1.10841217e-04  1.78867888e+00  1.60044336e+00  0.00000000e+00 
 1.12841217e-04  1.81142419e+00  1.60045136e+00  0.00000000e+00 
 1.14841217e-04  1.78867894e+00  1.60045936e+00  0.00000000e+00 
 1.16841217e-04  1.81142412e+00  1.60046736e+00  0.00000000e+00 
 1.18841217e-04  1.78867900e+00  1.60047536e+00  0.00000000e+00 
 1.20841217e-04  1.81142406e+00  1.60048336e+00  0.00000000e+00 
 1.22841217e-04  1.78867906e+00  1.60049136e+00  0.00000000e+00 
 1.24841217e-04  1.81142399e+00  1.60049936e+00  0.00000000e+00 
 1.26841217e-04  1.78867912e+00  1.60050736e+00  0.00000000e+00 
 1.28841217e-04  1.81142393e+00  1.60051536e+00  0.00000000e+00 
 1.30841217e-04  1.78867918e+00  1.60052336e+00  0.00000000e+00 
 1.32841217e-04  1.81142387e+00  1.60053136e+00  0.00000000e+00 
 1.34841217e-04  1.78867925e+00  1.60053936e+00  0.00000000e+00 
 1.36841217e-04  1.81142380e+00  1.60054736e+00  0.00000000e+00 
 1.38841217e-04  1.78867931e+00  1.60055536e+00  0.00000000e+00 
 1.40841217e-04  1.81142374e+00  1.60056336e+00  0.00000000e+00 
 1.42841217e-04  1.78867937e+00  1.60057136e+00  0.00000000e+00 
 1.44841217e-04  1.81142368e+00  1.60057936e+00  0.00000000e+00 
 1.46841217e-04  1.78867943e+00  1.60058736e+00  0.00000000e+00 
 1.48841217e-04  1.81142361e+00  1.60059536e+00  0.00000000e+00 
 1.50841217e-04  1.78867949e+00  1.60060336e+00  0.00000000e+00 
 1.52841217e-04  1.81142355e+00  1.60061136e+00  0.00000000e+00 
 1.54841217e-04  1.78867955e+00  1.60061936e+00  0.00000000e+00 
 1.56841217e-04  1.81142349e+00  1.60062736e+00  0.00000000e+00 
 1.58841217e-04  1.78867961e+00  1.60063536e+00  0.00000000e+00 
 1.60841217e-04  1.81142342e+00  1.60064336e+00  0.00000000e+00 
 1.62841217e-04  1.78867967e+00  1.60065136e+00  0.00000000e+00 
 1.64841217e-04  1.81142336e+00  1.60065936e+00  0.00000000e+00 
 1.66841217e-04  1.78867974e+00  1.60066736e+00  0.00000000e+00 
 1.68841217e-04  1.81142330e+00  1.60067536e+00  0.00000000e+00 
 1.70841217e-04  1.78867980e+00  1.60068336e+00  0.00000000e+00 
 1.72841217e-04  1.81142323e+00  1.60069136e+00  0.00000000e+00 
 1.74841217e-04  1.78867986e+00  1.60069936e+00  0.00000000e+00 
 1.76841217e-04  1.81142317e+00  1.60070736e+00  0.00000000e+00 
 1.78841217e-04  1.78867992e+00  1.60071536e+00  0.00000000e+00 
 1.80841217e-04  1.81142311e+00  1.60072336e+00  0.00000000e+00 
 1.82841217e-04  1.78867998e+00  1.60073136e+00  0.00000000e+00 
 1.84841217e-04  1.81142304e+00  1.60073936e+00  0.00000000e+00 
 1.86841217e-04  1.78868004e+00  1.60074736e+00  0.00000000e+00 
 1.88841217e-04  1.81142298e+00  1.60075536e+00  0.00000000e+00 
 1.90841217e-04  1.78868010e+00  1.60076336e+00  0.00000000e+00 
 1.92841217e-04  1.81142292e+00  1.60077136e+00  0.00000000e+00 
 1.94841217e-04  1.78868017e+00  1.60077936e+00  0.00000000e+00 
 1.96841217e-04  1.81142285e+00  1.60078736e+00  0.00000000e+00 
 1.98841217e-04  1.78868023e+00  1.60079536e+00  0.00000000e+00 
 2.00000000e-04  1.81142249e+00  1.60080000e+00  0.00000000e+00 
 2.00131057e-04  1.79999961e+00 -9.91994758e-02  1.70000000e+00 
 2.00393172e-04  1.80000026e+00 -9.91984273e-02  1.70000000e+00 
 2.00625202e-04  1.79999961e+00 -9.91974992e-02  1.70000000e+00 
 2.00881610e-04  1.80000026e+00 -9.91964736e-02  1.70000000e+00 
 2.01394426e-04  1.79999961e+00 -9.91944223e-02  1.70000000e+00 
 2.02420058e-04  1.80000026e+00 -9.91903198e-02  1.70000000e+00 
 2.04420058e-04  1.79999961e+00 -9.91823198e-02  1.70000000e+00 
 2.06420058e-04  1.80000027e+00 -9.91743198e-02  1.70000000e+00 
 2.08420058e-04  1.79999961e+00 -9.91663198e-02  1.70000000e+00 
 2.10420058e-04  1.80000027e+00 -9.91583198e-02  1.70000000e+00 
 2.12420058e-04  1.79999961e+00 -9.91503198e-02  1.70000000e+00 
 2.14420058e-04  1.80000027e+00 -9.91423198e-02  1.70000000e+00 
 2.16420058e-04  1.79999961e+00 -9.91343198e-02  1.70000000e+00 
 2.18420058e-04  1.80000027e+00 -9.91263198e-02  1.70000000e+00 
 2.20420058e-04  1.79999961e+00 -9.91183198e-02  1.70000000e+00 
 2.22420058e-04  1.80000027e+00 -9.91103198e-02  1.70000000e+00 
 2.24420058e-04  1.79999961e+00 -9.91023198e-02  1.70000000e+00 
 2.26420058e-04  1.80000027e+00 -9.90943198e-02  1.70000000e+00 
 2.28420058e-04  1.79999961e+00 -9.90863198e-02  1.70000000e+00 
 2.30420058e-04  1.80000027e+00 -9.90783198e-02  1.70000000e+00 
 2.32420058e-04  1.79999961e+00 -9.90703198e-02  1.70000000e+00 
 2.34420058e-04  1.80000027e+00 -9.90623198e-02  1.70000000e+00 
 2.36420058e-04  1.79999961e+00 -9.90543198e-02  1.70000000e+00 
 2.38420058e-04  1.80000027e+00 -9.90463198e-02  1.70000000e+00 
 2.40420058e-04  1.79999961e+00 -9.90383198e-02  1.70000000e+00 
 2.42420058e-04  1.80000027e+00 -9.90303198e-02  1.70000000e+00 
 2.44420058e-04  1.79999961e+00 -9.90223198e-02  1.70000000e+00 
 2.46420058e-04  1.80000027e+00 -9.90143198e-02  1.70000000e+00 
 2.48420058e-04  1.79999961e+00 -9.90063198e-02  1.70000000e+00 
 2.50420058e-04  1.80000027e+00 -9.89983198e-02  1.70000000e+00 
 2.52420058e-04  1.79999961e+00 -9.89903198e-02  1.70000000e+00 
 2.54420058e-04  1.80000027e+00 -9.89823198e-02  1.70000000e+00 
 2.56420058e-04  1.79999961e+00 -9.89743198e-02  1.70000000e+00 
 2.58420058e-04  1.80000027e+00 -9.89663198e-02  1.70000000e+00 
 2.60420058e-04  1.79999961e+00 -9.89583198e-02  1.70000000e+00 
 2.62420058e-04  1.80000027e+00 -9.89503198e-02  1.70000000e+00 
 2.64420058e-04  1.79999961e+00 -9.89423198e-02  1.70000000e+00 
 2.66420058e-04  1.80000027e+00 -9.89343198e-02  1.70000000e+00 
 2.68420058e-04  1.79999961e+00 -9.89263198e-02  1.70000000e+00 
 2.70420058e-04  1.80000027e+00 -9.89183198e-02  1.70000000e+00 
 2.72420058e-04  1.79999961e+00 -9.89103198e-02  1.70000000e+00 
 2.74420058e-04  1.80000027e+00 -9.89023198e-02  1.70000000e+00 
 2.76420058e-04  1.79999961e+00 -9.88943198e-02  1.70000000e+00 
 2.78420058e-04  1.80000027e+00 -9.88863198e-02  1.70000000e+00 
 2.80420058e-04  1.79999961e+00 -9.88783198e-02  1.70000000e+00 
 2.82420058e-04  1.80000027e+00 -9.88703198e-02  1.70000000e+00 
 2.84420058e-04  1.79999961e+00 -9.88623198e-02  1.70000000e+00 
 2.86420058e-04  1.80000027e+00 -9.88543198e-02  1.70000000e+00 
 2.88420058e-04  1.79999961e+00 -9.88463198e-02  1.70000000e+00 
 2.90420058e-04  1.80000027e+00 -9.88383198e-02  1.70000000e+00 
 2.92420058e-04  1.79999961e+00 -9.88303198e-02  1.70000000e+00 
 2.94420058e-04  1.80000027e+00 -9.88223198e-02  1.70000000e+00 
 2.96420058e-04  1.79999961e+00 -9.88143198e-02  1.70000000e+00 
 2.98420058e-04  1.80000027e+00 -9.88063198e-02  1.70000000e+00 
 3.00420058e-04  1.79999961e+00 -9.87983198e-02  1.70000000e+00 
 3.02420058e-04  1.80000027e+00 -9.87903198e-02  1.70000000e+00 
 3.04420058e-04  1.79999961e+00 -9.87823198e-02  1.70000000e+00 
 3.06420058e-04  1.80000027e+00 -9.87743198e-02  1.70000000e+00 
 3.08420058e-04  1.79999961e+00 -9.87663198e-02  1.70000000e+00 
 3.10420058e-04  1.80000027e+00 -9.87583198e-02  1.70000000e+00 
 3.12420058e-04  1.79999961e+00 -9.87503198e-02  1.70000000e+00 
 3.14420058e-04  1.80000027e+00 -9.87423198e-02  1.70000000e+00 
 3.16420058e-04  1.79999961e+00 -9.87343198e-02  1.70000000e+00 
 3.18420058e-04  1.80000027e+00 -9.87263198e-02  1.70000000e+00 
 3.20420058e-04  1.79999961e+00 -9.87183198e-02  1.70000000e+00 
 3.22420058e-04  1.80000027e+00 -9.87103198e-02  1.70000000e+00 
 3.24420058e-04  1.79999961e+00 -9.87023198e-02  1.70000000e+00 
 3.26420058e-04  1.80000027e+00 -9.86943198e-02  1.70000000e+00 
 3.28420058e-04  1.79999961e+00 -9.86863198e-02  1.70000000e+00 
 3.30420058e-04  1.80000027e+00 -9.86783198e-02  1.70000000e+00 
 3.32420058e-04  1.79999961e+00 -9.86703198e-02  1.70000000e+00 
 3.34420058e-04  1.80000027e+00 -9.86623198e-02  1.70000000e+00 
 3.36420058e-04  1.79999961e+00 -9.86543198e-02  1.70000000e+00 
 3.38420058e-04  1.80000027e+00 -9.86463198e-02  1.70000000e+00 
 3.40420058e-04  1.79999961e+00 -9.86383198e-02  1.70000000e+00 
 3.42420058e-04  1.80000027e+00 -9.86303198e-02  1.70000000e+00 
 3.44420058e-04  1.79999961e+00 -9.86223198e-02  1.70000000e+00 
 3.46420058e-04  1.80000027e+00 -9.86143198e-02  1.70000000e+00 
 3.48420058e-04  1.79999961e+00 -9.86063198e-02  1.70000000e+00 
 3.50420058e-04  1.80000027e+00 -9.85983198e-02  1.70000000e+00 
 3.52420058e-04  1.79999961e+00 -9.85903198e-02  1.70000000e+00 
 3.54420058e-04  1.80000027e+00 -9.85823198e-02  1.70000000e+00 
 3.56420058e-04  1.79999961e+00 -9.85743198e-02  1.70000000e+00 
 3.58420058e-04  1.80000027e+00 -9.85663198e-02  1.70000000e+00 
 3.60420058e-04  1.79999961e+00 -9.85583198e-02  1.70000000e+00 
 3.62420058e-04  1.80000027e+00 -9.85503198e-02  1.70000000e+00 
 3.64420058e-04  1.79999961e+00 -9.85423198e-02  1.70000000e+00 
 3.66420058e-04  1.80000027e+00 -9.85343198e-02  1.70000000e+00 
 3.68420058e-04  1.79999961e+00 -9.85263198e-02  1.70000000e+00 
 3.70420058e-04  1.80000027e+00 -9.85183198e-02  1.70000000e+00 
 3.72420058e-04  1.79999961e+00 -9.85103198e-02  1.70000000e+00 
 3.74420058e-04  1.80000027e+00 -9.85023198e-02  1.70000000e+00 
 3.76420058e-04  1.79999961e+00 -9.84943198e-02  1.70000000e+00 
 3.78420058e-04  1.80000027e+00 -9.84863198e-02  1.70000000e+00 
 3.80420058e-04  1.79999961e+00 -9.84783198e-02  1.70000000e+00 
 3.82420058e-04  1.80000027e+00 -9.84703198e-02  1.70000000e+00 
 3.84420058e-04  1.79999961e+00 -9.84623198e-02  1.70000000e+00 
 3.86420058e-04  1.80000027e+00 -9.84543198e-02  1.70000000e+00 
 3.88420058e-04  1.79999961e+00 -9.84463198e-02  1.70000000e+00 
 3.90420058e-04  1.80000027e+00 -9.84383198e-02  1.70000000e+00 
 3.92420058e-04  1.79999961e+00 -9.84303198e-02  1.70000000e+00 
 3.94420058e-04  1.80000027e+00 -9.84223198e-02  1.70000000e+00 
 3.96420058e-04  1.79999961e+00 -9.84143198e-02  1.70000000e+00 
 3.98420058e-04  1.80000027e+00 -9.84063198e-02  1.70000000e+00 
 4.00420058e-04  1.79999961e+00 -9.83983198e-02  1.70000000e+00 
 4.02420058e-04  1.80000027e+00 -9.83903198e-02  1.70000000e+00 
 4.04420058e-04  1.79999961e+00 -9.83823198e-02  1.70000000e+00 
 4.06420058e-04  1.80000027e+00 -9.83743198e-02  1.70000000e+00 
 4.08420058e-04  1.79999961e+00 -9.83663198e-02  1.70000000e+00 
 4.10420058e-04  1.80000027e+00 -9.83583198e-02  1.70000000e+00 
 4.12420058e-04  1.79999961e+00 -9.83503198e-02  1.70000000e+00 
 4.14420058e-04  1.80000027e+00 -9.83423198e-02  1.70000000e+00 
 4.16420058e-04  1.79999961e+00 -9.83343198e-02  1.70000000e+00 
 4.18420058e-04  1.80000027e+00 -9.83263198e-02  1.70000000e+00 
 4.20420058e-04  1.79999961e+00 -9.83183198e-02  1.70000000e+00 
 4.22420058e-04  1.80000027e+00 -9.83103198e-02  1.70000000e+00 
 4.24420058e-04  1.79999961e+00 -9.83023198e-02  1.70000000e+00 
 4.26420058e-04  1.80000027e+00 -9.82943198e-02  1.70000000e+00 
 4.28420058e-04  1.79999961e+00 -9.82863198e-02  1.70000000e+00 
 4.30420058e-04  1.80000027e+00 -9.82783198e-02  1.70000000e+00 
 4.32420058e-04  1.79999961e+00 -9.82703198e-02  1.70000000e+00 
 4.34420058e-04  1.80000027e+00 -9.82623198e-02  1.70000000e+00 
 4.36420058e-04  1.79999961e+00 -9.82543198e-02  1.70000000e+00 
 4.38420058e-04  1.80000027e+00 -9.82463198e-02  1.70000000e+00 
 4.40420058e-04  1.79999961e+00 -9.82383198e-02  1.70000000e+00 
 4.42420058e-04  1.80000027e+00 -9.82303198e-02  1.70000000e+00 
 4.44420058e-04  1.79999961e+00 -9.82223198e-02  1.70000000e+00 
 4.46420058e-04  1.80000027e+00 -9.82143198e-02  1.70000000e+00 
 4.48420058e-04  1.79999961e+00 -9.82063198e-02  1.70000000e+00 
 4.50420058e-04  1.80000027e+00 -9.81983198e-02  1.70000000e+00 
 4.52420058e-04  1.79999961e+00 -9.81903198e-02  1.70000000e+00 
 4.54420058e-04  1.80000027e+00 -9.81823198e-02  1.70000000e+00 
 4.56420058e-04  1.79999961e+00 -9.81743198e-02  1.70000000e+00 
 4.58420058e-04  1.80000027e+00 -9.81663198e-02  1.70000000e+00 
 4.60420058e-04  1.79999960e+00 -9.81583198e-02  1.70000000e+00 
 4.62420058e-04  1.80000027e+00 -9.81503198e-02  1.70000000e+00 
 4.64420058e-04  1.79999960e+00 -9.81423198e-02  1.70000000e+00 
 4.66420058e-04  1.80000027e+00 -9.81343198e-02  1.70000000e+00 
 4.68420058e-04  1.79999960e+00 -9.81263198e-02  1.70000000e+00 
 4.70420058e-04  1.80000027e+00 -9.81183198e-02  1.70000000e+00 
 4.72420058e-04  1.79999960e+00 -9.81103198e-02  1.70000000e+00 
 4.74420058e-04  1.80000027e+00 -9.81023198e-02  1.70000000e+00 
 4.76420058e-04  1.79999960e+00 -9.80943198e-02  1.70000000e+00 
 4.78420058e-04  1.80000027e+00 -9.80863198e-02  1.70000000e+00 
 4.80420058e-04  1.79999960e+00 -9.80783198e-02  1.70000000e+00 
 4.82420058e-04  1.80000027e+00 -9.80703198e-02  1.70000000e+00 
 4.84420058e-04  1.79999960e+00 -9.80623198e-02  1.70000000e+00 
 4.86420058e-04  1.80000027e+00 -9.80543198e-02  1.70000000e+00 
 4.88420058e-04  1.79999960e+00 -9.80463198e-02  1.70000000e+00 
 4.90420058e-04  1.80000027e+00 -9.80383198e-02  1.70000000e+00 
 4.92420058e-04  1.79999960e+00 -9.80303198e-02  1.70000000e+00 
 4.94420058e-04  1.80000028e+00 -9.80223198e-02  1.70000000e+00 
 4.96420058e-04  1.79999960e+00 -9.80143198e-02  1.70000000e+00 
 4.98420058e-04  1.80000028e+00 -9.80063198e-02  1.70000000e+00 
 5.00100100e-04  1.79999960e+00 -9.79995996e-02  1.70000000e+00 
 5.00100110e-04  1.79998407e+00 -9.79995996e-02  1.70000000e+00 
 5.00100130e-04  1.79999741e+00 -9.79995995e-02  1.70000000e+00 
 5.00100170e-04  1.79998010e+00 -9.79995993e-02  1.70000000e+00 
 5.00100200e-04  1.80015463e+00 -9.79995992e-02  1.70000000e+00 
 5.00100208e-04  1.80019591e+00 -9.79995992e-02  1.70000000e+00 
 5.00100224e-04  1.80013824e+00 -9.79995991e-02  1.70000000e+00 
 5.00100256e-04  1.80004174e+00 -9.79995990e-02  1.70000000e+00 
 5.00100320e-04  1.79249412e+00 -9.79995987e-02  1.70000000e+00 
 5.00100405e-04  1.80194183e+00 -9.79995984e-02  1.70000000e+00 
 5.00100483e-04  1.79457832e+00 -9.79995981e-02  1.70000000e+00 
 5.00100638e-04  1.80390958e+00 -9.79995974e-02  1.70000000e+00 
 5.00100829e-04  1.79628985e+00 -9.79995967e-02  1.70000000e+00 
 5.00101211e-04  1.80345287e+00 -9.79995952e-02  1.70000000e+00 
 5.00101917e-04  1.79655721e+00 -9.79995923e-02  1.70000000e+00 
