 time            v(Q)            v(A)-v(B)       v(B)           
 0.00000000e+00  1.79999999e+00  0.00000000e+00  0.00000000e+00 
 1.00000000e-09  1.79999999e+00  4.00000000e-09  0.00000000e+00 
 2.00000000e-09  1.79999999e+00  8.00000000e-09  0.00000000e+00 
 4.00000000e-09  1.79999999e+00  1.60000000e-08  0.00000000e+00 
 8.00000000e-09  1.79999999e+00  3.20000000e-08  0.00000000e+00 
 1.60000000e-08  1.79999999e+00  6.40000000e-08  0.00000000e+00 
 3.20000000e-08  1.79999999e+00  1.28000000e-07  0.00000000e+00 
 6.40000000e-08  1.79999999e+00  2.56000000e-07  0.00000000e+00 
 1.00000000e-07  1.79999999e+00  4.00000000e-07  0.00000000e+00 
 1.00010000e-07  1.80001220e+00  4.00040000e-07  0.00000000e+00 
 1.00030000e-07  1.79998707e+00  4.00120000e-07  0.00000000e+00 
 1.00070000e-07  1.79993235e+00  4.00280000e-07  0.00000000e+00 
 1.00100000e-07  1.80006907e+00  4.00400000e-07  0.00000000e+00 
 1.00107643e-07  1.80047597e+00  4.00430572e-07  0.00000000e+00 
 1.00122929e-07  1.80055279e+00  4.00491715e-07  0.00000000e+00 
 1.00153500e-07  1.79971488e+00  4.00614002e-07  0.00000000e+00 
 1.00214644e-07  1.79994330e+00  4.00858576e-07  0.00000000e+00 
 1.00287497e-07  1.79936326e+00  4.01149990e-07  0.00000000e+00 
 1.00433204e-07  1.79877270e+00  4.01732817e-07  0.00000000e+00 
 1.00700617e-07  1.79840905e+00  4.02802470e-07  0.00000000e+00 
 1.01115466e-07  1.80405699e+00  4.04461862e-07  0.00000000e+00 
 1.01945162e-07  1.77678209e+00  4.07780648e-07  0.00000000e+00 
 1.02924229e-07  1.62804840e+00  4.11696917e-07  0.00000000e+00 
 1.04377755e-07  1.72129271e+00  4.17511021e-07  0.00000000e+00 
 1.06804000e-07  1.65167049e+00  4.27216002e-07  0.00000000e+00 
 1.09794457e-07  1.71884679e+00  4.39177827e-07  0.00000000e+00 
 1.15775370e-07  1.64460991e+00  4.63101478e-07  0.00000000e+00 
 1.25994159e-07  1.71742264e+00  5.03976636e-07  0.00000000e+00 
 1.41934449e-07  1.64223712e+00  5.67737795e-07  0.00000000e+00 
 1.71035191e-07  1.71709417e+00  6.84140764e-07  0.00000000e+00 
 2.16893411e-07  1.64136505e+00  8.67573642e-07  0.00000000e+00 
 2.95587810e-07  1.71696373e+00  1.18235124e-06  0.00000000e+00 
 4.26193527e-07  1.64106946e+00  1.70477411e-06  0.00000000e+00 
 6.42104528e-07  1.71690557e+00  2.56841811e-06  0.00000000e+00 
 1.00547619e-06  1.64095863e+00  4.02190474e-06  0.00000000e+00 
 1.60566215e-06  1.71689111e+00  6.42264859e-06  0.00000000e+00 
 2.76130555e-06  1.64103927e+00  1.10452222e-05  0.00000000e+00 
 4.76130555e-06  1.71691913e+00  1.90452222e-05  0.00000000e+00 
 6.76130555e-06  1.64073242e+00  2.70452222e-05  0.00000000e+00 
 8.76130555e-06  1.71732774e+00  3.50452222e-05  0.00000000e+00 
 1.07613056e-05  1.64070259e+00  4.30452222e-05  0.00000000e+00 
 1.27613056e-05  1.71732501e+00  5.10452222e-05  0.00000000e+00 
 1.47613056e-05  1.64067239e+00  5.90452222e-05  0.00000000e+00 
 1.67613056e-05  1.71732021e+00  6.70452222e-05  0.00000000e+00 
 1.87613056e-05  1.64064217e+00  7.50452222e-05  0.00000000e+00 
 2.07613056e-05  1.71731533e+00  8.30452222e-05  0.00000000e+00 
 2.27613056e-05  1.64061192e+00  9.10452222e-05  0.00000000e+00 
 2.47613056e-05  1.71731045e+00  9.90452222e-05  0.00000000e+00 
 2.67613056e-05  1.64058166e+00  1.07045222e-04  0.00000000e+00 
 2.87613056e-05  1.71730557e+00  1.15045222e-04  0.00000000e+00 
 3.07613056e-05  1.64055137e+00  1.23045222e-04  0.00000000e+00 
 3.27613056e-05  1.71730069e+00  1.31045222e-04  0.00000000e+00 
 3.47613056e-05  1.64052107e+00  1.39045222e-04  0.00000000e+00 
 3.67613056e-05  1.71729581e+00  1.47045222e-04  0.00000000e+00 
 3.87613056e-05  1.64049074e+00  1.55045222e-04  0.00000000e+00 
 4.07613056e-05  1.71729093e+00  1.63045222e-04  0.00000000e+00 
 4.27613056e-05  1.64046039e+00  1.71045222e-04  0.00000000e+00 
 4.47613056e-05  1.71728606e+00  1.79045222e-04  0.00000000e+00 
 4.67613056e-05  1.64043002e+00  1.87045222e-04  0.00000000e+00 
 4.87613056e-05  1.71728119e+00  1.95045222e-04  0.00000000e+00 
 5.07613056e-05  1.64039963e+00  2.03045222e-04  0.00000000e+00 
 5.27613056e-05  1.71727632e+00  2.11045222e-04  0.00000000e+00 
 5.47613056e-05  1.64036922e+00  2.19045222e-04  0.00000000e+00 
 5.67613056e-05  1.71727146e+00  2.27045222e-04  0.00000000e+00 
 5.87613056e-05  1.64033879e+00  2.35045222e-04  0.00000000e+00 
 6.07613056e-05  1.71726660e+00  2.43045222e-04  0.00000000e+00 
 6.27613056e-05  1.64030833e+00  2.51045222e-04  0.00000000e+00 
 6.47613056e-05  1.71726174e+00  2.59045222e-04  0.00000000e+00 
 6.67613056e-05  1.64027786e+00  2.67045222e-04  0.00000000e+00 
 6.87613056e-05  1.71725688e+00  2.75045222e-04  0.00000000e+00 
 7.07613056e-05  1.64024736e+00  2.83045222e-04  0.00000000e+00 
 7.27613056e-05  1.71725203e+00  2.91045222e-04  0.00000000e+00 
 7.47613056e-05  1.64021684e+00  2.99045222e-04  0.00000000e+00 
 7.67613056e-05  1.71724718e+00  3.07045222e-04  0.00000000e+00 
 7.87613056e-05  1.64018630e+00  3.15045222e-04  0.00000000e+00 
 8.07613056e-05  1.71724233e+00  3.23045222e-04  0.00000000e+00 
 8.27613056e-05  1.64015574e+00  3.31045222e-04  0.00000000e+00 
 8.47613056e-05  1.71723749e+00  3.39045222e-04  0.00000000e+00 
 8.67613056e-05  1.64012515e+00  3.47045222e-04  0.00000000e+00 
 8.87613056e-05  1.71723264e+00  3.55045222e-04  0.00000000e+00 
 9.07613056e-05  1.64009455e+00  3.63045222e-04  0.00000000e+00 
 9.27613056e-05  1.71722781e+00  3.71045222e-04  0.00000000e+00 
 9.47613056e-05  1.64006392e+00  3.79045222e-04  0.00000000e+00 
 9.67613056e-05  1.71722297e+00  3.87045222e-04  0.00000000e+00 
 9.87613056e-05  1.64003327e+00  3.95045222e-04  0.00000000e+00 
 1.00761306e-04  1.71721814e+00  4.03045222e-04  0.00000000e+00 
 1.02761306e-04  1.64000260e+00  4.11045222e-04  0.00000000e+00 
 1.04761306e-04  1.71721331e+00  4.19045222e-04  0.00000000e+00 
 1.06761306e-04  1.63997191e+00  4.27045222e-04  0.00000000e+00 
 1.08761306e-04  1.71720848e+00  4.35045222e-04  0.00000000e+00 
 1.10761306e-04  1.63994119e+00  4.43045222e-04  0.00000000e+00 
 1.12761306e-04  1.71720366e+00  4.51045222e-04  0.00000000e+00 
 1.14761306e-04  1.63991045e+00  4.59045222e-04  0.00000000e+00 
 1.16761306e-04  1.71719884e+00  4.67045222e-04  0.00000000e+00 
 1.18761306e-04  1.63987969e+00  4.75045222e-04  0.00000000e+00 
 1.20761306e-04  1.71719403e+00  4.83045222e-04  0.00000000e+00 
 1.22761306e-04  1.63984891e+00  4.91045222e-04  0.00000000e+00 
 1.24761306e-04  1.71718921e+00  4.99045222e-04  0.00000000e+00 
 1.26761306e-04  1.63981811e+00  5.07045222e-04  0.00000000e+00 
 1.28761306e-04  1.71718441e+00  5.15045222e-04  0.00000000e+00 
 1.30761306e-04  1.63978728e+00  5.23045222e-04  0.00000000e+00 
 1.32761306e-04  1.71717960e+00  5.31045222e-04  0.00000000e+00 
 1.34761306e-04  1.63975643e+00  5.39045222e-04  0.00000000e+00 
 1.36761306e-04  1.71717480e+00  5.47045222e-04  0.00000000e+00 
 1.38761306e-04  1.63972556e+00  5.55045222e-04  0.00000000e+00 
 1.40761306e-04  1.71717000e+00  5.63045222e-04  0.00000000e+00 
 1.42761306e-04  1.63969467e+00  5.71045222e-04  0.00000000e+00 
 1.44761306e-04  1.71716521e+00  5.79045222e-04  0.00000000e+00 
 1.46761306e-04  1.63966375e+00  5.87045222e-04  0.00000000e+00 
 1.48761306e-04  1.71716042e+00  5.95045222e-04  0.00000000e+00 
 1.50761306e-04  1.63963281e+00  6.03045222e-04  0.00000000e+00 
 1.52761306e-04  1.71715563e+00  6.11045222e-04  0.00000000e+00 
 1.54761306e-04  1.63960185e+00  6.19045222e-04  0.00000000e+00 
 1.56761306e-04  1.71715085e+00  6.27045222e-04  0.00000000e+00 
 1.58761306e-04  1.63957087e+00  6.35045222e-04  0.00000000e+00 
 1.60761306e-04  1.71714607e+00  6.43045222e-04  0.00000000e+00 
 1.62761306e-04  1.63953986e+00  6.51045222e-04  0.00000000e+00 
 1.64761306e-04  1.71714130e+00  6.59045222e-04  0.00000000e+00 
 1.66761306e-04  1.63950883e+00  6.67045222e-04  0.00000000e+00 
 1.68761306e-04  1.71713653e+00  6.75045222e-04  0.00000000e+00 
 1.70761306e-04  1.63947778e+00  6.83045222e-04  0.00000000e+00 
 1.72761306e-04  1.71713176e+00  6.91045222e-04  0.00000000e+00 
 1.74761306e-04  1.63944670e+00  6.99045222e-04  0.00000000e+00 
 1.76761306e-04  1.71712700e+00  7.07045222e-04  0.00000000e+00 
 1.78761306e-04  1.63941560e+00  7.15045222e-04  0.00000000e+00 
 1.80761306e-04  1.71712225e+00  7.23045222e-04  0.00000000e+00 
 1.82761306e-04  1.63938448e+00  7.31045222e-04  0.00000000e+00 
 1.84761306e-04  1.71711749e+00  7.39045222e-04  0.00000000e+00 
 1.86761306e-04  1.63935333e+00  7.47045222e-04  0.00000000e+00 
 1.88761306e-04  1.71711275e+00  7.55045222e-04  0.00000000e+00 
 1.90761306e-04  1.63932216e+00  7.63045222e-04  0.00000000e+00 
 1.92761306e-04  1.71710800e+00  7.71045222e-04  0.00000000e+00 
 1.94761306e-04  1.63929097e+00  7.79045222e-04  0.00000000e+00 
 1.96761306e-04  1.71710326e+00  7.87045222e-04  0.00000000e+00 
 1.98761306e-04  1.63925976e+00  7.95045222e-04  0.00000000e+00 
 2.00000000e-04  1.71698894e+00  8.00000000e-04  0.00000000e+00 
 2.00200000e-04  1.71358201e+00 -9.91992000e-02  1.00000000e-01 
 2.00600000e-04  1.71376222e+00 -9.91976000e-02  1.00000000e-01 
 2.01400000e-04  1.71358096e+00 -9.91944000e-02  1.00000000e-01 
 2.02485927e-04  1.71376045e+00 -9.91900563e-02  1.00000000e-01 
 2.04485927e-04  1.71357920e+00 -9.91820563e-02  1.00000000e-01 
 2.06485927e-04  1.71375766e+00 -9.91740563e-02  1.00000000e-01 
 2.08485927e-04  1.71357675e+00 -9.91660563e-02  1.00000000e-01 
 2.10485927e-04  1.71375482e+00 -9.91580563e-02  1.00000000e-01 
 2.12485927e-04  1.71357429e+00 -9.91500563e-02  1.00000000e-01 
 2.14485927e-04  1.71375198e+00 -9.91420563e-02  1.00000000e-01 
 2.16485927e-04  1.71357182e+00 -9.91340563e-02  1.00000000e-01 
 2.18485927e-04  1.71374915e+00 -9.91260563e-02  1.00000000e-01 
 2.20485927e-04  1.71356936e+00 -9.91180563e-02  1.00000000e-01 
 2.22485927e-04  1.71374631e+00 -9.91100563e-02  1.00000000e-01 
 2.24485927e-04  1.71356690e+00 -9.91020563e-02  1.00000000e-01 
 2.26485927e-04  1.71374347e+00 -9.90940563e-02  1.00000000e-01 
 2.28485927e-04  1.71356443e+00 -9.90860563e-02  1.00000000e-01 
 2.30485927e-04  1.71374064e+00 -9.90780563e-02  1.00000000e-01 
 2.32485927e-04  1.71356197e+00 -9.90700563e-02  1.00000000e-01 
 2.34485927e-04  1.71373780e+00 -9.90620563e-02  1.00000000e-01 
 2.36485927e-04  1.71355950e+00 -9.90540563e-02  1.00000000e-01 
 2.38485927e-04  1.71373496e+00 -9.90460563e-02  1.00000000e-01 
 2.40485927e-04  1.71355704e+00 -9.90380563e-02  1.00000000e-01 
 2.42485927e-04  1.71373213e+00 -9.90300563e-02  1.00000000e-01 
 2.44485927e-04  1.71355457e+00 -9.90220563e-02  1.00000000e-01 
 2.46485927e-04  1.71372929e+00 -9.90140563e-02  1.00000000e-01 
 2.48485927e-04  1.71355210e+00 -9.90060563e-02  1.00000000e-01 
 2.50485927e-04  1.71372645e+00 -9.89980563e-02  1.00000000e-01 
 2.52485927e-04  1.71354964e+00 -9.89900563e-02  1.00000000e-01 
 2.54485927e-04  1.71372362e+00 -9.89820563e-02  1.00000000e-01 
 2.56485927e-04  1.71354717e+00 -9.89740563e-02  1.00000000e-01 
 2.58485927e-04  1.71372078e+00 -9.89660563e-02  1.00000000e-01 
 2.60485927e-04  1.71354470e+00 -9.89580563e-02  1.00000000e-01 
 2.62485927e-04  1.71371795e+00 -9.89500563e-02  1.00000000e-01 
 2.64485927e-04  1.71354223e+00 -9.89420563e-02  1.00000000e-01 
 2.66485927e-04  1.71371511e+00 -9.89340563e-02  1.00000000e-01 
 2.68485927e-04  1.71353976e+00 -9.89260563e-02  1.00000000e-01 
 2.70485927e-04  1.71371227e+00 -9.89180563e-02  1.00000000e-01 
 2.72485927e-04  1.71353728e+00 -9.89100563e-02  1.00000000e-01 
 2.74485927e-04  1.71370944e+00 -9.89020563e-02  1.00000000e-01 
 2.76485927e-04  1.71353481e+00 -9.88940563e-02  1.00000000e-01 
 2.78485927e-04  1.71370660e+00 -9.88860563e-02  1.00000000e-01 
 2.80485927e-04  1.71353234e+00 -9.88780563e-02  1.00000000e-01 
 2.82485927e-04  1.71370377e+00 -9.88700563e-02  1.00000000e-01 
 2.84485927e-04  1.71352987e+00 -9.88620563e-02  1.00000000e-01 
 2.86485927e-04  1.71370094e+00 -9.88540563e-02  1.00000000e-01 
 2.88485927e-04  1.71352739e+00 -9.88460563e-02  1.00000000e-01 
 2.90485927e-04  1.71369810e+00 -9.88380563e-02  1.00000000e-01 
 2.92485927e-04  1.71352492e+00 -9.88300563e-02  1.00000000e-01 
 2.94485927e-04  1.71369527e+00 -9.88220563e-02  1.00000000e-01 
 2.96485927e-04  1.71352244e+00 -9.88140563e-02  1.00000000e-01 
 2.98485927e-04  1.71369243e+00 -9.88060563e-02  1.00000000e-01 
 3.00485927e-04  1.71351996e+00 -9.87980563e-02  1.00000000e-01 
 3.02485927e-04  1.71368960e+00 -9.87900563e-02  1.00000000e-01 
 3.04485927e-04  1.71351749e+00 -9.87820563e-02  1.00000000e-01 
 3.06485927e-04  1.71368676e+00 -9.87740563e-02  1.00000000e-01 
 3.08485927e-04  1.71351501e+00 -9.87660563e-02  1.00000000e-01 
 3.10485927e-04  1.71368393e+00 -9.87580563e-02  1.00000000e-01 
 3.12485927e-04  1.71351253e+00 -9.87500563e-02  1.00000000e-01 
 3.14485927e-04  1.71368110e+00 -9.87420563e-02  1.00000000e-01 
 3.16485927e-04  1.71351005e+00 -9.87340563e-02  1.00000000e-01 
 3.18485927e-04  1.71367826e+00 -9.87260563e-02  1.00000000e-01 
 3.20485927e-04  1.71350757e+00 -9.87180563e-02  1.00000000e-01 
 3.22485927e-04  1.71367543e+00 -9.87100563e-02  1.00000000e-01 
 3.24485927e-04  1.71350509e+00 -9.87020563e-02  1.00000000e-01 
 3.26485927e-04  1.71367260e+00 -9.86940563e-02  1.00000000e-01 
 3.28485927e-04  1.71350261e+00 -9.86860563e-02  1.00000000e-01 
 3.30485927e-04  1.71366977e+00 -9.86780563e-02  1.00000000e-01 
 3.32485927e-04  1.71350013e+00 -9.86700563e-02  1.00000000e-01 
 3.34485927e-04  1.71366693e+00 -9.86620563e-02  1.00000000e-01 
 3.36485927e-04  1.71349764e+00 -9.86540563e-02  1.00000000e-01 
 3.38485927e-04  1.71366410e+00 -9.86460563e-02  1.00000000e-01 
 3.40485927e-04  1.71349516e+00 -9.86380563e-02  1.00000000e-01 
 3.42485927e-04  1.71366127e+00 -9.86300563e-02  1.00000000e-01 
 3.44485927e-04  1.71349268e+00 -9.86220563e-02  1.00000000e-01 
 3.46485927e-04  1.71365844e+00 -9.86140563e-02  1.00000000e-01 
 3.48485927e-04  1.71349019e+00 -9.86060563e-02  1.00000000e-01 
 3.50485927e-04  1.71365560e+00 -9.85980563e-02  1.00000000e-01 
 3.52485927e-04  1.71348771e+00 -9.85900563e-02  1.00000000e-01 
 3.54485927e-04  1.71365277e+00 -9.85820563e-02  1.00000000e-01 
 3.56485927e-04  1.71348522e+00 -9.85740563e-02  1.00000000e-01 
 3.58485927e-04  1.71364994e+00 -9.85660563e-02  1.00000000e-01 
 3.60485927e-04  1.71348274e+00 -9.85580563e-02  1.00000000e-01 
 3.62485927e-04  1.71364711e+00 -9.85500563e-02  1.00000000e-01 
 3.64485927e-04  1.71348025e+00 -9.85420563e-02  1.00000000e-01 
 3.66485927e-04  1.71364428e+00 -9.85340563e-02  1.00000000e-01 
 3.68485927e-04  1.71347776e+00 -9.85260563e-02  1.00000000e-01 
 3.70485927e-04  1.71364145e+00 -9.85180563e-02  1.00000000e-01 
 3.72485927e-04  1.71347527e+00 -9.85100563e-02  1.00000000e-01 
 3.74485927e-04  1.71363861e+00 -9.85020563e-02  1.00000000e-01 
 3.76485927e-04  1.71347278e+00 -9.84940563e-02  1.00000000e-01 
 3.78485927e-04  1.71363578e+00 -9.84860563e-02  1.00000000e-01 
 3.80485927e-04  1.71347029e+00 -9.84780563e-02  1.00000000e-01 
 3.82485927e-04  1.71363295e+00 -9.84700563e-02  1.00000000e-01 
 3.84485927e-04  1.71346780e+00 -9.84620563e-02  1.00000000e-01 
 3.86485927e-04  1.71363012e+00 -9.84540563e-02  1.00000000e-01 
 3.88485927e-04  1.71346531e+00 -9.84460563e-02  1.00000000e-01 
 3.90485927e-04  1.71362729e+00 -9.84380563e-02  1.00000000e-01 
 3.92485927e-04  1.71346282e+00 -9.84300563e-02  1.00000000e-01 
 3.94485927e-04  1.71362446e+00 -9.84220563e-02  1.00000000e-01 
 3.96485927e-04  1.71346033e+00 -9.84140563e-02  1.00000000e-01 
 3.98485927e-04  1.71362163e+00 -9.84060563e-02  1.00000000e-01 
 4.00485927e-04  1.71345783e+00 -9.83980563e-02  1.00000000e-01 
 4.02485927e-04  1.71361880e+00 -9.83900563e-02  1.00000000e-01 
 4.04485927e-04  1.71345534e+00 -9.83820563e-02  1.00000000e-01 
 4.06485927e-04  1.71361597e+00 -9.83740563e-02  1.00000000e-01 
 4.08485927e-04  1.71345285e+00 -9.83660563e-02  1.00000000e-01 
 4.10485927e-04  1.71361314e+00 -9.83580563e-02  1.00000000e-01 
 4.12485927e-04  1.71345035e+00 -9.83500563e-02  1.00000000e-01 
 4.14485927e-04  1.71361031e+00 -9.83420563e-02  1.00000000e-01 
 4.16485927e-04  1.71344785e+00 -9.83340563e-02  1.00000000e-01 
 4.18485927e-04  1.71360748e+00 -9.83260563e-02  1.00000000e-01 
 4.20485927e-04  1.71344536e+00 -9.83180563e-02  1.00000000e-01 
 4.22485927e-04  1.71360465e+00 -9.83100563e-02  1.00000000e-01 
 4.24485927e-04  1.71344286e+00 -9.83020563e-02  1.00000000e-01 
 4.26485927e-04  1.71360182e+00 -9.82940563e-02  1.00000000e-01 
 4.28485927e-04  1.71344036e+00 -9.82860563e-02  1.00000000e-01 
 4.30485927e-04  1.71359899e+00 -9.82780563e-02  1.00000000e-01 
 4.32485927e-04  1.71343786e+00 -9.82700563e-02  1.00000000e-01 
 4.34485927e-04  1.71359616e+00 -9.82620563e-02  1.00000000e-01 
 4.36485927e-04  1.71343537e+00 -9.82540563e-02  1.00000000e-01 
 4.38485927e-04  1.71359333e+00 -9.82460563e-02  1.00000000e-01 
 4.40485927e-04  1.71343287e+00 -9.82380563e-02  1.00000000e-01 
 4.42485927e-04  1.71359051e+00 -9.82300563e-02  1.00000000e-01 
 4.44485927e-04  1.71343037e+00 -9.82220563e-02  1.00000000e-01 
 4.46485927e-04  1.71358768e+00 -9.82140563e-02  1.00000000e-01 
 4.48485927e-04  1.71342787e+00 -9.82060563e-02  1.00000000e-01 
 4.50485927e-04  1.71358485e+00 -9.81980563e-02  1.00000000e-01 
 4.52485927e-04  1.71342536e+00 -9.81900563e-02  1.00000000e-01 
 4.54485927e-04  1.71358202e+00 -9.81820563e-02  1.00000000e-01 
 4.56485927e-04  1.71342286e+00 -9.81740563e-02  1.00000000e-01 
 4.58485927e-04  1.71357919e+00 -9.81660563e-02  1.00000000e-01 
 4.60485927e-04  1.71342036e+00 -9.81580563e-02  1.00000000e-01 
 4.62485927e-04  1.71357636e+00 -9.81500563e-02  1.00000000e-01 
 4.64485927e-04  1.71341786e+00 -9.81420563e-02  1.00000000e-01 
 4.66485927e-04  1.71357354e+00 -9.81340563e-02  1.00000000e-01 
 4.68485927e-04  1.71341535e+00 -9.81260563e-02  1.00000000e-01 
 4.70485927e-04  1.71357071e+00 -9.81180563e-02  1.00000000e-01 
 4.72485927e-04  1.71341285e+00 -9.81100563e-02  1.00000000e-01 
 4.74485927e-04  1.71356788e+00 -9.81020563e-02  1.00000000e-01 
 4.76485927e-04  1.71341034e+00 -9.80940563e-02  1.00000000e-01 
 4.78485927e-04  1.71356505e+00 -9.80860563e-02  1.00000000e-01 
 4.80485927e-04  1.71340784e+00 -9.80780563e-02  1.00000000e-01 
 4.82485927e-04  1.71356222e+00 -9.80700563e-02  1.00000000e-01 
 4.84485927e-04  1.71340533e+00 -9.80620563e-02  1.00000000e-01 
 4.86485927e-04  1.71355940e+00 -9.80540563e-02  1.00000000e-01 
 4.88485927e-04  1.71340282e+00 -9.80460563e-02  1.00000000e-01 
 4.90485927e-04  1.71355657e+00 -9.80380563e-02  1.00000000e-01 
 4.92485927e-04  1.71340031e+00 -9.80300563e-02  1.00000000e-01 
 4.94485927e-04  1.71355374e+00 -9.80220563e-02  1.00000000e-01 
 4.96485927e-04  1.71339781e+00 -9.80140563e-02  1.00000000e-01 
 4.98485927e-04  1.71355092e+00 -9.80060563e-02  1.00000000e-01 
 5.00100100e-04  1.71339555e+00 -9.79995996e-02  1.00000000e-01 
 5.00100110e-04  1.71340501e+00 -9.79995996e-02  1.00000000e-01 
 5.00100130e-04  1.71337122e+00 -9.79995995e-02  1.00000000e-01 
 5.00100170e-04  1.71316730e+00 -9.79995993e-02  1.00000000e-01 
 5.00100200e-04  1.71536253e+00 -9.79995992e-02  1.00000000e-01 
 5.00100208e-04  1.71783687e+00 -9.79995992e-02  1.00000000e-01 
 5.00100224e-04  1.72937350e+00 -9.79995991e-02  1.00000000e-01 
 5.00100256e-04  1.63083701e+00 -9.79995990e-02  1.00000000e-01 
 5.00100320e-04  1.58586832e+00 -9.79995987e-02  1.00000000e-01 
 5.00100382e-04  1.83969408e+00 -9.79995985e-02  1.00000000e-01 
 5.00100472e-04  1.77880164e+00 -9.79995981e-02  1.00000000e-01 
 5.00100609e-04  1.81126466e+00 -9.79995976e-02  1.00000000e-01 
 5.00100774e-04  1.79289234e+00 -9.79995969e-02  1.00000000e-01 
 5.00101104e-04  1.80512157e+00 -9.79995956e-02  1.00000000e-01 
 5.00101650e-04  1.79562030e+00 -9.79995934e-02  1.00000000e-01 
 5.00102628e-04  1.80380457e+00 -9.79995895e-02  1.00000000e-01 
 5.00104503e-04  1.79632853e+00 -9.79995820e-02  1.00000000e-01 
 5.00107895e-04  1.80345233e+00 -9.79995684e-02  1.00000000e-01 
