 time            v(Q)            v(A)-v(B)       v(B)           
 0.00000000e+00  1.79999999e+00  9.00000000e-01  0.00000000e+00 
 1.00000000e-09  1.79999999e+00  9.00000004e-01  0.00000000e+00 
 2.00000000e-09  1.79999999e+00  9.00000008e-01  0.00000000e+00 
 4.00000000e-09  1.79999999e+00  9.00000016e-01  0.00000000e+00 
 8.00000000e-09  1.79999999e+00  9.00000032e-01  0.00000000e+00 
 1.60000000e-08  1.79999999e+00  9.00000064e-01  0.00000000e+00 
 3.20000000e-08  1.79999999e+00  9.00000128e-01  0.00000000e+00 
 6.40000000e-08  1.79999999e+00  9.00000256e-01  0.00000000e+00 
 1.00000000e-07  1.79999999e+00  9.00000400e-01  0.00000000e+00 
 1.00010000e-07  1.80001125e+00  9.00000400e-01  0.00000000e+00 
 1.00030000e-07  1.79998832e+00  9.00000400e-01  0.00000000e+00 
 1.00070000e-07  1.79993738e+00  9.00000400e-01  0.00000000e+00 
 1.00100000e-07  1.80005236e+00  9.00000400e-01  0.00000000e+00 
 1.00107623e-07  1.80028127e+00  9.00000400e-01  0.00000000e+00 
 1.00122868e-07  1.80017600e+00  9.00000400e-01  0.00000000e+00 
 1.00153359e-07  1.80015928e+00  9.00000401e-01  0.00000000e+00 
 1.00214340e-07  1.79752946e+00  9.00000401e-01  0.00000000e+00 
 1.00292262e-07  1.77128067e+00  9.00000401e-01  0.00000000e+00 
 1.00379404e-07  1.81524757e+00  9.00000402e-01  0.00000000e+00 
 1.00475303e-07  1.78924806e+00  9.00000402e-01  0.00000000e+00 
 1.00637677e-07  1.80753328e+00  9.00000403e-01  0.00000000e+00 
 1.00865415e-07  1.79355976e+00  9.00000403e-01  0.00000000e+00 
 1.01233047e-07  1.80529250e+00  9.00000405e-01  0.00000000e+00 
 1.01819708e-07  1.79496531e+00  9.00000407e-01  0.00000000e+00 
 1.02872632e-07  1.80457903e+00  9.00000411e-01  0.00000000e+00 
 1.04978479e-07  1.79538018e+00  9.00000420e-01  0.00000000e+00 
 1.09190174e-07  1.80440199e+00  9.00000437e-01  0.00000000e+00 
 1.17613564e-07  1.79548198e+00  9.00000470e-01  0.00000000e+00 
 1.34460343e-07  1.80435859e+00  9.00000538e-01  0.00000000e+00 
 1.68153901e-07  1.79550729e+00  9.00000673e-01  0.00000000e+00 
 2.35541017e-07  1.80434773e+00  9.00000942e-01  0.00000000e+00 
 3.70315250e-07  1.79551360e+00  9.00001481e-01  0.00000000e+00 
 6.39863715e-07  1.80434500e+00  9.00002559e-01  0.00000000e+00 
 1.17896065e-06  1.79551518e+00  9.00004716e-01  0.00000000e+00 
 2.25715451e-06  1.80434431e+00  9.00009029e-01  0.00000000e+00 
 4.25715451e-06  1.79551558e+00  9.00017029e-01  0.00000000e+00 
 6.25715451e-06  1.80434406e+00  9.00025029e-01  0.00000000e+00 
 8.25715451e-06  1.79551540e+00  9.00033029e-01  0.00000000e+00 
 1.02571545e-05  1.80434380e+00  9.00041029e-01  0.00000000e+00 
 1.22571545e-05  1.79551568e+00  9.00049029e-01  0.00000000e+00 
 1.42571545e-05  1.80434354e+00  9.00057029e-01  0.00000000e+00 
 1.62571545e-05  1.79551595e+00  9.00065029e-01  0.00000000e+00 
 1.82571545e-05  1.80434327e+00  9.00073029e-01  0.00000000e+00 
 2.02571545e-05  1.79551623e+00  9.00081029e-01  0.00000000e+00 
 2.22571545e-05  1.80434301e+00  9.00089029e-01  0.00000000e+00 
 2.42571545e-05  1.79551650e+00  9.00097029e-01  0.00000000e+00 
 2.62571545e-05  1.80434274e+00  9.00105029e-01  0.00000000e+00 
 2.82571545e-05  1.79551678e+00  9.00113029e-01  0.00000000e+00 
 3.02571545e-05  1.80434248e+00  9.00121029e-01  0.00000000e+00 
 3.22571545e-05  1.79551705e+00  9.00129029e-01  0.00000000e+00 
 3.42571545e-05  1.80434222e+00  9.00137029e-01  0.00000000e+00 
 3.62571545e-05  1.79551733e+00  9.00145029e-01  0.00000000e+00 
 3.82571545e-05  1.80434195e+00  9.00153029e-01  0.00000000e+00 
 4.02571545e-05  1.79551760e+00  9.00161029e-01  0.00000000e+00 
 4.22571545e-05  1.80434169e+00  9.00169029e-01  0.00000000e+00 
 4.42571545e-05  1.79551788e+00  9.00177029e-01  0.00000000e+00 
 4.62571545e-05  1.80434142e+00  9.00185029e-01  0.00000000e+00 
 4.82571545e-05  1.79551815e+00  9.00193029e-01  0.00000000e+00 
 5.02571545e-05  1.80434116e+00  9.00201029e-01  0.00000000e+00 
 5.22571545e-05  1.79551843e+00  9.00209029e-01  0.00000000e+00 
 5.42571545e-05  1.80434090e+00  9.00217029e-01  0.00000000e+00 
 5.62571545e-05  1.79551870e+00  9.00225029e-01  0.00000000e+00 
 5.82571545e-05  1.80434063e+00  9.00233029e-01  0.00000000e+00 
 6.02571545e-05  1.79551898e+00  9.00241029e-01  0.00000000e+00 
 6.22571545e-05  1.80434037e+00  9.00249029e-01  0.00000000e+00 
 6.42571545e-05  1.79551925e+00  9.00257029e-01  0.00000000e+00 
 6.62571545e-05  1.80434010e+00  9.00265029e-01  0.00000000e+00 
 6.82571545e-05  1.79551953e+00  9.00273029e-01  0.00000000e+00 
 7.02571545e-05  1.80433984e+00  9.00281029e-01  0.00000000e+00 
 7.22571545e-05  1.79551981e+00  9.00289029e-01  0.00000000e+00 
 7.42571545e-05  1.80433958e+00  9.00297029e-01  0.00000000e+00 
 7.62571545e-05  1.79552008e+00  9.00305029e-01  0.00000000e+00 
 7.82571545e-05  1.80433931e+00  9.00313029e-01  0.00000000e+00 
 8.02571545e-05  1.79552036e+00  9.00321029e-01  0.00000000e+00 
 8.22571545e-05  1.80433905e+00  9.00329029e-01  0.00000000e+00 
 8.42571545e-05  1.79552063e+00  9.00337029e-01  0.00000000e+00 
 8.62571545e-05  1.80433878e+00  9.00345029e-01  0.00000000e+00 
 8.82571545e-05  1.79552137e+00  9.00353029e-01  0.00000000e+00 
 9.02571545e-05  1.80433852e+00  9.00361029e-01  0.00000000e+00 
 9.22571545e-05  1.79552164e+00  9.00369029e-01  0.00000000e+00 
 9.42571545e-05  1.80433826e+00  9.00377029e-01  0.00000000e+00 
 9.62571545e-05  1.79552146e+00  9.00385029e-01  0.00000000e+00 
 9.82571545e-05  1.80433799e+00  9.00393029e-01  0.00000000e+00 
 1.00257155e-04  1.79552173e+00  9.00401029e-01  0.00000000e+00 
 1.02257155e-04  1.80433773e+00  9.00409029e-01  0.00000000e+00 
 1.04257155e-04  1.79552201e+00  9.00417029e-01  0.00000000e+00 
 1.06257155e-04  1.80433746e+00  9.00425029e-01  0.00000000e+00 
 1.08257155e-04  1.79552228e+00  9.00433029e-01  0.00000000e+00 
 1.10257155e-04  1.80433720e+00  9.00441029e-01  0.00000000e+00 
 1.12257155e-04  1.79552256e+00  9.00449029e-01  0.00000000e+00 
 1.14257155e-04  1.80433694e+00  9.00457029e-01  0.00000000e+00 
 1.16257155e-04  1.79552283e+00  9.00465029e-01  0.00000000e+00 
 1.18257155e-04  1.80433667e+00  9.00473029e-01  0.00000000e+00 
 1.20257155e-04  1.79552311e+00  9.00481029e-01  0.00000000e+00 
 1.22257155e-04  1.80433641e+00  9.00489029e-01  0.00000000e+00 
 1.24257155e-04  1.79552338e+00  9.00497029e-01  0.00000000e+00 
 1.26257155e-04  1.80433614e+00  9.00505029e-01  0.00000000e+00 
 1.28257155e-04  1.79552366e+00  9.00513029e-01  0.00000000e+00 
 1.30257155e-04  1.80433588e+00  9.00521029e-01  0.00000000e+00 
 1.32257155e-04  1.79552393e+00  9.00529029e-01  0.00000000e+00 
 1.34257155e-04  1.80433562e+00  9.00537029e-01  0.00000000e+00 
 1.36257155e-04  1.79552421e+00  9.00545029e-01  0.00000000e+00 
 1.38257155e-04  1.80433535e+00  9.00553029e-01  0.00000000e+00 
 1.40257155e-04  1.79552448e+00  9.00561029e-01  0.00000000e+00 
 1.42257155e-04  1.80433509e+00  9.00569029e-01  0.00000000e+00 
 1.44257155e-04  1.79552476e+00  9.00577029e-01  0.00000000e+00 
 1.46257155e-04  1.80433483e+00  9.00585029e-01  0.00000000e+00 
 1.48257155e-04  1.79552503e+00  9.00593029e-01  0.00000000e+00 
 1.50257155e-04  1.80433456e+00  9.00601029e-01  0.00000000e+00 
 1.52257155e-04  1.79552531e+00  9.00609029e-01  0.00000000e+00 
 1.54257155e-04  1.80433430e+00  9.00617029e-01  0.00000000e+00 
 1.56257155e-04  1.79552558e+00  9.00625029e-01  0.00000000e+00 
 1.58257155e-04  1.80433403e+00  9.00633029e-01  0.00000000e+00 
 1.60257155e-04  1.79552586e+00  9.00641029e-01  0.00000000e+00 
 1.62257155e-04  1.80433377e+00  9.00649029e-01  0.00000000e+00 
 1.64257155e-04  1.79552613e+00  9.00657029e-01  0.00000000e+00 
 1.66257155e-04  1.80433351e+00  9.00665029e-01  0.00000000e+00 
 1.68257155e-04  1.79552641e+00  9.00673029e-01  0.00000000e+00 
 1.70257155e-04  1.80433324e+00  9.00681029e-01  0.00000000e+00 
 1.72257155e-04  1.79552668e+00  9.00689029e-01  0.00000000e+00 
 1.74257155e-04  1.80433298e+00  9.00697029e-01  0.00000000e+00 
 1.76257155e-04  1.79552696e+00  9.00705029e-01  0.00000000e+00 
 1.78257155e-04  1.80433271e+00  9.00713029e-01  0.00000000e+00 
 1.80257155e-04  1.79552723e+00  9.00721029e-01  0.00000000e+00 
 1.82257155e-04  1.80433245e+00  9.00729029e-01  0.00000000e+00 
 1.84257155e-04  1.79552751e+00  9.00737029e-01  0.00000000e+00 
 1.86257155e-04  1.80433219e+00  9.00745029e-01  0.00000000e+00 
 1.88257155e-04  1.79552778e+00  9.00753029e-01  0.00000000e+00 
 1.90257155e-04  1.80433192e+00  9.00761029e-01  0.00000000e+00 
 1.92257155e-04  1.79552806e+00  9.00769029e-01  0.00000000e+00 
 1.94257155e-04  1.80433166e+00  9.00777029e-01  0.00000000e+00 
 1.96257155e-04  1.79552833e+00  9.00785029e-01  0.00000000e+00 
 1.98257155e-04  1.80433140e+00  9.00793029e-01  0.00000000e+00 
 2.00000000e-04  1.79552879e+00  9.00800000e-01  0.00000000e+00 
 2.00200000e-04  8.32549162e-05 -9.91992000e-02  1.00000000e+00 
 2.00600000e-04 -7.67554200e-05 -9.91976000e-02  1.00000000e+00 
 2.00928571e-04  7.67610729e-05 -9.91962857e-02  1.00000000e+00 
 2.01291775e-04 -7.67333915e-05 -9.91948329e-02  1.00000000e+00 
 2.02018183e-04  7.67455279e-05 -9.91919273e-02  1.00000000e+00 
 2.03470999e-04 -7.67253943e-05 -9.91861160e-02  1.00000000e+00 
 2.05470999e-04  7.67412896e-05 -9.91781160e-02  1.00000000e+00 
 2.07470999e-04 -7.67213035e-05 -9.91701160e-02  1.00000000e+00 
 2.09470999e-04  7.67377911e-05 -9.91621160e-02  1.00000000e+00 
 2.11470999e-04 -7.67172299e-05 -9.91541160e-02  1.00000000e+00 
 2.13470999e-04  7.67342766e-05 -9.91461160e-02  1.00000000e+00 
 2.15470999e-04 -7.67131715e-05 -9.91381160e-02  1.00000000e+00 
 2.17470999e-04  7.67307478e-05 -9.91301160e-02  1.00000000e+00 
 2.19470999e-04 -7.67091269e-05 -9.91221160e-02  1.00000000e+00 
 2.21470999e-04  7.67272060e-05 -9.91141160e-02  1.00000000e+00 
 2.23470999e-04 -7.67050948e-05 -9.91061160e-02  1.00000000e+00 
 2.25470999e-04  7.67236525e-05 -9.90981160e-02  1.00000000e+00 
 2.27470999e-04 -7.67010741e-05 -9.90901160e-02  1.00000000e+00 
 2.29470999e-04  7.67200881e-05 -9.90821160e-02  1.00000000e+00 
 2.31470999e-04 -7.66970639e-05 -9.90741160e-02  1.00000000e+00 
 2.33470999e-04  7.67165138e-05 -9.90661160e-02  1.00000000e+00 
 2.35470999e-04 -7.66930634e-05 -9.90581160e-02  1.00000000e+00 
 2.37470999e-04  7.67129305e-05 -9.90501160e-02  1.00000000e+00 
 2.39470999e-04 -7.66890718e-05 -9.90421160e-02  1.00000000e+00 
 2.41470999e-04  7.67093387e-05 -9.90341160e-02  1.00000000e+00 
 2.43470999e-04 -7.66850885e-05 -9.90261160e-02  1.00000000e+00 
 2.45470999e-04  7.67057391e-05 -9.90181160e-02  1.00000000e+00 
 2.47470999e-04 -7.66811129e-05 -9.90101160e-02  1.00000000e+00 
 2.49470999e-04  7.67021322e-05 -9.90021160e-02  1.00000000e+00 
 2.51470999e-04 -7.66771444e-05 -9.89941160e-02  1.00000000e+00 
 2.53470999e-04  7.66985185e-05 -9.89861160e-02  1.00000000e+00 
 2.55470999e-04 -7.66731828e-05 -9.89781160e-02  1.00000000e+00 
 2.57470999e-04  7.66948984e-05 -9.89701160e-02  1.00000000e+00 
 2.59470999e-04 -7.66692274e-05 -9.89621160e-02  1.00000000e+00 
 2.61470999e-04  7.66912724e-05 -9.89541160e-02  1.00000000e+00 
 2.63470999e-04 -7.66652781e-05 -9.89461160e-02  1.00000000e+00 
 2.65470999e-04  7.66876408e-05 -9.89381160e-02  1.00000000e+00 
 2.67470999e-04 -7.66613343e-05 -9.89301160e-02  1.00000000e+00 
 2.69470999e-04  7.66840038e-05 -9.89221160e-02  1.00000000e+00 
 2.71470999e-04 -7.66573959e-05 -9.89141160e-02  1.00000000e+00 
 2.73470999e-04  7.66803619e-05 -9.89061160e-02  1.00000000e+00 
 2.75470999e-04 -7.66534625e-05 -9.88981160e-02  1.00000000e+00 
 2.77470999e-04  7.66767152e-05 -9.88901160e-02  1.00000000e+00 
 2.79470999e-04 -7.66495339e-05 -9.88821160e-02  1.00000000e+00 
 2.81470999e-04  7.66730641e-05 -9.88741160e-02  1.00000000e+00 
 2.83470999e-04 -7.66456099e-05 -9.88661160e-02  1.00000000e+00 
 2.85470999e-04  7.66694086e-05 -9.88581160e-02  1.00000000e+00 
 2.87470999e-04 -7.66416902e-05 -9.88501160e-02  1.00000000e+00 
 2.89470999e-04  7.66657491e-05 -9.88421160e-02  1.00000000e+00 
 2.91470999e-04 -7.66377747e-05 -9.88341160e-02  1.00000000e+00 
 2.93470999e-04  7.66620857e-05 -9.88261160e-02  1.00000000e+00 
 2.95470999e-04 -7.66338632e-05 -9.88181160e-02  1.00000000e+00 
 2.97470999e-04  7.66584186e-05 -9.88101160e-02  1.00000000e+00 
 2.99470999e-04 -7.66299555e-05 -9.88021160e-02  1.00000000e+00 
 3.01470999e-04  7.66547480e-05 -9.87941160e-02  1.00000000e+00 
 3.03470999e-04 -7.66260514e-05 -9.87861160e-02  1.00000000e+00 
 3.05470999e-04  7.66510740e-05 -9.87781160e-02  1.00000000e+00 
 3.07470999e-04 -7.66221508e-05 -9.87701160e-02  1.00000000e+00 
 3.09470999e-04  7.66473967e-05 -9.87621160e-02  1.00000000e+00 
 3.11470999e-04 -7.66182536e-05 -9.87541160e-02  1.00000000e+00 
 3.13470999e-04  7.66437163e-05 -9.87461160e-02  1.00000000e+00 
 3.15470999e-04 -7.66143596e-05 -9.87381160e-02  1.00000000e+00 
 3.17470999e-04  7.66400330e-05 -9.87301160e-02  1.00000000e+00 
 3.19470999e-04 -7.66104687e-05 -9.87221160e-02  1.00000000e+00 
 3.21470999e-04  7.66363468e-05 -9.87141160e-02  1.00000000e+00 
 3.23470999e-04 -7.66065808e-05 -9.87061160e-02  1.00000000e+00 
 3.25470999e-04  7.66326578e-05 -9.86981160e-02  1.00000000e+00 
 3.27470999e-04 -7.66026959e-05 -9.86901160e-02  1.00000000e+00 
 3.29470999e-04  7.66289661e-05 -9.86821160e-02  1.00000000e+00 
 3.31470999e-04 -7.65988137e-05 -9.86741160e-02  1.00000000e+00 
 3.33470999e-04  7.66252720e-05 -9.86661160e-02  1.00000000e+00 
 3.35470999e-04 -7.65949342e-05 -9.86581160e-02  1.00000000e+00 
 3.37470999e-04  7.66215753e-05 -9.86501160e-02  1.00000000e+00 
 3.39470999e-04 -7.65910574e-05 -9.86421160e-02  1.00000000e+00 
 3.41470999e-04  7.66178763e-05 -9.86341160e-02  1.00000000e+00 
 3.43470999e-04 -7.65871830e-05 -9.86261160e-02  1.00000000e+00 
 3.45470999e-04  7.66141750e-05 -9.86181160e-02  1.00000000e+00 
 3.47470999e-04 -7.65833111e-05 -9.86101160e-02  1.00000000e+00 
 3.49470999e-04  7.66104714e-05 -9.86021160e-02  1.00000000e+00 
 3.51470999e-04 -7.65794416e-05 -9.85941160e-02  1.00000000e+00 
 3.53470999e-04  7.66067658e-05 -9.85861160e-02  1.00000000e+00 
 3.55470999e-04 -7.65755744e-05 -9.85781160e-02  1.00000000e+00 
 3.57470999e-04  7.66030580e-05 -9.85701160e-02  1.00000000e+00 
 3.59470999e-04 -7.65717094e-05 -9.85621160e-02  1.00000000e+00 
 3.61470999e-04  7.65993483e-05 -9.85541160e-02  1.00000000e+00 
 3.63470999e-04 -7.65678465e-05 -9.85461160e-02  1.00000000e+00 
 3.65470999e-04  7.65956367e-05 -9.85381160e-02  1.00000000e+00 
 3.67470999e-04 -7.65639858e-05 -9.85301160e-02  1.00000000e+00 
 3.69470999e-04  7.65919232e-05 -9.85221160e-02  1.00000000e+00 
 3.71470999e-04 -7.65601270e-05 -9.85141160e-02  1.00000000e+00 
 3.73470999e-04  7.65882079e-05 -9.85061160e-02  1.00000000e+00 
 3.75470999e-04 -7.65562703e-05 -9.84981160e-02  1.00000000e+00 
 3.77470999e-04  7.65844909e-05 -9.84901160e-02  1.00000000e+00 
 3.79470999e-04 -7.65524154e-05 -9.84821160e-02  1.00000000e+00 
 3.81470999e-04  7.65807722e-05 -9.84741160e-02  1.00000000e+00 
 3.83470999e-04 -7.65485624e-05 -9.84661160e-02  1.00000000e+00 
 3.85470999e-04  7.65770518e-05 -9.84581160e-02  1.00000000e+00 
 3.87470999e-04 -7.65447113e-05 -9.84501160e-02  1.00000000e+00 
 3.89470999e-04  7.65733299e-05 -9.84421160e-02  1.00000000e+00 
 3.91470999e-04 -7.65408618e-05 -9.84341160e-02  1.00000000e+00 
 3.93470999e-04  7.65696065e-05 -9.84261160e-02  1.00000000e+00 
 3.95470999e-04 -7.65370141e-05 -9.84181160e-02  1.00000000e+00 
 3.97470999e-04  7.65658816e-05 -9.84101160e-02  1.00000000e+00 
 3.99470999e-04 -7.65331680e-05 -9.84021160e-02  1.00000000e+00 
 4.01470999e-04  7.65621553e-05 -9.83941160e-02  1.00000000e+00 
 4.03470999e-04 -7.65293235e-05 -9.83861160e-02  1.00000000e+00 
 4.05470999e-04  7.65584278e-05 -9.83781160e-02  1.00000000e+00 
 4.07470999e-04 -7.65254798e-05 -9.83701160e-02  1.00000000e+00 
 4.09470999e-04  7.65547013e-05 -9.83621160e-02  1.00000000e+00 
 4.11470999e-04 -7.65216416e-05 -9.83541160e-02  1.00000000e+00 
 4.13470999e-04  7.65509724e-05 -9.83461160e-02  1.00000000e+00 
 4.15470999e-04 -7.65178010e-05 -9.83381160e-02  1.00000000e+00 
 4.17470999e-04  7.65472413e-05 -9.83301160e-02  1.00000000e+00 
 4.19470999e-04 -7.65139620e-05 -9.83221160e-02  1.00000000e+00 
 4.21470999e-04  7.65435090e-05 -9.83141160e-02  1.00000000e+00 
 4.23470999e-04 -7.65101242e-05 -9.83061160e-02  1.00000000e+00 
 4.25470999e-04  7.65397758e-05 -9.82981160e-02  1.00000000e+00 
 4.27470999e-04 -7.65062875e-05 -9.82901160e-02  1.00000000e+00 
 4.29470999e-04  7.65360418e-05 -9.82821160e-02  1.00000000e+00 
 4.31470999e-04 -7.65024516e-05 -9.82741160e-02  1.00000000e+00 
 4.33470999e-04  7.65323073e-05 -9.82661160e-02  1.00000000e+00 
 4.35470999e-04 -7.64986159e-05 -9.82581160e-02  1.00000000e+00 
 4.37470999e-04  7.65285736e-05 -9.82501160e-02  1.00000000e+00 
 4.39470999e-04 -7.64947787e-05 -9.82421160e-02  1.00000000e+00 
 4.41470999e-04  7.65248430e-05 -9.82341160e-02  1.00000000e+00 
 4.43470999e-04 -7.64909360e-05 -9.82261160e-02  1.00000000e+00 
 4.45470999e-04  7.65211220e-05 -9.82181160e-02  1.00000000e+00 
 4.47470999e-04 -7.64870777e-05 -9.82101160e-02  1.00000000e+00 
 4.49470999e-04  7.65174259e-05 -9.82021160e-02  1.00000000e+00 
 4.51470999e-04 -7.64831813e-05 -9.81941160e-02  1.00000000e+00 
 4.53470999e-04  7.65137863e-05 -9.81861160e-02  1.00000000e+00 
 4.55470999e-04 -7.64792047e-05 -9.81781160e-02  1.00000000e+00 
 4.57470999e-04  7.65102537e-05 -9.81701160e-02  1.00000000e+00 
 4.59470999e-04 -7.64750977e-05 -9.81621160e-02  1.00000000e+00 
 4.61470999e-04  7.65068604e-05 -9.81541160e-02  1.00000000e+00 
 4.63470999e-04 -7.64708690e-05 -9.81461160e-02  1.00000000e+00 
 4.65470999e-04  7.65035386e-05 -9.81381160e-02  1.00000000e+00 
 4.67470999e-04 -7.64666427e-05 -9.81301160e-02  1.00000000e+00 
 4.69470999e-04  7.65001398e-05 -9.81221160e-02  1.00000000e+00 
 4.71470999e-04 -7.64625470e-05 -9.81141160e-02  1.00000000e+00 
 4.73470999e-04  7.64965902e-05 -9.81061160e-02  1.00000000e+00 
 4.75470999e-04 -7.64585948e-05 -9.80981160e-02  1.00000000e+00 
 4.77470999e-04  7.64929218e-05 -9.80901160e-02  1.00000000e+00 
 4.79470999e-04 -7.64547335e-05 -9.80821160e-02  1.00000000e+00 
 4.81470999e-04  7.64891887e-05 -9.80741160e-02  1.00000000e+00 
 4.83470999e-04 -7.64509172e-05 -9.80661160e-02  1.00000000e+00 
 4.85470999e-04  7.64854260e-05 -9.80581160e-02  1.00000000e+00 
 4.87470999e-04 -7.64471207e-05 -9.80501160e-02  1.00000000e+00 
 4.89470999e-04  7.64816506e-05 -9.80421160e-02  1.00000000e+00 
 4.91470999e-04 -7.64433328e-05 -9.80341160e-02  1.00000000e+00 
 4.93470999e-04  7.64778702e-05 -9.80261160e-02  1.00000000e+00 
 4.95470999e-04 -7.64395484e-05 -9.80181160e-02  1.00000000e+00 
 4.97470999e-04  7.64740879e-05 -9.80101160e-02  1.00000000e+00 
 4.99470999e-04 -7.64357656e-05 -9.80021160e-02  1.00000000e+00 
 5.00100100e-04  7.64230914e-05 -9.79995996e-02  1.00000000e+00 
 5.00100110e-04  3.75647761e-05 -9.79995996e-02  1.00000000e+00 
 5.00100130e-04  6.33606709e-06 -9.79995995e-02  1.00000000e+00 
 5.00100170e-04  2.48627744e-05 -9.79995993e-02  1.00000000e+00 
 5.00100200e-04  9.65925122e-05 -9.79995992e-02  1.00000000e+00 
 5.00100208e-04 -3.66231988e-05 -9.79995992e-02  1.00000000e+00 
 5.00100224e-04 -2.37953594e-04 -9.79995991e-02  1.00000000e+00 
 5.00100256e-04  4.60272743e-05 -9.79995990e-02  1.00000000e+00 
 5.00100320e-04  8.01860728e-05 -9.79995987e-02  1.00000000e+00 
 5.00100405e-04 -1.05297289e-04 -9.79995984e-02  1.00000000e+00 
 5.00100548e-04  1.09820276e-04 -9.79995978e-02  1.00000000e+00 
 5.00100835e-04 -1.10182558e-04 -9.79995967e-02  1.00000000e+00 
 5.00101407e-04  1.10031348e-04 -9.79995944e-02  1.00000000e+00 
 5.00102552e-04 -1.09876402e-04 -9.79995898e-02  1.00000000e+00 
 5.00104842e-04  1.09785609e-04 -9.79995806e-02  1.00000000e+00 
 5.00109422e-04 -1.09731603e-04 -9.79995623e-02  1.00000000e+00 
 5.00118581e-04  1.09708209e-04 -9.79995257e-02  1.00000000e+00 
 5.00136900e-04 -1.09691474e-04 -9.79994524e-02  1.00000000e+00 
