 time            v(Q)            v(A)-v(B)       v(B)           
 0.00000000e+00  1.07063102e-08  1.50000000e+00  0.00000000e+00 
 1.00000000e-09  1.07068053e-08  1.50000000e+00  0.00000000e+00 
 2.00000000e-09  1.07068165e-08  1.50000001e+00  0.00000000e+00 
 4.00000000e-09  1.07068167e-08  1.50000002e+00  0.00000000e+00 
 8.00000000e-09  1.07068158e-08  1.50000003e+00  0.00000000e+00 
 1.60000000e-08  1.07068153e-08  1.50000006e+00  0.00000000e+00 
 3.20000000e-08  1.07068131e-08  1.50000013e+00  0.00000000e+00 
 6.40000000e-08  1.07068100e-08  1.50000026e+00  0.00000000e+00 
 1.00000000e-07  1.07068056e-08  1.50000040e+00  0.00000000e+00 
 1.00010000e-07  1.57231315e-05  1.50000040e+00  0.00000000e+00 
 1.00030000e-07 -1.25133494e-05  1.50000040e+00  0.00000000e+00 
 1.00070000e-07 -1.16055946e-04  1.50000040e+00  0.00000000e+00 
 1.00100000e-07 -1.17831591e-05  1.50000040e+00  0.00000000e+00 
 1.00107588e-07  2.53176656e-04  1.50000040e+00  0.00000000e+00 
 1.00122763e-07  6.98750078e-04  1.50000040e+00  0.00000000e+00 
 1.00153113e-07  6.23976874e-04  1.50000040e+00  0.00000000e+00 
 1.00213813e-07 -8.73755103e-03  1.50000040e+00  0.00000000e+00 
 1.00290834e-07  8.89681678e-01  1.50000040e+00  0.00000000e+00 
 1.00385833e-07  1.78803395e+00  1.50000040e+00  0.00000000e+00 
 1.00486596e-07  1.79643982e+00  1.50000040e+00  0.00000000e+00 
 1.00594263e-07  1.81039586e+00  1.50000040e+00  0.00000000e+00 
 1.00766774e-07  1.78791973e+00  1.50000040e+00  0.00000000e+00 
 1.00943585e-07  1.81372081e+00  1.50000040e+00  0.00000000e+00 
 1.01232602e-07  1.78622731e+00  1.50000040e+00  0.00000000e+00 
 1.01614667e-07  1.81424345e+00  1.50000041e+00  0.00000000e+00 
 1.02169086e-07  1.78596128e+00  1.50000041e+00  0.00000000e+00 
 1.03013415e-07  1.81429613e+00  1.50000041e+00  0.00000000e+00 
 1.04410591e-07  1.78592936e+00  1.50000042e+00  0.00000000e+00 
 1.07095850e-07  1.81428836e+00  1.50000043e+00  0.00000000e+00 
 1.11745065e-07  1.78592816e+00  1.50000045e+00  0.00000000e+00 
 1.20286269e-07  1.81428336e+00  1.50000048e+00  0.00000000e+00 
 1.36366165e-07  1.78592858e+00  1.50000055e+00  0.00000000e+00 
 1.68525957e-07  1.81428175e+00  1.50000067e+00  0.00000000e+00 
 2.32845542e-07  1.78592877e+00  1.50000093e+00  0.00000000e+00 
 3.61484711e-07  1.81428133e+00  1.50000145e+00  0.00000000e+00 
 6.18763050e-07  1.78592881e+00  1.50000248e+00  0.00000000e+00 
 1.13331973e-06  1.81428122e+00  1.50000453e+00  0.00000000e+00 
 2.16243308e-06  1.78592882e+00  1.50000865e+00  0.00000000e+00 
 4.16243308e-06  1.81428120e+00  1.50001665e+00  0.00000000e+00 
 6.16243308e-06  1.78589434e+00  1.50002465e+00  0.00000000e+00 
 8.16243308e-06  1.81427984e+00  1.50003265e+00  0.00000000e+00 
 1.01624331e-05  1.78589439e+00  1.50004065e+00  0.00000000e+00 
 1.21624331e-05  1.81427982e+00  1.50004865e+00  0.00000000e+00 
 1.41624331e-05  1.78589440e+00  1.50005665e+00  0.00000000e+00 
 1.61624331e-05  1.81427980e+00  1.50006465e+00  0.00000000e+00 
 1.81624331e-05  1.78589441e+00  1.50007265e+00  0.00000000e+00 
 2.01624331e-05  1.81427978e+00  1.50008065e+00  0.00000000e+00 
 2.21624331e-05  1.78589442e+00  1.50008865e+00  0.00000000e+00 
 2.41624331e-05  1.81427976e+00  1.50009665e+00  0.00000000e+00 
 2.61624331e-05  1.78589443e+00  1.50010465e+00  0.00000000e+00 
 2.81624331e-05  1.81427974e+00  1.50011265e+00  0.00000000e+00 
 3.01624331e-05  1.78589444e+00  1.50012065e+00  0.00000000e+00 
 3.21624331e-05  1.81427973e+00  1.50012865e+00  0.00000000e+00 
 3.41624331e-05  1.78589445e+00  1.50013665e+00  0.00000000e+00 
 3.61624331e-05  1.81427971e+00  1.50014465e+00  0.00000000e+00 
 3.81624331e-05  1.78589445e+00  1.50015265e+00  0.00000000e+00 
 4.01624331e-05  1.81427969e+00  1.50016065e+00  0.00000000e+00 
 4.21624331e-05  1.78589446e+00  1.50016865e+00  0.00000000e+00 
 4.41624331e-05  1.81427967e+00  1.50017665e+00  0.00000000e+00 
 4.61624331e-05  1.78589447e+00  1.50018465e+00  0.00000000e+00 
 4.81624331e-05  1.81427965e+00  1.50019265e+00  0.00000000e+00 
 5.01624331e-05  1.78589448e+00  1.50020065e+00  0.00000000e+00 
 5.21624331e-05  1.81427963e+00  1.50020865e+00  0.00000000e+00 
 5.41624331e-05  1.78589449e+00  1.50021665e+00  0.00000000e+00 
 5.61624331e-05  1.81427961e+00  1.50022465e+00  0.00000000e+00 
 5.81624331e-05  1.78589450e+00  1.50023265e+00  0.00000000e+00 
 6.01624331e-05  1.81427960e+00  1.50024065e+00  0.00000000e+00 
 6.21624331e-05  1.78589451e+00  1.50024865e+00  0.00000000e+00 
 6.41624331e-05  1.81427958e+00  1.50025665e+00  0.00000000e+00 
 6.61624331e-05  1.78589452e+00  1.50026465e+00  0.00000000e+00 
 6.81624331e-05  1.81427956e+00  1.50027265e+00  0.00000000e+00 
 7.01624331e-05  1.78589453e+00  1.50028065e+00  0.00000000e+00 
 7.21624331e-05  1.81427954e+00  1.50028865e+00  0.00000000e+00 
 7.41624331e-05  1.78589453e+00  1.50029665e+00  0.00000000e+00 
 7.61624331e-05  1.81427952e+00  1.50030465e+00  0.00000000e+00 
 7.81624331e-05  1.78589454e+00  1.50031265e+00  0.00000000e+00 
 8.01624331e-05  1.81427950e+00  1.50032065e+00  0.00000000e+00 
 8.21624331e-05  1.78589455e+00  1.50032865e+00  0.00000000e+00 
 8.41624331e-05  1.81427948e+00  1.50033665e+00  0.00000000e+00 
 8.61624331e-05  1.78589456e+00  1.50034465e+00  0.00000000e+00 
 8.81624331e-05  1.81427947e+00  1.50035265e+00  0.00000000e+00 
 9.01624331e-05  1.78589457e+00  1.50036065e+00  0.00000000e+00 
 9.21624331e-05  1.81427945e+00  1.50036865e+00  0.00000000e+00 
 9.41624331e-05  1.78589458e+00  1.50037665e+00  0.00000000e+00 
 9.61624331e-05  1.81427943e+00  1.50038465e+00  0.00000000e+00 
 9.81624331e-05  1.78589459e+00  1.50039265e+00  0.00000000e+00 
 1.00162433e-04  1.81427941e+00  1.50040065e+00  0.00000000e+00 
 1.02162433e-04  1.78589460e+00  1.50040865e+00  0.00000000e+00 
 1.04162433e-04  1.81427939e+00  1.50041665e+00  0.00000000e+00 
 1.06162433e-04  1.78589461e+00  1.50042465e+00  0.00000000e+00 
 1.08162433e-04  1.81427937e+00  1.50043265e+00  0.00000000e+00 
 1.10162433e-04  1.78589461e+00  1.50044065e+00  0.00000000e+00 
 1.12162433e-04  1.81427935e+00  1.50044865e+00  0.00000000e+00 
 1.14162433e-04  1.78589462e+00  1.50045665e+00  0.00000000e+00 
 1.16162433e-04  1.81427933e+00  1.50046465e+00  0.00000000e+00 
 1.18162433e-04  1.78589463e+00  1.50047265e+00  0.00000000e+00 
 1.20162433e-04  1.81427932e+00  1.50048065e+00  0.00000000e+00 
 1.22162433e-04  1.78589464e+00  1.50048865e+00  0.00000000e+00 
 1.24162433e-04  1.81427930e+00  1.50049665e+00  0.00000000e+00 
 1.26162433e-04  1.78589465e+00  1.50050465e+00  0.00000000e+00 
 1.28162433e-04  1.81427928e+00  1.50051265e+00  0.00000000e+00 
 1.30162433e-04  1.78589466e+00  1.50052065e+00  0.00000000e+00 
 1.32162433e-04  1.81427926e+00  1.50052865e+00  0.00000000e+00 
 1.34162433e-04  1.78589467e+00  1.50053665e+00  0.00000000e+00 
 1.36162433e-04  1.81427924e+00  1.50054465e+00  0.00000000e+00 
 1.38162433e-04  1.78589468e+00  1.50055265e+00  0.00000000e+00 
 1.40162433e-04  1.81427922e+00  1.50056065e+00  0.00000000e+00 
 1.42162433e-04  1.78589469e+00  1.50056865e+00  0.00000000e+00 
 1.44162433e-04  1.81427920e+00  1.50057665e+00  0.00000000e+00 
 1.46162433e-04  1.78589470e+00  1.50058465e+00  0.00000000e+00 
 1.48162433e-04  1.81427918e+00  1.50059265e+00  0.00000000e+00 
 1.50162433e-04  1.78589471e+00  1.50060065e+00  0.00000000e+00 
 1.52162433e-04  1.81427917e+00  1.50060865e+00  0.00000000e+00 
 1.54162433e-04  1.78589471e+00  1.50061665e+00  0.00000000e+00 
 1.56162433e-04  1.81427915e+00  1.50062465e+00  0.00000000e+00 
 1.58162433e-04  1.78589472e+00  1.50063265e+00  0.00000000e+00 
 1.60162433e-04  1.81427913e+00  1.50064065e+00  0.00000000e+00 
 1.62162433e-04  1.78589473e+00  1.50064865e+00  0.00000000e+00 
 1.64162433e-04  1.81427911e+00  1.50065665e+00  0.00000000e+00 
 1.66162433e-04  1.78589474e+00  1.50066465e+00  0.00000000e+00 
 1.68162433e-04  1.81427909e+00  1.50067265e+00  0.00000000e+00 
 1.70162433e-04  1.78589475e+00  1.50068065e+00  0.00000000e+00 
 1.72162433e-04  1.81427907e+00  1.50068865e+00  0.00000000e+00 
 1.74162433e-04  1.78589476e+00  1.50069665e+00  0.00000000e+00 
 1.76162433e-04  1.81427905e+00  1.50070465e+00  0.00000000e+00 
 1.78162433e-04  1.78589477e+00  1.50071265e+00  0.00000000e+00 
 1.80162433e-04  1.81427903e+00  1.50072065e+00  0.00000000e+00 
 1.82162433e-04  1.78589478e+00  1.50072865e+00  0.00000000e+00 
 1.84162433e-04  1.81427901e+00  1.50073665e+00  0.00000000e+00 
 1.86162433e-04  1.78589479e+00  1.50074465e+00  0.00000000e+00 
 1.88162433e-04  1.81427899e+00  1.50075265e+00  0.00000000e+00 
 1.90162433e-04  1.78589480e+00  1.50076065e+00  0.00000000e+00 
 1.92162433e-04  1.81427898e+00  1.50076865e+00  0.00000000e+00 
 1.94162433e-04  1.78589481e+00  1.50077665e+00  0.00000000e+00 
 1.96162433e-04  1.81427896e+00  1.50078465e+00  0.00000000e+00 
 1.98162433e-04  1.78589482e+00  1.50079265e+00  0.00000000e+00 
 2.00000000e-04  1.81427891e+00  1.50080000e+00  0.00000000e+00 
 2.00200000e-04  1.80001457e+00 -9.91992000e-02  1.60000000e+00 
 2.00600000e-04  1.79998542e+00 -9.91976000e-02  1.60000000e+00 
 2.00926381e-04  1.80001456e+00 -9.91962945e-02  1.60000000e+00 
 2.01290609e-04  1.79998543e+00 -9.91948376e-02  1.60000000e+00 
 2.02019065e-04  1.80001456e+00 -9.91919237e-02  1.60000000e+00 
 2.03475977e-04  1.79998543e+00 -9.91860961e-02  1.60000000e+00 
 2.05475977e-04  1.80001456e+00 -9.91780961e-02  1.60000000e+00 
 2.07475977e-04  1.79998543e+00 -9.91700961e-02  1.60000000e+00 
 2.09475977e-04  1.80001456e+00 -9.91620961e-02  1.60000000e+00 
 2.11475977e-04  1.79998543e+00 -9.91540961e-02  1.60000000e+00 
 2.13475977e-04  1.80001456e+00 -9.91460961e-02  1.60000000e+00 
 2.15475977e-04  1.79998543e+00 -9.91380961e-02  1.60000000e+00 
 2.17475977e-04  1.80001456e+00 -9.91300961e-02  1.60000000e+00 
 2.19475977e-04  1.79998543e+00 -9.91220961e-02  1.60000000e+00 
 2.21475977e-04  1.80001456e+00 -9.91140961e-02  1.60000000e+00 
 2.23475977e-04  1.79998543e+00 -9.91060961e-02  1.60000000e+00 
 2.25475977e-04  1.80001455e+00 -9.90980961e-02  1.60000000e+00 
 2.27475977e-04  1.79998543e+00 -9.90900961e-02  1.60000000e+00 
 2.29475977e-04  1.80001456e+00 -9.90820961e-02  1.60000000e+00 
 2.31475977e-04  1.79998543e+00 -9.90740961e-02  1.60000000e+00 
 2.33475977e-04  1.80001455e+00 -9.90660961e-02  1.60000000e+00 
 2.35475977e-04  1.79998543e+00 -9.90580961e-02  1.60000000e+00 
 2.37475977e-04  1.80001455e+00 -9.90500961e-02  1.60000000e+00 
 2.39475977e-04  1.79998544e+00 -9.90420961e-02  1.60000000e+00 
 2.41475977e-04  1.80001455e+00 -9.90340961e-02  1.60000000e+00 
 2.43475977e-04  1.79998544e+00 -9.90260961e-02  1.60000000e+00 
 2.45475977e-04  1.80001455e+00 -9.90180961e-02  1.60000000e+00 
 2.47475977e-04  1.79998544e+00 -9.90100961e-02  1.60000000e+00 
 2.49475977e-04  1.80001455e+00 -9.90020961e-02  1.60000000e+00 
 2.51475977e-04  1.79998544e+00 -9.89940961e-02  1.60000000e+00 
 2.53475977e-04  1.80001455e+00 -9.89860961e-02  1.60000000e+00 
 2.55475977e-04  1.79998544e+00 -9.89780961e-02  1.60000000e+00 
 2.57475977e-04  1.80001455e+00 -9.89700961e-02  1.60000000e+00 
 2.59475977e-04  1.79998544e+00 -9.89620961e-02  1.60000000e+00 
 2.61475977e-04  1.80001455e+00 -9.89540961e-02  1.60000000e+00 
 2.63475977e-04  1.79998544e+00 -9.89460961e-02  1.60000000e+00 
 2.65475977e-04  1.80001455e+00 -9.89380961e-02  1.60000000e+00 
 2.67475977e-04  1.79998544e+00 -9.89300961e-02  1.60000000e+00 
 2.69475977e-04  1.80001455e+00 -9.89220961e-02  1.60000000e+00 
 2.71475977e-04  1.79998544e+00 -9.89140961e-02  1.60000000e+00 
 2.73475977e-04  1.80001455e+00 -9.89060961e-02  1.60000000e+00 
 2.75475977e-04  1.79998544e+00 -9.88980961e-02  1.60000000e+00 
 2.77475977e-04  1.80001455e+00 -9.88900961e-02  1.60000000e+00 
 2.79475977e-04  1.79998544e+00 -9.88820961e-02  1.60000000e+00 
 2.81475977e-04  1.80001455e+00 -9.88740961e-02  1.60000000e+00 
 2.83475977e-04  1.79998544e+00 -9.88660961e-02  1.60000000e+00 
 2.85475977e-04  1.80001455e+00 -9.88580961e-02  1.60000000e+00 
 2.87475977e-04  1.79998544e+00 -9.88500961e-02  1.60000000e+00 
 2.89475977e-04  1.80001454e+00 -9.88420961e-02  1.60000000e+00 
 2.91475977e-04  1.79998545e+00 -9.88340961e-02  1.60000000e+00 
 2.93475977e-04  1.80001454e+00 -9.88260961e-02  1.60000000e+00 
 2.95475977e-04  1.79998545e+00 -9.88180961e-02  1.60000000e+00 
 2.97475977e-04  1.80001454e+00 -9.88100961e-02  1.60000000e+00 
 2.99475977e-04  1.79998545e+00 -9.88020961e-02  1.60000000e+00 
 3.01475977e-04  1.80001454e+00 -9.87940961e-02  1.60000000e+00 
 3.03475977e-04  1.79998545e+00 -9.87860961e-02  1.60000000e+00 
 3.05475977e-04  1.80001454e+00 -9.87780961e-02  1.60000000e+00 
 3.07475977e-04  1.79998545e+00 -9.87700961e-02  1.60000000e+00 
 3.09475977e-04  1.80001454e+00 -9.87620961e-02  1.60000000e+00 
 3.11475977e-04  1.79998545e+00 -9.87540961e-02  1.60000000e+00 
 3.13475977e-04  1.80001454e+00 -9.87460961e-02  1.60000000e+00 
 3.15475977e-04  1.79998545e+00 -9.87380961e-02  1.60000000e+00 
 3.17475977e-04  1.80001454e+00 -9.87300961e-02  1.60000000e+00 
 3.19475977e-04  1.79998545e+00 -9.87220961e-02  1.60000000e+00 
 3.21475977e-04  1.80001454e+00 -9.87140961e-02  1.60000000e+00 
 3.23475977e-04  1.79998545e+00 -9.87060961e-02  1.60000000e+00 
 3.25475977e-04  1.80001454e+00 -9.86980961e-02  1.60000000e+00 
 3.27475977e-04  1.79998545e+00 -9.86900961e-02  1.60000000e+00 
 3.29475977e-04  1.80001454e+00 -9.86820961e-02  1.60000000e+00 
 3.31475977e-04  1.79998545e+00 -9.86740961e-02  1.60000000e+00 
 3.33475977e-04  1.80001454e+00 -9.86660961e-02  1.60000000e+00 
 3.35475977e-04  1.79998545e+00 -9.86580961e-02  1.60000000e+00 
 3.37475977e-04  1.80001454e+00 -9.86500961e-02  1.60000000e+00 
 3.39475977e-04  1.79998545e+00 -9.86420961e-02  1.60000000e+00 
 3.41475977e-04  1.80001453e+00 -9.86340961e-02  1.60000000e+00 
 3.43475977e-04  1.79998546e+00 -9.86260961e-02  1.60000000e+00 
 3.45475977e-04  1.80001453e+00 -9.86180961e-02  1.60000000e+00 
 3.47475977e-04  1.79998546e+00 -9.86100961e-02  1.60000000e+00 
 3.49475977e-04  1.80001453e+00 -9.86020961e-02  1.60000000e+00 
 3.51475977e-04  1.79998546e+00 -9.85940961e-02  1.60000000e+00 
 3.53475977e-04  1.80001453e+00 -9.85860961e-02  1.60000000e+00 
 3.55475977e-04  1.79998546e+00 -9.85780961e-02  1.60000000e+00 
 3.57475977e-04  1.80001453e+00 -9.85700961e-02  1.60000000e+00 
 3.59475977e-04  1.79998546e+00 -9.85620961e-02  1.60000000e+00 
 3.61475977e-04  1.80001453e+00 -9.85540961e-02  1.60000000e+00 
 3.63475977e-04  1.79998546e+00 -9.85460961e-02  1.60000000e+00 
 3.65475977e-04  1.80001453e+00 -9.85380961e-02  1.60000000e+00 
 3.67475977e-04  1.79998546e+00 -9.85300961e-02  1.60000000e+00 
 3.69475977e-04  1.80001453e+00 -9.85220961e-02  1.60000000e+00 
 3.71475977e-04  1.79998546e+00 -9.85140961e-02  1.60000000e+00 
 3.73475977e-04  1.80001453e+00 -9.85060961e-02  1.60000000e+00 
 3.75475977e-04  1.79998546e+00 -9.84980961e-02  1.60000000e+00 
 3.77475977e-04  1.80001453e+00 -9.84900961e-02  1.60000000e+00 
 3.79475977e-04  1.79998546e+00 -9.84820961e-02  1.60000000e+00 
 3.81475977e-04  1.80001453e+00 -9.84740961e-02  1.60000000e+00 
 3.83475977e-04  1.79998546e+00 -9.84660961e-02  1.60000000e+00 
 3.85475977e-04  1.80001453e+00 -9.84580961e-02  1.60000000e+00 
 3.87475977e-04  1.79998546e+00 -9.84500961e-02  1.60000000e+00 
 3.89475977e-04  1.80001453e+00 -9.84420961e-02  1.60000000e+00 
 3.91475977e-04  1.79998546e+00 -9.84340961e-02  1.60000000e+00 
 3.93475977e-04  1.80001453e+00 -9.84260961e-02  1.60000000e+00 
 3.95475977e-04  1.79998547e+00 -9.84180961e-02  1.60000000e+00 
 3.97475977e-04  1.80001452e+00 -9.84100961e-02  1.60000000e+00 
 3.99475977e-04  1.79998547e+00 -9.84020961e-02  1.60000000e+00 
 4.01475977e-04  1.80001452e+00 -9.83940961e-02  1.60000000e+00 
 4.03475977e-04  1.79998547e+00 -9.83860961e-02  1.60000000e+00 
 4.05475977e-04  1.80001452e+00 -9.83780961e-02  1.60000000e+00 
 4.07475977e-04  1.79998547e+00 -9.83700961e-02  1.60000000e+00 
 4.09475977e-04  1.80001452e+00 -9.83620961e-02  1.60000000e+00 
 4.11475977e-04  1.79998547e+00 -9.83540961e-02  1.60000000e+00 
 4.13475977e-04  1.80001452e+00 -9.83460961e-02  1.60000000e+00 
 4.15475977e-04  1.79998547e+00 -9.83380961e-02  1.60000000e+00 
 4.17475977e-04  1.80001452e+00 -9.83300961e-02  1.60000000e+00 
 4.19475977e-04  1.79998547e+00 -9.83220961e-02  1.60000000e+00 
 4.21475977e-04  1.80001452e+00 -9.83140961e-02  1.60000000e+00 
 4.23475977e-04  1.79998547e+00 -9.83060961e-02  1.60000000e+00 
 4.25475977e-04  1.80001452e+00 -9.82980961e-02  1.60000000e+00 
 4.27475977e-04  1.79998547e+00 -9.82900961e-02  1.60000000e+00 
 4.29475977e-04  1.80001452e+00 -9.82820961e-02  1.60000000e+00 
 4.31475977e-04  1.79998547e+00 -9.82740961e-02  1.60000000e+00 
 4.33475977e-04  1.80001452e+00 -9.82660961e-02  1.60000000e+00 
 4.35475977e-04  1.79998547e+00 -9.82580961e-02  1.60000000e+00 
 4.37475977e-04  1.80001452e+00 -9.82500961e-02  1.60000000e+00 
 4.39475977e-04  1.79998547e+00 -9.82420961e-02  1.60000000e+00 
 4.41475977e-04  1.80001452e+00 -9.82340961e-02  1.60000000e+00 
 4.43475977e-04  1.79998547e+00 -9.82260961e-02  1.60000000e+00 
 4.45475977e-04  1.80001452e+00 -9.82180961e-02  1.60000000e+00 
 4.47475977e-04  1.79998547e+00 -9.82100961e-02  1.60000000e+00 
 4.49475977e-04  1.80001451e+00 -9.82020961e-02  1.60000000e+00 
 4.51475977e-04  1.79998548e+00 -9.81940961e-02  1.60000000e+00 
 4.53475977e-04  1.80001451e+00 -9.81860961e-02  1.60000000e+00 
 4.55475977e-04  1.79998548e+00 -9.81780961e-02  1.60000000e+00 
 4.57475977e-04  1.80001451e+00 -9.81700961e-02  1.60000000e+00 
 4.59475977e-04  1.79998548e+00 -9.81620961e-02  1.60000000e+00 
 4.61475977e-04  1.80001451e+00 -9.81540961e-02  1.60000000e+00 
 4.63475977e-04  1.79998548e+00 -9.81460961e-02  1.60000000e+00 
 4.65475977e-04  1.80001451e+00 -9.81380961e-02  1.60000000e+00 
 4.67475977e-04  1.79998548e+00 -9.81300961e-02  1.60000000e+00 
 4.69475977e-04  1.80001451e+00 -9.81220961e-02  1.60000000e+00 
 4.71475977e-04  1.79998548e+00 -9.81140961e-02  1.60000000e+00 
 4.73475977e-04  1.80001451e+00 -9.81060961e-02  1.60000000e+00 
 4.75475977e-04  1.79998548e+00 -9.80980961e-02  1.60000000e+00 
 4.77475977e-04  1.80001451e+00 -9.80900961e-02  1.60000000e+00 
 4.79475977e-04  1.79998548e+00 -9.80820961e-02  1.60000000e+00 
 4.81475977e-04  1.80001451e+00 -9.80740961e-02  1.60000000e+00 
 4.83475977e-04  1.79998548e+00 -9.80660961e-02  1.60000000e+00 
 4.85475977e-04  1.80001451e+00 -9.80580961e-02  1.60000000e+00 
 4.87475977e-04  1.79998548e+00 -9.80500961e-02  1.60000000e+00 
 4.89475977e-04  1.80001451e+00 -9.80420961e-02  1.60000000e+00 
 4.91475977e-04  1.79998548e+00 -9.80340961e-02  1.60000000e+00 
 4.93475977e-04  1.80001451e+00 -9.80260961e-02  1.60000000e+00 
 4.95475977e-04  1.79998548e+00 -9.80180961e-02  1.60000000e+00 
 4.97475977e-04  1.80001451e+00 -9.80100961e-02  1.60000000e+00 
 4.99475977e-04  1.79998548e+00 -9.80020961e-02  1.60000000e+00 
 5.00100100e-04  1.80001450e+00 -9.79995996e-02  1.60000000e+00 
 5.00100110e-04  1.80000655e+00 -9.79995996e-02  1.60000000e+00 
 5.00100130e-04  1.80000236e+00 -9.79995995e-02  1.60000000e+00 
 5.00100170e-04  1.80000439e+00 -9.79995993e-02  1.60000000e+00 
 5.00100200e-04  1.80004007e+00 -9.79995992e-02  1.60000000e+00 
 5.00100208e-04  1.80000734e+00 -9.79995992e-02  1.60000000e+00 
 5.00100224e-04  1.79988104e+00 -9.79995991e-02  1.60000000e+00 
 5.00100256e-04  1.80005669e+00 -9.79995990e-02  1.60000000e+00 
 5.00100320e-04  1.79999885e+00 -9.79995987e-02  1.60000000e+00 
 5.00100405e-04  1.79997543e+00 -9.79995984e-02  1.60000000e+00 
 5.00100560e-04  1.80003331e+00 -9.79995978e-02  1.60000000e+00 
 5.00100868e-04  1.79996367e+00 -9.79995965e-02  1.60000000e+00 
 5.00101485e-04  1.80003757e+00 -9.79995941e-02  1.60000000e+00 
 5.00102720e-04  1.79996186e+00 -9.79995891e-02  1.60000000e+00 
 5.00105189e-04  1.80003840e+00 -9.79995792e-02  1.60000000e+00 
