 time            v(Q)            v(A)-v(B)       v(B)           
 0.00000000e+00  1.79999999e+00  4.00000000e-01  0.00000000e+00 
 1.00000000e-09  1.79999999e+00  4.00000004e-01  0.00000000e+00 
 2.00000000e-09  1.79999999e+00  4.00000008e-01  0.00000000e+00 
 4.00000000e-09  1.79999999e+00  4.00000016e-01  0.00000000e+00 
 8.00000000e-09  1.79999999e+00  4.00000032e-01  0.00000000e+00 
 1.60000000e-08  1.79999999e+00  4.00000064e-01  0.00000000e+00 
 3.20000000e-08  1.79999999e+00  4.00000128e-01  0.00000000e+00 
 6.40000000e-08  1.79999999e+00  4.00000256e-01  0.00000000e+00 
 1.00000000e-07  1.79999999e+00  4.00000400e-01  0.00000000e+00 
 1.00010000e-07  1.80001211e+00  4.00000400e-01  0.00000000e+00 
 1.00030000e-07  1.79998729e+00  4.00000400e-01  0.00000000e+00 
 1.00070000e-07  1.79993224e+00  4.00000400e-01  0.00000000e+00 
 1.00100000e-07  1.80006101e+00  4.00000400e-01  0.00000000e+00 
 1.00107642e-07  1.80041330e+00  4.00000400e-01  0.00000000e+00 
 1.00122926e-07  1.80051239e+00  4.00000400e-01  0.00000000e+00 
 1.00153495e-07  1.79980677e+00  4.00000401e-01  0.00000000e+00 
 1.00214632e-07  1.79981505e+00  4.00000401e-01  0.00000000e+00 
 1.00288407e-07  1.78701335e+00  4.00000401e-01  0.00000000e+00 
 1.00409224e-07  1.78808028e+00  4.00000402e-01  0.00000000e+00 
 1.00536326e-07  1.80975375e+00  4.00000402e-01  0.00000000e+00 
 1.00743451e-07  1.79123272e+00  4.00000403e-01  0.00000000e+00 
 1.00945726e-07  1.80783957e+00  4.00000404e-01  0.00000000e+00 
 1.01350275e-07  1.79255236e+00  4.00000405e-01  0.00000000e+00 
 1.02159375e-07  1.80725209e+00  4.00000409e-01  0.00000000e+00 
 1.03777573e-07  1.79283670e+00  4.00000415e-01  0.00000000e+00 
 1.07013969e-07  1.80711486e+00  4.00000428e-01  0.00000000e+00 
 1.13486763e-07  1.79290518e+00  4.00000454e-01  0.00000000e+00 
 1.26432349e-07  1.80708113e+00  4.00000506e-01  0.00000000e+00 
 1.52323521e-07  1.79292187e+00  4.00000609e-01  0.00000000e+00 
 2.04105867e-07  1.80707273e+00  4.00000816e-01  0.00000000e+00 
 3.07670557e-07  1.79292610e+00  4.00001231e-01  0.00000000e+00 
 5.14799937e-07  1.80707063e+00  4.00002059e-01  0.00000000e+00 
 9.29058698e-07  1.79292716e+00  4.00003716e-01  0.00000000e+00 
 1.75757622e-06  1.80707010e+00  4.00007030e-01  0.00000000e+00 
 3.41461126e-06  1.79292742e+00  4.00013658e-01  0.00000000e+00 
 5.41461126e-06  1.80706998e+00  4.00021658e-01  0.00000000e+00 
 7.41461126e-06  1.79292780e+00  4.00029658e-01  0.00000000e+00 
 9.41461126e-06  1.80706984e+00  4.00037658e-01  0.00000000e+00 
 1.14146113e-05  1.79292795e+00  4.00045658e-01  0.00000000e+00 
 1.34146113e-05  1.80706970e+00  4.00053658e-01  0.00000000e+00 
 1.54146113e-05  1.79292809e+00  4.00061658e-01  0.00000000e+00 
 1.74146113e-05  1.80706955e+00  4.00069658e-01  0.00000000e+00 
 1.94146113e-05  1.79292824e+00  4.00077658e-01  0.00000000e+00 
 2.14146113e-05  1.80706941e+00  4.00085658e-01  0.00000000e+00 
 2.34146113e-05  1.79292839e+00  4.00093658e-01  0.00000000e+00 
 2.54146113e-05  1.80706926e+00  4.00101658e-01  0.00000000e+00 
 2.74146113e-05  1.79292853e+00  4.00109658e-01  0.00000000e+00 
 2.94146113e-05  1.80706912e+00  4.00117658e-01  0.00000000e+00 
 3.14146113e-05  1.79292868e+00  4.00125658e-01  0.00000000e+00 
 3.34146113e-05  1.80706897e+00  4.00133658e-01  0.00000000e+00 
 3.54146113e-05  1.79292882e+00  4.00141658e-01  0.00000000e+00 
 3.74146113e-05  1.80706883e+00  4.00149658e-01  0.00000000e+00 
 3.94146113e-05  1.79292897e+00  4.00157658e-01  0.00000000e+00 
 4.14146113e-05  1.80706869e+00  4.00165658e-01  0.00000000e+00 
 4.34146113e-05  1.79292912e+00  4.00173658e-01  0.00000000e+00 
 4.54146113e-05  1.80706854e+00  4.00181658e-01  0.00000000e+00 
 4.74146113e-05  1.79292926e+00  4.00189658e-01  0.00000000e+00 
 4.94146113e-05  1.80706840e+00  4.00197658e-01  0.00000000e+00 
 5.14146113e-05  1.79292941e+00  4.00205658e-01  0.00000000e+00 
 5.34146113e-05  1.80706825e+00  4.00213658e-01  0.00000000e+00 
 5.54146113e-05  1.79292955e+00  4.00221658e-01  0.00000000e+00 
 5.74146113e-05  1.80706811e+00  4.00229658e-01  0.00000000e+00 
 5.94146113e-05  1.79292970e+00  4.00237658e-01  0.00000000e+00 
 6.14146113e-05  1.80706796e+00  4.00245658e-01  0.00000000e+00 
 6.34146113e-05  1.79292985e+00  4.00253658e-01  0.00000000e+00 
 6.54146113e-05  1.80706782e+00  4.00261658e-01  0.00000000e+00 
 6.74146113e-05  1.79292999e+00  4.00269658e-01  0.00000000e+00 
 6.94146113e-05  1.80706767e+00  4.00277658e-01  0.00000000e+00 
 7.14146113e-05  1.79293014e+00  4.00285658e-01  0.00000000e+00 
 7.34146113e-05  1.80706753e+00  4.00293658e-01  0.00000000e+00 
 7.54146113e-05  1.79293028e+00  4.00301658e-01  0.00000000e+00 
 7.74146113e-05  1.80706738e+00  4.00309658e-01  0.00000000e+00 
 7.94146113e-05  1.79293043e+00  4.00317658e-01  0.00000000e+00 
 8.14146113e-05  1.80706724e+00  4.00325658e-01  0.00000000e+00 
 8.34146113e-05  1.79293058e+00  4.00333658e-01  0.00000000e+00 
 8.54146113e-05  1.80706709e+00  4.00341658e-01  0.00000000e+00 
 8.74146113e-05  1.79293072e+00  4.00349658e-01  0.00000000e+00 
 8.94146113e-05  1.80706695e+00  4.00357658e-01  0.00000000e+00 
 9.14146113e-05  1.79293087e+00  4.00365658e-01  0.00000000e+00 
 9.34146113e-05  1.80706680e+00  4.00373658e-01  0.00000000e+00 
 9.54146113e-05  1.79293101e+00  4.00381658e-01  0.00000000e+00 
 9.74146113e-05  1.80706666e+00  4.00389658e-01  0.00000000e+00 
 9.94146113e-05  1.79293116e+00  4.00397658e-01  0.00000000e+00 
 1.01414611e-04  1.80706651e+00  4.00405658e-01  0.00000000e+00 
 1.03414611e-04  1.79293131e+00  4.00413658e-01  0.00000000e+00 
 1.05414611e-04  1.80706637e+00  4.00421658e-01  0.00000000e+00 
 1.07414611e-04  1.79293145e+00  4.00429658e-01  0.00000000e+00 
 1.09414611e-04  1.80706623e+00  4.00437658e-01  0.00000000e+00 
 1.11414611e-04  1.79293160e+00  4.00445658e-01  0.00000000e+00 
 1.13414611e-04  1.80706608e+00  4.00453658e-01  0.00000000e+00 
 1.15414611e-04  1.79293174e+00  4.00461658e-01  0.00000000e+00 
 1.17414611e-04  1.80706594e+00  4.00469658e-01  0.00000000e+00 
 1.19414611e-04  1.79293189e+00  4.00477658e-01  0.00000000e+00 
 1.21414611e-04  1.80706579e+00  4.00485658e-01  0.00000000e+00 
 1.23414611e-04  1.79293203e+00  4.00493658e-01  0.00000000e+00 
 1.25414611e-04  1.80706565e+00  4.00501658e-01  0.00000000e+00 
 1.27414611e-04  1.79293218e+00  4.00509658e-01  0.00000000e+00 
 1.29414611e-04  1.80706550e+00  4.00517658e-01  0.00000000e+00 
 1.31414611e-04  1.79293233e+00  4.00525658e-01  0.00000000e+00 
 1.33414611e-04  1.80706536e+00  4.00533658e-01  0.00000000e+00 
 1.35414611e-04  1.79293247e+00  4.00541658e-01  0.00000000e+00 
 1.37414611e-04  1.80706521e+00  4.00549658e-01  0.00000000e+00 
 1.39414611e-04  1.79293262e+00  4.00557658e-01  0.00000000e+00 
 1.41414611e-04  1.80706507e+00  4.00565658e-01  0.00000000e+00 
 1.43414611e-04  1.79293276e+00  4.00573658e-01  0.00000000e+00 
 1.45414611e-04  1.80706492e+00  4.00581658e-01  0.00000000e+00 
 1.47414611e-04  1.79293291e+00  4.00589658e-01  0.00000000e+00 
 1.49414611e-04  1.80706478e+00  4.00597658e-01  0.00000000e+00 
 1.51414611e-04  1.79293306e+00  4.00605658e-01  0.00000000e+00 
 1.53414611e-04  1.80706463e+00  4.00613658e-01  0.00000000e+00 
 1.55414611e-04  1.79293320e+00  4.00621658e-01  0.00000000e+00 
 1.57414611e-04  1.80706449e+00  4.00629658e-01  0.00000000e+00 
 1.59414611e-04  1.79293335e+00  4.00637658e-01  0.00000000e+00 
 1.61414611e-04  1.80706434e+00  4.00645658e-01  0.00000000e+00 
 1.63414611e-04  1.79293349e+00  4.00653658e-01  0.00000000e+00 
 1.65414611e-04  1.80706420e+00  4.00661658e-01  0.00000000e+00 
 1.67414611e-04  1.79293364e+00  4.00669658e-01  0.00000000e+00 
 1.69414611e-04  1.80706406e+00  4.00677658e-01  0.00000000e+00 
 1.71414611e-04  1.79293378e+00  4.00685658e-01  0.00000000e+00 
 1.73414611e-04  1.80706391e+00  4.00693658e-01  0.00000000e+00 
 1.75414611e-04  1.79293393e+00  4.00701658e-01  0.00000000e+00 
 1.77414611e-04  1.80706377e+00  4.00709658e-01  0.00000000e+00 
 1.79414611e-04  1.79293408e+00  4.00717658e-01  0.00000000e+00 
 1.81414611e-04  1.80706362e+00  4.00725658e-01  0.00000000e+00 
 1.83414611e-04  1.79293422e+00  4.00733658e-01  0.00000000e+00 
 1.85414611e-04  1.80706348e+00  4.00741658e-01  0.00000000e+00 
 1.87414611e-04  1.79293437e+00  4.00749658e-01  0.00000000e+00 
 1.89414611e-04  1.80706333e+00  4.00757658e-01  0.00000000e+00 
 1.91414611e-04  1.79293451e+00  4.00765658e-01  0.00000000e+00 
 1.93414611e-04  1.80706319e+00  4.00773658e-01  0.00000000e+00 
 1.95414611e-04  1.79293466e+00  4.00781658e-01  0.00000000e+00 
 1.97414611e-04  1.80706304e+00  4.00789658e-01  0.00000000e+00 
 1.99414611e-04  1.79293481e+00  4.00797658e-01  0.00000000e+00 
 2.00000000e-04  1.80706273e+00  4.00800000e-01  0.00000000e+00 
 2.00200000e-04  1.80000015e+00 -9.91992000e-02  5.00000000e-01 
 2.00600000e-04  1.79999985e+00 -9.91976000e-02  5.00000000e-01 
 2.01079937e-04  1.80000015e+00 -9.91956803e-02  5.00000000e-01 
 2.01635350e-04  1.79999985e+00 -9.91934586e-02  5.00000000e-01 
 2.02746177e-04  1.80000015e+00 -9.91890153e-02  5.00000000e-01 
 2.04746177e-04  1.79999985e+00 -9.91810153e-02  5.00000000e-01 
 2.06746177e-04  1.80000015e+00 -9.91730153e-02  5.00000000e-01 
 2.08746177e-04  1.79999985e+00 -9.91650153e-02  5.00000000e-01 
 2.10746177e-04  1.80000015e+00 -9.91570153e-02  5.00000000e-01 
 2.12746177e-04  1.79999985e+00 -9.91490153e-02  5.00000000e-01 
 2.14746177e-04  1.80000015e+00 -9.91410153e-02  5.00000000e-01 
 2.16746177e-04  1.79999985e+00 -9.91330153e-02  5.00000000e-01 
 2.18746177e-04  1.80000015e+00 -9.91250153e-02  5.00000000e-01 
 2.20746177e-04  1.79999985e+00 -9.91170153e-02  5.00000000e-01 
 2.22746177e-04  1.80000015e+00 -9.91090153e-02  5.00000000e-01 
 2.24746177e-04  1.79999985e+00 -9.91010153e-02  5.00000000e-01 
 2.26746177e-04  1.80000015e+00 -9.90930153e-02  5.00000000e-01 
 2.28746177e-04  1.79999985e+00 -9.90850153e-02  5.00000000e-01 
 2.30746177e-04  1.80000015e+00 -9.90770153e-02  5.00000000e-01 
 2.32746177e-04  1.79999985e+00 -9.90690153e-02  5.00000000e-01 
 2.34746177e-04  1.80000015e+00 -9.90610153e-02  5.00000000e-01 
 2.36746177e-04  1.79999985e+00 -9.90530153e-02  5.00000000e-01 
 2.38746177e-04  1.80000015e+00 -9.90450153e-02  5.00000000e-01 
 2.40746177e-04  1.79999985e+00 -9.90370153e-02  5.00000000e-01 
 2.42746177e-04  1.80000015e+00 -9.90290153e-02  5.00000000e-01 
 2.44746177e-04  1.79999985e+00 -9.90210153e-02  5.00000000e-01 
 2.46746177e-04  1.80000015e+00 -9.90130153e-02  5.00000000e-01 
 2.48746177e-04  1.79999985e+00 -9.90050153e-02  5.00000000e-01 
 2.50746177e-04  1.80000015e+00 -9.89970153e-02  5.00000000e-01 
 2.52746177e-04  1.79999985e+00 -9.89890153e-02  5.00000000e-01 
 2.54746177e-04  1.80000015e+00 -9.89810153e-02  5.00000000e-01 
 2.56746177e-04  1.79999985e+00 -9.89730153e-02  5.00000000e-01 
 2.58746177e-04  1.80000015e+00 -9.89650153e-02  5.00000000e-01 
 2.60746177e-04  1.79999985e+00 -9.89570153e-02  5.00000000e-01 
 2.62746177e-04  1.80000015e+00 -9.89490153e-02  5.00000000e-01 
 2.64746177e-04  1.79999985e+00 -9.89410153e-02  5.00000000e-01 
 2.66746177e-04  1.80000015e+00 -9.89330153e-02  5.00000000e-01 
 2.68746177e-04  1.79999985e+00 -9.89250153e-02  5.00000000e-01 
 2.70746177e-04  1.80000015e+00 -9.89170153e-02  5.00000000e-01 
 2.72746177e-04  1.79999985e+00 -9.89090153e-02  5.00000000e-01 
 2.74746177e-04  1.80000015e+00 -9.89010153e-02  5.00000000e-01 
 2.76746177e-04  1.79999985e+00 -9.88930153e-02  5.00000000e-01 
 2.78746177e-04  1.80000015e+00 -9.88850153e-02  5.00000000e-01 
 2.80746177e-04  1.79999985e+00 -9.88770153e-02  5.00000000e-01 
 2.82746177e-04  1.80000015e+00 -9.88690153e-02  5.00000000e-01 
 2.84746177e-04  1.79999985e+00 -9.88610153e-02  5.00000000e-01 
 2.86746177e-04  1.80000015e+00 -9.88530153e-02  5.00000000e-01 
 2.88746177e-04  1.79999985e+00 -9.88450153e-02  5.00000000e-01 
 2.90746177e-04  1.80000015e+00 -9.88370153e-02  5.00000000e-01 
 2.92746177e-04  1.79999985e+00 -9.88290153e-02  5.00000000e-01 
 2.94746177e-04  1.80000015e+00 -9.88210153e-02  5.00000000e-01 
 2.96746177e-04  1.79999985e+00 -9.88130153e-02  5.00000000e-01 
 2.98746177e-04  1.80000015e+00 -9.88050153e-02  5.00000000e-01 
 3.00746177e-04  1.79999985e+00 -9.87970153e-02  5.00000000e-01 
 3.02746177e-04  1.80000015e+00 -9.87890153e-02  5.00000000e-01 
 3.04746177e-04  1.79999985e+00 -9.87810153e-02  5.00000000e-01 
 3.06746177e-04  1.80000015e+00 -9.87730153e-02  5.00000000e-01 
 3.08746177e-04  1.79999985e+00 -9.87650153e-02  5.00000000e-01 
 3.10746177e-04  1.80000015e+00 -9.87570153e-02  5.00000000e-01 
 3.12746177e-04  1.79999985e+00 -9.87490153e-02  5.00000000e-01 
 3.14746177e-04  1.80000015e+00 -9.87410153e-02  5.00000000e-01 
 3.16746177e-04  1.79999985e+00 -9.87330153e-02  5.00000000e-01 
 3.18746177e-04  1.80000015e+00 -9.87250153e-02  5.00000000e-01 
 3.20746177e-04  1.79999985e+00 -9.87170153e-02  5.00000000e-01 
 3.22746177e-04  1.80000015e+00 -9.87090153e-02  5.00000000e-01 
 3.24746177e-04  1.79999985e+00 -9.87010153e-02  5.00000000e-01 
 3.26746177e-04  1.80000015e+00 -9.86930153e-02  5.00000000e-01 
 3.28746177e-04  1.79999985e+00 -9.86850153e-02  5.00000000e-01 
 3.30746177e-04  1.80000015e+00 -9.86770153e-02  5.00000000e-01 
 3.32746177e-04  1.79999985e+00 -9.86690153e-02  5.00000000e-01 
 3.34746177e-04  1.80000015e+00 -9.86610153e-02  5.00000000e-01 
 3.36746177e-04  1.79999985e+00 -9.86530153e-02  5.00000000e-01 
 3.38746177e-04  1.80000015e+00 -9.86450153e-02  5.00000000e-01 
 3.40746177e-04  1.79999985e+00 -9.86370153e-02  5.00000000e-01 
 3.42746177e-04  1.80000015e+00 -9.86290153e-02  5.00000000e-01 
 3.44746177e-04  1.79999985e+00 -9.86210153e-02  5.00000000e-01 
 3.46746177e-04  1.80000015e+00 -9.86130153e-02  5.00000000e-01 
 3.48746177e-04  1.79999985e+00 -9.86050153e-02  5.00000000e-01 
 3.50746177e-04  1.80000015e+00 -9.85970153e-02  5.00000000e-01 
 3.52746177e-04  1.79999985e+00 -9.85890153e-02  5.00000000e-01 
 3.54746177e-04  1.80000015e+00 -9.85810153e-02  5.00000000e-01 
 3.56746177e-04  1.79999985e+00 -9.85730153e-02  5.00000000e-01 
 3.58746177e-04  1.80000015e+00 -9.85650153e-02  5.00000000e-01 
 3.60746177e-04  1.79999985e+00 -9.85570153e-02  5.00000000e-01 
 3.62746177e-04  1.80000015e+00 -9.85490153e-02  5.00000000e-01 
 3.64746177e-04  1.79999985e+00 -9.85410153e-02  5.00000000e-01 
 3.66746177e-04  1.80000015e+00 -9.85330153e-02  5.00000000e-01 
 3.68746177e-04  1.79999985e+00 -9.85250153e-02  5.00000000e-01 
 3.70746177e-04  1.80000015e+00 -9.85170153e-02  5.00000000e-01 
 3.72746177e-04  1.79999985e+00 -9.85090153e-02  5.00000000e-01 
 3.74746177e-04  1.80000015e+00 -9.85010153e-02  5.00000000e-01 
 3.76746177e-04  1.79999985e+00 -9.84930153e-02  5.00000000e-01 
 3.78746177e-04  1.80000015e+00 -9.84850153e-02  5.00000000e-01 
 3.80746177e-04  1.79999985e+00 -9.84770153e-02  5.00000000e-01 
 3.82746177e-04  1.80000015e+00 -9.84690153e-02  5.00000000e-01 
 3.84746177e-04  1.79999985e+00 -9.84610153e-02  5.00000000e-01 
 3.86746177e-04  1.80000015e+00 -9.84530153e-02  5.00000000e-01 
 3.88746177e-04  1.79999985e+00 -9.84450153e-02  5.00000000e-01 
 3.90746177e-04  1.80000015e+00 -9.84370153e-02  5.00000000e-01 
 3.92746177e-04  1.79999985e+00 -9.84290153e-02  5.00000000e-01 
 3.94746177e-04  1.80000015e+00 -9.84210153e-02  5.00000000e-01 
 3.96746177e-04  1.79999985e+00 -9.84130153e-02  5.00000000e-01 
 3.98746177e-04  1.80000015e+00 -9.84050153e-02  5.00000000e-01 
 4.00746177e-04  1.79999985e+00 -9.83970153e-02  5.00000000e-01 
 4.02746177e-04  1.80000015e+00 -9.83890153e-02  5.00000000e-01 
 4.04746177e-04  1.79999985e+00 -9.83810153e-02  5.00000000e-01 
 4.06746177e-04  1.80000015e+00 -9.83730153e-02  5.00000000e-01 
 4.08746177e-04  1.79999985e+00 -9.83650153e-02  5.00000000e-01 
 4.10746177e-04  1.80000015e+00 -9.83570153e-02  5.00000000e-01 
 4.12746177e-04  1.79999985e+00 -9.83490153e-02  5.00000000e-01 
 4.14746177e-04  1.80000015e+00 -9.83410153e-02  5.00000000e-01 
 4.16746177e-04  1.79999985e+00 -9.83330153e-02  5.00000000e-01 
 4.18746177e-04  1.80000015e+00 -9.83250153e-02  5.00000000e-01 
 4.20746177e-04  1.79999985e+00 -9.83170153e-02  5.00000000e-01 
 4.22746177e-04  1.80000015e+00 -9.83090153e-02  5.00000000e-01 
 4.24746177e-04  1.79999985e+00 -9.83010153e-02  5.00000000e-01 
 4.26746177e-04  1.80000015e+00 -9.82930153e-02  5.00000000e-01 
 4.28746177e-04  1.79999985e+00 -9.82850153e-02  5.00000000e-01 
 4.30746177e-04  1.80000015e+00 -9.82770153e-02  5.00000000e-01 
 4.32746177e-04  1.79999985e+00 -9.82690153e-02  5.00000000e-01 
 4.34746177e-04  1.80000015e+00 -9.82610153e-02  5.00000000e-01 
 4.36746177e-04  1.79999985e+00 -9.82530153e-02  5.00000000e-01 
 4.38746177e-04  1.80000015e+00 -9.82450153e-02  5.00000000e-01 
 4.40746177e-04  1.79999985e+00 -9.82370153e-02  5.00000000e-01 
 4.42746177e-04  1.80000015e+00 -9.82290153e-02  5.00000000e-01 
 4.44746177e-04  1.79999985e+00 -9.82210153e-02  5.00000000e-01 
 4.46746177e-04  1.80000015e+00 -9.82130153e-02  5.00000000e-01 
 4.48746177e-04  1.79999985e+00 -9.82050153e-02  5.00000000e-01 
 4.50746177e-04  1.80000015e+00 -9.81970153e-02  5.00000000e-01 
 4.52746177e-04  1.79999985e+00 -9.81890153e-02  5.00000000e-01 
 4.54746177e-04  1.80000015e+00 -9.81810153e-02  5.00000000e-01 
 4.56746177e-04  1.79999985e+00 -9.81730153e-02  5.00000000e-01 
 4.58746177e-04  1.80000015e+00 -9.81650153e-02  5.00000000e-01 
 4.60746177e-04  1.79999985e+00 -9.81570153e-02  5.00000000e-01 
 4.62746177e-04  1.80000015e+00 -9.81490153e-02  5.00000000e-01 
 4.64746177e-04  1.79999985e+00 -9.81410153e-02  5.00000000e-01 
 4.66746177e-04  1.80000015e+00 -9.81330153e-02  5.00000000e-01 
 4.68746177e-04  1.79999985e+00 -9.81250153e-02  5.00000000e-01 
 4.70746177e-04  1.80000015e+00 -9.81170153e-02  5.00000000e-01 
 4.72746177e-04  1.79999985e+00 -9.81090153e-02  5.00000000e-01 
 4.74746177e-04  1.80000015e+00 -9.81010153e-02  5.00000000e-01 
 4.76746177e-04  1.79999985e+00 -9.80930153e-02  5.00000000e-01 
 4.78746177e-04  1.80000015e+00 -9.80850153e-02  5.00000000e-01 
 4.80746177e-04  1.79999985e+00 -9.80770153e-02  5.00000000e-01 
 4.82746177e-04  1.80000015e+00 -9.80690153e-02  5.00000000e-01 
 4.84746177e-04  1.79999985e+00 -9.80610153e-02  5.00000000e-01 
 4.86746177e-04  1.80000015e+00 -9.80530153e-02  5.00000000e-01 
 4.88746177e-04  1.79999985e+00 -9.80450153e-02  5.00000000e-01 
 4.90746177e-04  1.80000015e+00 -9.80370153e-02  5.00000000e-01 
 4.92746177e-04  1.79999985e+00 -9.80290153e-02  5.00000000e-01 
 4.94746177e-04  1.80000015e+00 -9.80210153e-02  5.00000000e-01 
 4.96746177e-04  1.79999985e+00 -9.80130153e-02  5.00000000e-01 
 4.98746177e-04  1.80000015e+00 -9.80050153e-02  5.00000000e-01 
 5.00100100e-04  1.79999985e+00 -9.79995996e-02  5.00000000e-01 
 5.00100110e-04  1.79999724e+00 -9.79995996e-02  5.00000000e-01 
 5.00100130e-04  1.80000199e+00 -9.79995995e-02  5.00000000e-01 
 5.00100170e-04  1.80001533e+00 -9.79995993e-02  5.00000000e-01 
 5.00100200e-04  1.80007855e+00 -9.79995992e-02  5.00000000e-01 
 5.00100208e-04  1.79995624e+00 -9.79995992e-02  5.00000000e-01 
 5.00100224e-04  1.79944612e+00 -9.79995991e-02  5.00000000e-01 
 5.00100256e-04  1.79913783e+00 -9.79995990e-02  5.00000000e-01 
 5.00100320e-04  1.85813262e+00 -9.79995987e-02  5.00000000e-01 
 5.00100386e-04  1.77972910e+00 -9.79995985e-02  5.00000000e-01 
 5.00100464e-04  1.81165019e+00 -9.79995981e-02  5.00000000e-01 
 5.00100589e-04  1.79131605e+00 -9.79995976e-02  5.00000000e-01 
 5.00100717e-04  1.80660221e+00 -9.79995971e-02  5.00000000e-01 
 5.00100974e-04  1.79419799e+00 -9.79995961e-02  5.00000000e-01 
 5.00101487e-04  1.80546108e+00 -9.79995941e-02  5.00000000e-01 
 5.00102376e-04  1.79474190e+00 -9.79995905e-02  5.00000000e-01 
 5.00104152e-04  1.80517729e+00 -9.79995834e-02  5.00000000e-01 
 5.00107704e-04  1.79487987e+00 -9.79995692e-02  5.00000000e-01 
 5.00114809e-04  1.80510914e+00 -9.79995408e-02  5.00000000e-01 
