 time            v(Q)            v(A)-v(B)       v(B)           
 0.00000000e+00  1.79999999e+00  8.00000000e-01  0.00000000e+00 
 1.00000000e-09  1.79999999e+00  8.00000004e-01  0.00000000e+00 
 2.00000000e-09  1.79999999e+00  8.00000008e-01  0.00000000e+00 
 4.00000000e-09  1.79999999e+00  8.00000016e-01  0.00000000e+00 
 8.00000000e-09  1.79999999e+00  8.00000032e-01  0.00000000e+00 
 1.60000000e-08  1.79999999e+00  8.00000064e-01  0.00000000e+00 
 3.20000000e-08  1.79999999e+00  8.00000128e-01  0.00000000e+00 
 6.40000000e-08  1.79999999e+00  8.00000256e-01  0.00000000e+00 
 1.00000000e-07  1.79999999e+00  8.00000400e-01  0.00000000e+00 
 1.00010000e-07  1.80001159e+00  8.00000400e-01  0.00000000e+00 
 1.00030000e-07  1.79998800e+00  8.00000400e-01  0.00000000e+00 
 1.00070000e-07  1.79993508e+00  8.00000400e-01  0.00000000e+00 
 1.00100000e-07  1.80005220e+00  8.00000400e-01  0.00000000e+00 
 1.00107631e-07  1.80029868e+00  8.00000400e-01  0.00000000e+00 
 1.00122893e-07  1.80022403e+00  8.00000400e-01  0.00000000e+00 
 1.00153418e-07  1.80012512e+00  8.00000401e-01  0.00000000e+00 
 1.00214467e-07  1.79747901e+00  8.00000401e-01  0.00000000e+00 
 1.00292244e-07  1.77128836e+00  8.00000401e-01  0.00000000e+00 
 1.00379460e-07  1.81525703e+00  8.00000402e-01  0.00000000e+00 
 1.00475428e-07  1.78923378e+00  8.00000402e-01  0.00000000e+00 
 1.00637718e-07  1.80755559e+00  8.00000403e-01  0.00000000e+00 
 1.00865954e-07  1.79353273e+00  8.00000403e-01  0.00000000e+00 
 1.01234453e-07  1.80532353e+00  8.00000405e-01  0.00000000e+00 
 1.01823311e-07  1.79493176e+00  8.00000407e-01  0.00000000e+00 
 1.02884828e-07  1.80461554e+00  8.00000412e-01  0.00000000e+00 
 1.05007862e-07  1.79534266e+00  8.00000420e-01  0.00000000e+00 
 1.09253930e-07  1.80443949e+00  8.00000437e-01  0.00000000e+00 
 1.17746065e-07  1.79544367e+00  8.00000471e-01  0.00000000e+00 
 1.34730336e-07  1.80439655e+00  8.00000539e-01  0.00000000e+00 
 1.68698877e-07  1.79546877e+00  8.00000675e-01  0.00000000e+00 
 2.36635960e-07  1.80438579e+00  8.00000947e-01  0.00000000e+00 
 3.72510125e-07  1.79547502e+00  8.00001490e-01  0.00000000e+00 
 6.44258455e-07  1.80438308e+00  8.00002577e-01  0.00000000e+00 
 1.18775511e-06  1.79547659e+00  8.00004751e-01  0.00000000e+00 
 2.27474844e-06  1.80438240e+00  8.00009099e-01  0.00000000e+00 
 4.27474844e-06  1.79547699e+00  8.00017099e-01  0.00000000e+00 
 6.27474844e-06  1.80438215e+00  8.00025099e-01  0.00000000e+00 
 8.27474844e-06  1.79547682e+00  8.00033099e-01  0.00000000e+00 
 1.02747484e-05  1.80438189e+00  8.00041099e-01  0.00000000e+00 
 1.22747484e-05  1.79547709e+00  8.00049099e-01  0.00000000e+00 
 1.42747484e-05  1.80438163e+00  8.00057099e-01  0.00000000e+00 
 1.62747484e-05  1.79547737e+00  8.00065099e-01  0.00000000e+00 
 1.82747484e-05  1.80438136e+00  8.00073099e-01  0.00000000e+00 
 2.02747484e-05  1.79547764e+00  8.00081099e-01  0.00000000e+00 
 2.22747484e-05  1.80438110e+00  8.00089099e-01  0.00000000e+00 
 2.42747484e-05  1.79547792e+00  8.00097099e-01  0.00000000e+00 
 2.62747484e-05  1.80438084e+00  8.00105099e-01  0.00000000e+00 
 2.82747484e-05  1.79547819e+00  8.00113099e-01  0.00000000e+00 
 3.02747484e-05  1.80438057e+00  8.00121099e-01  0.00000000e+00 
 3.22747484e-05  1.79547847e+00  8.00129099e-01  0.00000000e+00 
 3.42747484e-05  1.80438031e+00  8.00137099e-01  0.00000000e+00 
 3.62747484e-05  1.79547874e+00  8.00145099e-01  0.00000000e+00 
 3.82747484e-05  1.80438005e+00  8.00153099e-01  0.00000000e+00 
 4.02747484e-05  1.79547902e+00  8.00161099e-01  0.00000000e+00 
 4.22747484e-05  1.80437978e+00  8.00169099e-01  0.00000000e+00 
 4.42747484e-05  1.79547929e+00  8.00177099e-01  0.00000000e+00 
 4.62747484e-05  1.80437952e+00  8.00185099e-01  0.00000000e+00 
 4.82747484e-05  1.79547957e+00  8.00193099e-01  0.00000000e+00 
 5.02747484e-05  1.80437926e+00  8.00201099e-01  0.00000000e+00 
 5.22747484e-05  1.79547984e+00  8.00209099e-01  0.00000000e+00 
 5.42747484e-05  1.80437899e+00  8.00217099e-01  0.00000000e+00 
 5.62747484e-05  1.79548012e+00  8.00225099e-01  0.00000000e+00 
 5.82747484e-05  1.80437873e+00  8.00233099e-01  0.00000000e+00 
 6.02747484e-05  1.79548039e+00  8.00241099e-01  0.00000000e+00 
 6.22747484e-05  1.80437846e+00  8.00249099e-01  0.00000000e+00 
 6.42747484e-05  1.79548067e+00  8.00257099e-01  0.00000000e+00 
 6.62747484e-05  1.80437820e+00  8.00265099e-01  0.00000000e+00 
 6.82747484e-05  1.79548094e+00  8.00273099e-01  0.00000000e+00 
 7.02747484e-05  1.80437794e+00  8.00281099e-01  0.00000000e+00 
 7.22747484e-05  1.79548122e+00  8.00289099e-01  0.00000000e+00 
 7.42747484e-05  1.80437767e+00  8.00297099e-01  0.00000000e+00 
 7.62747484e-05  1.79548149e+00  8.00305099e-01  0.00000000e+00 
 7.82747484e-05  1.80437741e+00  8.00313099e-01  0.00000000e+00 
 8.02747484e-05  1.79548177e+00  8.00321099e-01  0.00000000e+00 
 8.22747484e-05  1.80437715e+00  8.00329099e-01  0.00000000e+00 
 8.42747484e-05  1.79548204e+00  8.00337099e-01  0.00000000e+00 
 8.62747484e-05  1.80437688e+00  8.00345099e-01  0.00000000e+00 
 8.82747484e-05  1.79548276e+00  8.00353099e-01  0.00000000e+00 
 9.02747484e-05  1.80437662e+00  8.00361099e-01  0.00000000e+00 
 9.22747484e-05  1.79548304e+00  8.00369099e-01  0.00000000e+00 
 9.42747484e-05  1.80437635e+00  8.00377099e-01  0.00000000e+00 
 9.62747484e-05  1.79548287e+00  8.00385099e-01  0.00000000e+00 
 9.82747484e-05  1.80437609e+00  8.00393099e-01  0.00000000e+00 
 1.00274748e-04  1.79548314e+00  8.00401099e-01  0.00000000e+00 
 1.02274748e-04  1.80437583e+00  8.00409099e-01  0.00000000e+00 
 1.04274748e-04  1.79548342e+00  8.00417099e-01  0.00000000e+00 
 1.06274748e-04  1.80437556e+00  8.00425099e-01  0.00000000e+00 
 1.08274748e-04  1.79548369e+00  8.00433099e-01  0.00000000e+00 
 1.10274748e-04  1.80437530e+00  8.00441099e-01  0.00000000e+00 
 1.12274748e-04  1.79548397e+00  8.00449099e-01  0.00000000e+00 
 1.14274748e-04  1.80437504e+00  8.00457099e-01  0.00000000e+00 
 1.16274748e-04  1.79548424e+00  8.00465099e-01  0.00000000e+00 
 1.18274748e-04  1.80437477e+00  8.00473099e-01  0.00000000e+00 
 1.20274748e-04  1.79548452e+00  8.00481099e-01  0.00000000e+00 
 1.22274748e-04  1.80437451e+00  8.00489099e-01  0.00000000e+00 
 1.24274748e-04  1.79548479e+00  8.00497099e-01  0.00000000e+00 
 1.26274748e-04  1.80437424e+00  8.00505099e-01  0.00000000e+00 
 1.28274748e-04  1.79548507e+00  8.00513099e-01  0.00000000e+00 
 1.30274748e-04  1.80437398e+00  8.00521099e-01  0.00000000e+00 
 1.32274748e-04  1.79548534e+00  8.00529099e-01  0.00000000e+00 
 1.34274748e-04  1.80437372e+00  8.00537099e-01  0.00000000e+00 
 1.36274748e-04  1.79548562e+00  8.00545099e-01  0.00000000e+00 
 1.38274748e-04  1.80437345e+00  8.00553099e-01  0.00000000e+00 
 1.40274748e-04  1.79548589e+00  8.00561099e-01  0.00000000e+00 
 1.42274748e-04  1.80437319e+00  8.00569099e-01  0.00000000e+00 
 1.44274748e-04  1.79548617e+00  8.00577099e-01  0.00000000e+00 
 1.46274748e-04  1.80437293e+00  8.00585099e-01  0.00000000e+00 
 1.48274748e-04  1.79548644e+00  8.00593099e-01  0.00000000e+00 
 1.50274748e-04  1.80437266e+00  8.00601099e-01  0.00000000e+00 
 1.52274748e-04  1.79548672e+00  8.00609099e-01  0.00000000e+00 
 1.54274748e-04  1.80437240e+00  8.00617099e-01  0.00000000e+00 
 1.56274748e-04  1.79548699e+00  8.00625099e-01  0.00000000e+00 
 1.58274748e-04  1.80437213e+00  8.00633099e-01  0.00000000e+00 
 1.60274748e-04  1.79548727e+00  8.00641099e-01  0.00000000e+00 
 1.62274748e-04  1.80437187e+00  8.00649099e-01  0.00000000e+00 
 1.64274748e-04  1.79548754e+00  8.00657099e-01  0.00000000e+00 
 1.66274748e-04  1.80437161e+00  8.00665099e-01  0.00000000e+00 
 1.68274748e-04  1.79548782e+00  8.00673099e-01  0.00000000e+00 
 1.70274748e-04  1.80437134e+00  8.00681099e-01  0.00000000e+00 
 1.72274748e-04  1.79548809e+00  8.00689099e-01  0.00000000e+00 
 1.74274748e-04  1.80437108e+00  8.00697099e-01  0.00000000e+00 
 1.76274748e-04  1.79548836e+00  8.00705099e-01  0.00000000e+00 
 1.78274748e-04  1.80437082e+00  8.00713099e-01  0.00000000e+00 
 1.80274748e-04  1.79548864e+00  8.00721099e-01  0.00000000e+00 
 1.82274748e-04  1.80437055e+00  8.00729099e-01  0.00000000e+00 
 1.84274748e-04  1.79548891e+00  8.00737099e-01  0.00000000e+00 
 1.86274748e-04  1.80437029e+00  8.00745099e-01  0.00000000e+00 
 1.88274748e-04  1.79548919e+00  8.00753099e-01  0.00000000e+00 
 1.90274748e-04  1.80437003e+00  8.00761099e-01  0.00000000e+00 
 1.92274748e-04  1.79548946e+00  8.00769099e-01  0.00000000e+00 
 1.94274748e-04  1.80436976e+00  8.00777099e-01  0.00000000e+00 
 1.96274748e-04  1.79548974e+00  8.00785099e-01  0.00000000e+00 
 1.98274748e-04  1.80436950e+00  8.00793099e-01  0.00000000e+00 
 2.00000000e-04  1.79549021e+00  8.00800000e-01  0.00000000e+00 
 2.00200000e-04  8.07808420e-05 -9.91992000e-02  9.00000000e-01 
 2.00600000e-04 -7.72158892e-05 -9.91976000e-02  9.00000000e-01 
 2.00929016e-04  7.72347245e-05 -9.91962839e-02  9.00000000e-01 
 2.01292049e-04 -7.71971291e-05 -9.91948318e-02  9.00000000e-01 
 2.02018114e-04  7.72218898e-05 -9.91919275e-02  9.00000000e-01 
 2.03470246e-04 -7.71904138e-05 -9.91861190e-02  9.00000000e-01 
 2.05470246e-04  7.72180917e-05 -9.91781190e-02  9.00000000e-01 
 2.07470246e-04 -7.73175780e-05 -9.91701190e-02  9.00000000e-01 
 2.09470246e-04  7.71341920e-05 -9.91621190e-02  9.00000000e-01 
 2.11470246e-04 -7.73142310e-05 -9.91541190e-02  9.00000000e-01 
 2.13470246e-04  7.71310705e-05 -9.91461190e-02  9.00000000e-01 
 2.15470246e-04 -7.73109300e-05 -9.91381190e-02  9.00000000e-01 
 2.17470246e-04  7.71278933e-05 -9.91301190e-02  9.00000000e-01 
 2.19470246e-04 -7.73076302e-05 -9.91221190e-02  9.00000000e-01 
 2.21470246e-04  7.71247150e-05 -9.91141190e-02  9.00000000e-01 
 2.23470246e-04 -7.73043316e-05 -9.91061190e-02  9.00000000e-01 
 2.25470246e-04  7.71215354e-05 -9.90981190e-02  9.00000000e-01 
 2.27470246e-04 -7.73010343e-05 -9.90901190e-02  9.00000000e-01 
 2.29470246e-04  7.71183546e-05 -9.90821190e-02  9.00000000e-01 
 2.31470246e-04 -7.72977381e-05 -9.90741190e-02  9.00000000e-01 
 2.33470246e-04  7.71151727e-05 -9.90661190e-02  9.00000000e-01 
 2.35470246e-04 -7.72944432e-05 -9.90581190e-02  9.00000000e-01 
 2.37470246e-04  7.71119896e-05 -9.90501190e-02  9.00000000e-01 
 2.39470246e-04 -7.72911493e-05 -9.90421190e-02  9.00000000e-01 
 2.41470246e-04  7.71088054e-05 -9.90341190e-02  9.00000000e-01 
 2.43470246e-04 -7.72878566e-05 -9.90261190e-02  9.00000000e-01 
 2.45470246e-04  7.71056201e-05 -9.90181190e-02  9.00000000e-01 
 2.47470246e-04 -7.72845650e-05 -9.90101190e-02  9.00000000e-01 
 2.49470246e-04  7.71024338e-05 -9.90021190e-02  9.00000000e-01 
 2.51470246e-04 -7.72812744e-05 -9.89941190e-02  9.00000000e-01 
 2.53470246e-04  7.70992465e-05 -9.89861190e-02  9.00000000e-01 
 2.55470246e-04 -7.72779848e-05 -9.89781190e-02  9.00000000e-01 
 2.57470246e-04  7.70960582e-05 -9.89701190e-02  9.00000000e-01 
 2.59470246e-04 -7.72746962e-05 -9.89621190e-02  9.00000000e-01 
 2.61470246e-04  7.70928690e-05 -9.89541190e-02  9.00000000e-01 
 2.63470246e-04 -7.72714086e-05 -9.89461190e-02  9.00000000e-01 
 2.65470246e-04  7.70896788e-05 -9.89381190e-02  9.00000000e-01 
 2.67470246e-04 -7.72681219e-05 -9.89301190e-02  9.00000000e-01 
 2.69470246e-04  7.70864877e-05 -9.89221190e-02  9.00000000e-01 
 2.71470246e-04 -7.72648361e-05 -9.89141190e-02  9.00000000e-01 
 2.73470246e-04  7.70832958e-05 -9.89061190e-02  9.00000000e-01 
 2.75470246e-04 -7.72615513e-05 -9.88981190e-02  9.00000000e-01 
 2.77470246e-04  7.70801029e-05 -9.88901190e-02  9.00000000e-01 
 2.79470246e-04 -7.72582673e-05 -9.88821190e-02  9.00000000e-01 
 2.81470246e-04  7.70769093e-05 -9.88741190e-02  9.00000000e-01 
 2.83470246e-04 -7.72549842e-05 -9.88661190e-02  9.00000000e-01 
 2.85470246e-04  7.70737148e-05 -9.88581190e-02  9.00000000e-01 
 2.87470246e-04 -7.72517019e-05 -9.88501190e-02  9.00000000e-01 
 2.89470246e-04  7.70705196e-05 -9.88421190e-02  9.00000000e-01 
 2.91470246e-04 -7.72484204e-05 -9.88341190e-02  9.00000000e-01 
 2.93470246e-04  7.70673236e-05 -9.88261190e-02  9.00000000e-01 
 2.95470246e-04 -7.72451397e-05 -9.88181190e-02  9.00000000e-01 
 2.97470246e-04  7.70641269e-05 -9.88101190e-02  9.00000000e-01 
 2.99470246e-04 -7.72418598e-05 -9.88021190e-02  9.00000000e-01 
 3.01470246e-04  7.70609294e-05 -9.87941190e-02  9.00000000e-01 
 3.03470246e-04 -7.72385806e-05 -9.87861190e-02  9.00000000e-01 
 3.05470246e-04  7.70577312e-05 -9.87781190e-02  9.00000000e-01 
 3.07470246e-04 -7.72353022e-05 -9.87701190e-02  9.00000000e-01 
 3.09470246e-04  7.70545324e-05 -9.87621190e-02  9.00000000e-01 
 3.11470246e-04 -7.72320245e-05 -9.87541190e-02  9.00000000e-01 
 3.13470246e-04  7.70513329e-05 -9.87461190e-02  9.00000000e-01 
 3.15470246e-04 -7.72287475e-05 -9.87381190e-02  9.00000000e-01 
 3.17470246e-04  7.70481327e-05 -9.87301190e-02  9.00000000e-01 
 3.19470246e-04 -7.72254712e-05 -9.87221190e-02  9.00000000e-01 
 3.21470246e-04  7.70449319e-05 -9.87141190e-02  9.00000000e-01 
 3.23470246e-04 -7.72221956e-05 -9.87061190e-02  9.00000000e-01 
 3.25470246e-04  7.70417305e-05 -9.86981190e-02  9.00000000e-01 
 3.27470246e-04 -7.72189206e-05 -9.86901190e-02  9.00000000e-01 
 3.29470246e-04  7.70385286e-05 -9.86821190e-02  9.00000000e-01 
 3.31470246e-04 -7.72156463e-05 -9.86741190e-02  9.00000000e-01 
 3.33470246e-04  7.70353260e-05 -9.86661190e-02  9.00000000e-01 
 3.35470246e-04 -7.72123725e-05 -9.86581190e-02  9.00000000e-01 
 3.37470246e-04  7.70321229e-05 -9.86501190e-02  9.00000000e-01 
 3.39470246e-04 -7.72090994e-05 -9.86421190e-02  9.00000000e-01 
 3.41470246e-04  7.70289192e-05 -9.86341190e-02  9.00000000e-01 
 3.43470246e-04 -7.72058269e-05 -9.86261190e-02  9.00000000e-01 
 3.45470246e-04  7.70257150e-05 -9.86181190e-02  9.00000000e-01 
 3.47470246e-04 -7.72025550e-05 -9.86101190e-02  9.00000000e-01 
 3.49470246e-04  7.70225103e-05 -9.86021190e-02  9.00000000e-01 
 3.51470246e-04 -7.71992837e-05 -9.85941190e-02  9.00000000e-01 
 3.53470246e-04  7.70193051e-05 -9.85861190e-02  9.00000000e-01 
 3.55470246e-04 -7.71960129e-05 -9.85781190e-02  9.00000000e-01 
 3.57470246e-04  7.70160994e-05 -9.85701190e-02  9.00000000e-01 
 3.59470246e-04 -7.71927427e-05 -9.85621190e-02  9.00000000e-01 
 3.61470246e-04  7.70128933e-05 -9.85541190e-02  9.00000000e-01 
 3.63470246e-04 -7.71894730e-05 -9.85461190e-02  9.00000000e-01 
 3.65470246e-04  7.70096866e-05 -9.85381190e-02  9.00000000e-01 
 3.67470246e-04 -7.71862038e-05 -9.85301190e-02  9.00000000e-01 
 3.69470246e-04  7.70064796e-05 -9.85221190e-02  9.00000000e-01 
 3.71470246e-04 -7.71829351e-05 -9.85141190e-02  9.00000000e-01 
 3.73470246e-04  7.70032721e-05 -9.85061190e-02  9.00000000e-01 
 3.75470246e-04 -7.71796670e-05 -9.84981190e-02  9.00000000e-01 
 3.77470246e-04  7.70000641e-05 -9.84901190e-02  9.00000000e-01 
 3.79470246e-04 -7.71763993e-05 -9.84821190e-02  9.00000000e-01 
 3.81470246e-04  7.69968558e-05 -9.84741190e-02  9.00000000e-01 
 3.83470246e-04 -7.71731321e-05 -9.84661190e-02  9.00000000e-01 
 3.85470246e-04  7.69936471e-05 -9.84581190e-02  9.00000000e-01 
 3.87470246e-04 -7.71698654e-05 -9.84501190e-02  9.00000000e-01 
 3.89470246e-04  7.69904380e-05 -9.84421190e-02  9.00000000e-01 
 3.91470246e-04 -7.71665992e-05 -9.84341190e-02  9.00000000e-01 
 3.93470246e-04  7.69872285e-05 -9.84261190e-02  9.00000000e-01 
 3.95470246e-04 -7.71633334e-05 -9.84181190e-02  9.00000000e-01 
 3.97470246e-04  7.69840187e-05 -9.84101190e-02  9.00000000e-01 
 3.99470246e-04 -7.71600680e-05 -9.84021190e-02  9.00000000e-01 
 4.01470246e-04  7.69808085e-05 -9.83941190e-02  9.00000000e-01 
 4.03470246e-04 -7.71568031e-05 -9.83861190e-02  9.00000000e-01 
 4.05470246e-04  7.69775979e-05 -9.83781190e-02  9.00000000e-01 
 4.07470246e-04 -7.71535386e-05 -9.83701190e-02  9.00000000e-01 
 4.09470246e-04  7.69743871e-05 -9.83621190e-02  9.00000000e-01 
 4.11470246e-04 -7.71502746e-05 -9.83541190e-02  9.00000000e-01 
 4.13470246e-04  7.69711759e-05 -9.83461190e-02  9.00000000e-01 
 4.15470246e-04 -7.71470109e-05 -9.83381190e-02  9.00000000e-01 
 4.17470246e-04  7.69679644e-05 -9.83301190e-02  9.00000000e-01 
 4.19470246e-04 -7.71437477e-05 -9.83221190e-02  9.00000000e-01 
 4.21470246e-04  7.69647526e-05 -9.83141190e-02  9.00000000e-01 
 4.23470246e-04 -7.71404849e-05 -9.83061190e-02  9.00000000e-01 
 4.25470246e-04  7.69615404e-05 -9.82981190e-02  9.00000000e-01 
 4.27470246e-04 -7.71372224e-05 -9.82901190e-02  9.00000000e-01 
 4.29470246e-04  7.69583281e-05 -9.82821190e-02  9.00000000e-01 
 4.31470246e-04 -7.71339603e-05 -9.82741190e-02  9.00000000e-01 
 4.33470246e-04  7.69551154e-05 -9.82661190e-02  9.00000000e-01 
 4.35470246e-04 -7.71306986e-05 -9.82581190e-02  9.00000000e-01 
 4.37470246e-04  7.69519025e-05 -9.82501190e-02  9.00000000e-01 
 4.39470246e-04 -7.71274373e-05 -9.82421190e-02  9.00000000e-01 
 4.41470246e-04  7.69486893e-05 -9.82341190e-02  9.00000000e-01 
 4.43470246e-04 -7.71241763e-05 -9.82261190e-02  9.00000000e-01 
 4.45470246e-04  7.69454758e-05 -9.82181190e-02  9.00000000e-01 
 4.47470246e-04 -7.71209157e-05 -9.82101190e-02  9.00000000e-01 
 4.49470246e-04  7.69422622e-05 -9.82021190e-02  9.00000000e-01 
 4.51470246e-04 -7.71176555e-05 -9.81941190e-02  9.00000000e-01 
 4.53470246e-04  7.69390483e-05 -9.81861190e-02  9.00000000e-01 
 4.55470246e-04 -7.71143955e-05 -9.81781190e-02  9.00000000e-01 
 4.57470246e-04  7.69358341e-05 -9.81701190e-02  9.00000000e-01 
 4.59470246e-04 -7.71111360e-05 -9.81621190e-02  9.00000000e-01 
 4.61470246e-04  7.69326197e-05 -9.81541190e-02  9.00000000e-01 
 4.63470246e-04 -7.71078767e-05 -9.81461190e-02  9.00000000e-01 
 4.65470246e-04  7.69294052e-05 -9.81381190e-02  9.00000000e-01 
 4.67470246e-04 -7.71046178e-05 -9.81301190e-02  9.00000000e-01 
 4.69470246e-04  7.69261904e-05 -9.81221190e-02  9.00000000e-01 
 4.71470246e-04 -7.71013592e-05 -9.81141190e-02  9.00000000e-01 
 4.73470246e-04  7.69229754e-05 -9.81061190e-02  9.00000000e-01 
 4.75470246e-04 -7.70981009e-05 -9.80981190e-02  9.00000000e-01 
 4.77470246e-04  7.69197602e-05 -9.80901190e-02  9.00000000e-01 
 4.79470246e-04 -7.70948429e-05 -9.80821190e-02  9.00000000e-01 
 4.81470246e-04  7.69165449e-05 -9.80741190e-02  9.00000000e-01 
 4.83470246e-04 -7.70915853e-05 -9.80661190e-02  9.00000000e-01 
 4.85470246e-04  7.69133293e-05 -9.80581190e-02  9.00000000e-01 
 4.87470246e-04 -7.70883279e-05 -9.80501190e-02  9.00000000e-01 
 4.89470246e-04  7.69101136e-05 -9.80421190e-02  9.00000000e-01 
 4.91470246e-04 -7.70850709e-05 -9.80341190e-02  9.00000000e-01 
 4.93470246e-04  7.69068977e-05 -9.80261190e-02  9.00000000e-01 
 4.95470246e-04 -7.70818141e-05 -9.80181190e-02  9.00000000e-01 
 4.97470246e-04  7.69036817e-05 -9.80101190e-02  9.00000000e-01 
 4.99470246e-04 -7.70785576e-05 -9.80021190e-02  9.00000000e-01 
 5.00100100e-04  7.69405649e-05 -9.79995996e-02  9.00000000e-01 
 5.00100110e-04  3.71293878e-05 -9.79995996e-02  9.00000000e-01 
 5.00100130e-04  4.07431478e-06 -9.79995995e-02  9.00000000e-01 
 5.00100170e-04  1.05778330e-05 -9.79995993e-02  9.00000000e-01 
 5.00100200e-04  5.20128826e-05 -9.79995992e-02  9.00000000e-01 
 5.00100208e-04 -2.94669730e-05 -9.79995992e-02  9.00000000e-01 
 5.00100224e-04 -3.15870598e-04 -9.79995991e-02  9.00000000e-01 
 5.00100256e-04 -1.54446022e-04 -9.79995990e-02  9.00000000e-01 
 5.00100320e-04  9.22781670e-03 -9.79995987e-02  9.00000000e-01 
 5.00100387e-04 -1.16799290e-02 -9.79995985e-02  9.00000000e-01 
 5.00100459e-04  9.85328924e-03 -9.79995982e-02  9.00000000e-01 
 5.00100604e-04 -8.42443803e-03 -9.79995976e-02  9.00000000e-01 
 5.00100736e-04  7.10150468e-03 -9.79995971e-02  9.00000000e-01 
 5.00101001e-04 -6.41044974e-03 -9.79995960e-02  9.00000000e-01 
 5.00101473e-04  6.10584887e-03 -9.79995941e-02  9.00000000e-01 
 5.00102248e-04 -5.87525186e-03 -9.79995910e-02  9.00000000e-01 
 5.00103798e-04  5.80302007e-03 -9.79995848e-02  9.00000000e-01 
 5.00106703e-04 -5.72909714e-03 -9.79995732e-02  9.00000000e-01 
