 time            v(Q)            v(A)-v(B)       v(B)           
 0.00000000e+00  4.64350077e-09  1.50000000e+00  0.00000000e+00 
 1.00000000e-09  4.64378676e-09  1.50000000e+00  0.00000000e+00 
 2.00000000e-09  4.64378812e-09  1.50000001e+00  0.00000000e+00 
 4.00000000e-09  4.64378810e-09  1.50000002e+00  0.00000000e+00 
 8.00000000e-09  4.64378777e-09  1.50000003e+00  0.00000000e+00 
 1.60000000e-08  4.64378737e-09  1.50000006e+00  0.00000000e+00 
 3.20000000e-08  4.64378634e-09  1.50000013e+00  0.00000000e+00 
 6.40000000e-08  4.64378452e-09  1.50000026e+00  0.00000000e+00 
 1.00000000e-07  4.64378235e-09  1.50000040e+00  0.00000000e+00 
 1.00010000e-07  1.52943906e-05  1.50000040e+00  0.00000000e+00 
 1.00030000e-07 -7.12389220e-06  1.50000040e+00  0.00000000e+00 
 1.00070000e-07 -4.25334073e-05  1.50000040e+00  0.00000000e+00 
 1.00100000e-07 -1.59616874e-04  1.50000040e+00  0.00000000e+00 
 1.00108000e-07 -3.01171778e-04  1.50000040e+00  0.00000000e+00 
 1.00124000e-07  1.18393396e-03  1.50000040e+00  0.00000000e+00 
 1.00156000e-07  7.08073033e-03  1.50000040e+00  0.00000000e+00 
 1.00200086e-07 -4.41506383e-01  1.50000040e+00  0.00000000e+00 
 1.00247202e-07  4.07049895e-01  1.50000040e+00  0.00000000e+00 
 1.00308863e-07  1.58411465e+00  1.50000040e+00  0.00000000e+00 
 1.00399293e-07  1.82057605e+00  1.50000040e+00  0.00000000e+00 
 1.00492618e-07  1.80086338e+00  1.50000040e+00  0.00000000e+00 
 1.00678538e-07  1.79596050e+00  1.50000040e+00  0.00000000e+00 
 1.00913165e-07  1.80618315e+00  1.50000040e+00  0.00000000e+00 
 1.01335487e-07  1.79389093e+00  1.50000041e+00  0.00000000e+00 
 1.01996288e-07  1.80700049e+00  1.50000041e+00  0.00000000e+00 
 1.03042318e-07  1.79349044e+00  1.50000041e+00  0.00000000e+00 
 1.05134380e-07  1.80720295e+00  1.50000042e+00  0.00000000e+00 
 1.09318503e-07  1.79339957e+00  1.50000044e+00  0.00000000e+00 
 1.17169479e-07  1.80724784e+00  1.50000047e+00  0.00000000e+00 
 1.32871432e-07  1.79337688e+00  1.50000053e+00  0.00000000e+00 
 1.63325659e-07  1.80725925e+00  1.50000065e+00  0.00000000e+00 
 2.24234113e-07  1.79337114e+00  1.50000090e+00  0.00000000e+00 
 3.46051020e-07  1.80726213e+00  1.50000138e+00  0.00000000e+00 
 5.89684836e-07  1.79336971e+00  1.50000236e+00  0.00000000e+00 
 1.07695247e-06  1.80726285e+00  1.50000431e+00  0.00000000e+00 
 2.05148773e-06  1.79336936e+00  1.50000821e+00  0.00000000e+00 
 4.00055826e-06  1.80726303e+00  1.50001600e+00  0.00000000e+00 
 6.00055826e-06  1.79336866e+00  1.50002400e+00  0.00000000e+00 
 8.00055826e-06  1.80728730e+00  1.50003200e+00  0.00000000e+00 
 1.00005583e-05  1.79336854e+00  1.50004000e+00  0.00000000e+00 
 1.20005583e-05  1.80728742e+00  1.50004800e+00  0.00000000e+00 
 1.40005583e-05  1.79336843e+00  1.50005600e+00  0.00000000e+00 
 1.60005583e-05  1.80728753e+00  1.50006400e+00  0.00000000e+00 
 1.80005583e-05  1.79336831e+00  1.50007200e+00  0.00000000e+00 
 2.00005583e-05  1.80728764e+00  1.50008000e+00  0.00000000e+00 
 2.20005583e-05  1.79336820e+00  1.50008800e+00  0.00000000e+00 
 2.40005583e-05  1.80728776e+00  1.50009600e+00  0.00000000e+00 
 2.60005583e-05  1.79336809e+00  1.50010400e+00  0.00000000e+00 
 2.80005583e-05  1.80728787e+00  1.50011200e+00  0.00000000e+00 
 3.00005583e-05  1.79336797e+00  1.50012000e+00  0.00000000e+00 
 3.20005583e-05  1.80728799e+00  1.50012800e+00  0.00000000e+00 
 3.40005583e-05  1.79336786e+00  1.50013600e+00  0.00000000e+00 
 3.60005583e-05  1.80728810e+00  1.50014400e+00  0.00000000e+00 
 3.80005583e-05  1.79336774e+00  1.50015200e+00  0.00000000e+00 
 4.00005583e-05  1.80728822e+00  1.50016000e+00  0.00000000e+00 
 4.20005583e-05  1.79336763e+00  1.50016800e+00  0.00000000e+00 
 4.40005583e-05  1.80728833e+00  1.50017600e+00  0.00000000e+00 
 4.60005583e-05  1.79336752e+00  1.50018400e+00  0.00000000e+00 
 4.80005583e-05  1.80728844e+00  1.50019200e+00  0.00000000e+00 
 5.00005583e-05  1.79336740e+00  1.50020000e+00  0.00000000e+00 
 5.20005583e-05  1.80728856e+00  1.50020800e+00  0.00000000e+00 
 5.40005583e-05  1.79336729e+00  1.50021600e+00  0.00000000e+00 
 5.60005583e-05  1.80728867e+00  1.50022400e+00  0.00000000e+00 
 5.80005583e-05  1.79336718e+00  1.50023200e+00  0.00000000e+00 
 6.00005583e-05  1.80728879e+00  1.50024000e+00  0.00000000e+00 
 6.20005583e-05  1.79336706e+00  1.50024800e+00  0.00000000e+00 
 6.40005583e-05  1.80728890e+00  1.50025600e+00  0.00000000e+00 
 6.60005583e-05  1.79336695e+00  1.50026400e+00  0.00000000e+00 
 6.80005583e-05  1.80728901e+00  1.50027200e+00  0.00000000e+00 
 7.00005583e-05  1.79336684e+00  1.50028000e+00  0.00000000e+00 
 7.20005583e-05  1.80728913e+00  1.50028800e+00  0.00000000e+00 
 7.40005583e-05  1.79336672e+00  1.50029600e+00  0.00000000e+00 
 7.60005583e-05  1.80728924e+00  1.50030400e+00  0.00000000e+00 
 7.80005583e-05  1.79336661e+00  1.50031200e+00  0.00000000e+00 
 8.00005583e-05  1.80728936e+00  1.50032000e+00  0.00000000e+00 
 8.20005583e-05  1.79336650e+00  1.50032800e+00  0.00000000e+00 
 8.40005583e-05  1.80728947e+00  1.50033600e+00  0.00000000e+00 
 8.60005583e-05  1.79336638e+00  1.50034400e+00  0.00000000e+00 
 8.80005583e-05  1.80728958e+00  1.50035200e+00  0.00000000e+00 
 9.00005583e-05  1.79336627e+00  1.50036000e+00  0.00000000e+00 
 9.20005583e-05  1.80728970e+00  1.50036800e+00  0.00000000e+00 
 9.40005583e-05  1.79336616e+00  1.50037600e+00  0.00000000e+00 
 9.60005583e-05  1.80728981e+00  1.50038400e+00  0.00000000e+00 
 9.80005583e-05  1.79336604e+00  1.50039200e+00  0.00000000e+00 
 1.00000558e-04  1.80728992e+00  1.50040000e+00  0.00000000e+00 
 1.02000558e-04  1.79336593e+00  1.50040800e+00  0.00000000e+00 
 1.04000558e-04  1.80729004e+00  1.50041600e+00  0.00000000e+00 
 1.06000558e-04  1.79336582e+00  1.50042400e+00  0.00000000e+00 
 1.08000558e-04  1.80729015e+00  1.50043200e+00  0.00000000e+00 
 1.10000558e-04  1.79336571e+00  1.50044000e+00  0.00000000e+00 
 1.12000558e-04  1.80729027e+00  1.50044800e+00  0.00000000e+00 
 1.14000558e-04  1.79336559e+00  1.50045600e+00  0.00000000e+00 
 1.16000558e-04  1.80729038e+00  1.50046400e+00  0.00000000e+00 
 1.18000558e-04  1.79336548e+00  1.50047200e+00  0.00000000e+00 
 1.20000558e-04  1.80729049e+00  1.50048000e+00  0.00000000e+00 
 1.22000558e-04  1.79336537e+00  1.50048800e+00  0.00000000e+00 
 1.24000558e-04  1.80729061e+00  1.50049600e+00  0.00000000e+00 
 1.26000558e-04  1.79336525e+00  1.50050400e+00  0.00000000e+00 
 1.28000558e-04  1.80729072e+00  1.50051200e+00  0.00000000e+00 
 1.30000558e-04  1.79336514e+00  1.50052000e+00  0.00000000e+00 
 1.32000558e-04  1.80729083e+00  1.50052800e+00  0.00000000e+00 
 1.34000558e-04  1.79336503e+00  1.50053600e+00  0.00000000e+00 
 1.36000558e-04  1.80729095e+00  1.50054400e+00  0.00000000e+00 
 1.38000558e-04  1.79336492e+00  1.50055200e+00  0.00000000e+00 
 1.40000558e-04  1.80729106e+00  1.50056000e+00  0.00000000e+00 
 1.42000558e-04  1.79336480e+00  1.50056800e+00  0.00000000e+00 
 1.44000558e-04  1.80729117e+00  1.50057600e+00  0.00000000e+00 
 1.46000558e-04  1.79336469e+00  1.50058400e+00  0.00000000e+00 
 1.48000558e-04  1.80729129e+00  1.50059200e+00  0.00000000e+00 
 1.50000558e-04  1.79336458e+00  1.50060000e+00  0.00000000e+00 
 1.52000558e-04  1.80729140e+00  1.50060800e+00  0.00000000e+00 
 1.54000558e-04  1.79336446e+00  1.50061600e+00  0.00000000e+00 
 1.56000558e-04  1.80729151e+00  1.50062400e+00  0.00000000e+00 
 1.58000558e-04  1.79336435e+00  1.50063200e+00  0.00000000e+00 
 1.60000558e-04  1.80729163e+00  1.50064000e+00  0.00000000e+00 
 1.62000558e-04  1.79336424e+00  1.50064800e+00  0.00000000e+00 
 1.64000558e-04  1.80729174e+00  1.50065600e+00  0.00000000e+00 
 1.66000558e-04  1.79336413e+00  1.50066400e+00  0.00000000e+00 
 1.68000558e-04  1.80729185e+00  1.50067200e+00  0.00000000e+00 
 1.70000558e-04  1.79336401e+00  1.50068000e+00  0.00000000e+00 
 1.72000558e-04  1.80729196e+00  1.50068800e+00  0.00000000e+00 
 1.74000558e-04  1.79336390e+00  1.50069600e+00  0.00000000e+00 
 1.76000558e-04  1.80729208e+00  1.50070400e+00  0.00000000e+00 
 1.78000558e-04  1.79336379e+00  1.50071200e+00  0.00000000e+00 
 1.80000558e-04  1.80729219e+00  1.50072000e+00  0.00000000e+00 
 1.82000558e-04  1.79336368e+00  1.50072800e+00  0.00000000e+00 
 1.84000558e-04  1.80729230e+00  1.50073600e+00  0.00000000e+00 
 1.86000558e-04  1.79336357e+00  1.50074400e+00  0.00000000e+00 
 1.88000558e-04  1.80729242e+00  1.50075200e+00  0.00000000e+00 
 1.90000558e-04  1.79336345e+00  1.50076000e+00  0.00000000e+00 
 1.92000558e-04  1.80729253e+00  1.50076800e+00  0.00000000e+00 
 1.94000558e-04  1.79336334e+00  1.50077600e+00  0.00000000e+00 
 1.96000558e-04  1.80729264e+00  1.50078400e+00  0.00000000e+00 
 1.98000558e-04  1.79336323e+00  1.50079200e+00  0.00000000e+00 
 2.00000000e-04  1.80729274e+00  1.50080000e+00  0.00000000e+00 
 2.00200000e-04  1.79999971e+00 -9.91992000e-02  1.60000000e+00 
 2.00600000e-04  1.80000023e+00 -9.91976000e-02  1.60000000e+00 
 2.00958462e-04  1.79999971e+00 -9.91961662e-02  1.60000000e+00 
 2.01364447e-04  1.80000023e+00 -9.91945422e-02  1.60000000e+00 
 2.02176417e-04  1.79999971e+00 -9.91912943e-02  1.60000000e+00 
 2.03800358e-04  1.80000023e+00 -9.91847986e-02  1.60000000e+00 
 2.05800358e-04  1.79999971e+00 -9.91767986e-02  1.60000000e+00 
 2.07800358e-04  1.80000023e+00 -9.91687986e-02  1.60000000e+00 
 2.09800358e-04  1.79999971e+00 -9.91607986e-02  1.60000000e+00 
 2.11800358e-04  1.80000023e+00 -9.91527986e-02  1.60000000e+00 
 2.13800358e-04  1.79999971e+00 -9.91447986e-02  1.60000000e+00 
 2.15800358e-04  1.80000023e+00 -9.91367986e-02  1.60000000e+00 
 2.17800358e-04  1.79999971e+00 -9.91287986e-02  1.60000000e+00 
 2.19800358e-04  1.80000023e+00 -9.91207986e-02  1.60000000e+00 
 2.21800358e-04  1.79999971e+00 -9.91127986e-02  1.60000000e+00 
 2.23800358e-04  1.80000023e+00 -9.91047986e-02  1.60000000e+00 
 2.25800358e-04  1.79999971e+00 -9.90967986e-02  1.60000000e+00 
 2.27800358e-04  1.80000023e+00 -9.90887986e-02  1.60000000e+00 
 2.29800358e-04  1.79999971e+00 -9.90807986e-02  1.60000000e+00 
 2.31800358e-04  1.80000023e+00 -9.90727986e-02  1.60000000e+00 
 2.33800358e-04  1.79999971e+00 -9.90647986e-02  1.60000000e+00 
 2.35800358e-04  1.80000023e+00 -9.90567986e-02  1.60000000e+00 
 2.37800358e-04  1.79999971e+00 -9.90487986e-02  1.60000000e+00 
 2.39800358e-04  1.80000023e+00 -9.90407986e-02  1.60000000e+00 
 2.41800358e-04  1.79999972e+00 -9.90327986e-02  1.60000000e+00 
 2.43800358e-04  1.80000023e+00 -9.90247986e-02  1.60000000e+00 
 2.45800358e-04  1.79999972e+00 -9.90167986e-02  1.60000000e+00 
 2.47800358e-04  1.80000023e+00 -9.90087986e-02  1.60000000e+00 
 2.49800358e-04  1.79999972e+00 -9.90007986e-02  1.60000000e+00 
 2.51800358e-04  1.80000023e+00 -9.89927986e-02  1.60000000e+00 
 2.53800358e-04  1.79999972e+00 -9.89847986e-02  1.60000000e+00 
 2.55800358e-04  1.80000023e+00 -9.89767986e-02  1.60000000e+00 
 2.57800358e-04  1.79999972e+00 -9.89687986e-02  1.60000000e+00 
 2.59800358e-04  1.80000023e+00 -9.89607986e-02  1.60000000e+00 
 2.61800358e-04  1.79999972e+00 -9.89527986e-02  1.60000000e+00 
 2.63800358e-04  1.80000023e+00 -9.89447986e-02  1.60000000e+00 
 2.65800358e-04  1.79999972e+00 -9.89367986e-02  1.60000000e+00 
 2.67800358e-04  1.80000023e+00 -9.89287986e-02  1.60000000e+00 
 2.69800358e-04  1.79999972e+00 -9.89207986e-02  1.60000000e+00 
 2.71800358e-04  1.80000023e+00 -9.89127986e-02  1.60000000e+00 
 2.73800358e-04  1.79999972e+00 -9.89047986e-02  1.60000000e+00 
 2.75800358e-04  1.80000023e+00 -9.88967986e-02  1.60000000e+00 
 2.77800358e-04  1.79999972e+00 -9.88887986e-02  1.60000000e+00 
 2.79800358e-04  1.80000023e+00 -9.88807986e-02  1.60000000e+00 
 2.81800358e-04  1.79999972e+00 -9.88727986e-02  1.60000000e+00 
 2.83800358e-04  1.80000023e+00 -9.88647986e-02  1.60000000e+00 
 2.85800358e-04  1.79999972e+00 -9.88567986e-02  1.60000000e+00 
 2.87800358e-04  1.80000023e+00 -9.88487986e-02  1.60000000e+00 
 2.89800358e-04  1.79999972e+00 -9.88407986e-02  1.60000000e+00 
 2.91800358e-04  1.80000023e+00 -9.88327986e-02  1.60000000e+00 
 2.93800358e-04  1.79999972e+00 -9.88247986e-02  1.60000000e+00 
 2.95800358e-04  1.80000023e+00 -9.88167986e-02  1.60000000e+00 
 2.97800358e-04  1.79999972e+00 -9.88087986e-02  1.60000000e+00 
 2.99800358e-04  1.80000023e+00 -9.88007986e-02  1.60000000e+00 
 3.01800358e-04  1.79999972e+00 -9.87927986e-02  1.60000000e+00 
 3.03800358e-04  1.80000023e+00 -9.87847986e-02  1.60000000e+00 
 3.05800358e-04  1.79999972e+00 -9.87767986e-02  1.60000000e+00 
 3.07800358e-04  1.80000023e+00 -9.87687986e-02  1.60000000e+00 
 3.09800358e-04  1.79999972e+00 -9.87607986e-02  1.60000000e+00 
 3.11800358e-04  1.80000023e+00 -9.87527986e-02  1.60000000e+00 
 3.13800358e-04  1.79999972e+00 -9.87447986e-02  1.60000000e+00 
 3.15800358e-04  1.80000023e+00 -9.87367986e-02  1.60000000e+00 
 3.17800358e-04  1.79999972e+00 -9.87287986e-02  1.60000000e+00 
 3.19800358e-04  1.80000023e+00 -9.87207986e-02  1.60000000e+00 
 3.21800358e-04  1.79999972e+00 -9.87127986e-02  1.60000000e+00 
 3.23800358e-04  1.80000023e+00 -9.87047986e-02  1.60000000e+00 
 3.25800358e-04  1.79999972e+00 -9.86967986e-02  1.60000000e+00 
 3.27800358e-04  1.80000023e+00 -9.86887986e-02  1.60000000e+00 
 3.29800358e-04  1.79999972e+00 -9.86807986e-02  1.60000000e+00 
 3.31800358e-04  1.80000023e+00 -9.86727986e-02  1.60000000e+00 
 3.33800358e-04  1.79999972e+00 -9.86647986e-02  1.60000000e+00 
 3.35800358e-04  1.80000023e+00 -9.86567986e-02  1.60000000e+00 
 3.37800358e-04  1.79999972e+00 -9.86487986e-02  1.60000000e+00 
 3.39800358e-04  1.80000023e+00 -9.86407986e-02  1.60000000e+00 
 3.41800358e-04  1.79999972e+00 -9.86327986e-02  1.60000000e+00 
 3.43800358e-04  1.80000023e+00 -9.86247986e-02  1.60000000e+00 
 3.45800358e-04  1.79999972e+00 -9.86167986e-02  1.60000000e+00 
 3.47800358e-04  1.80000023e+00 -9.86087986e-02  1.60000000e+00 
 3.49800358e-04  1.79999972e+00 -9.86007986e-02  1.60000000e+00 
 3.51800358e-04  1.80000023e+00 -9.85927986e-02  1.60000000e+00 
 3.53800358e-04  1.79999972e+00 -9.85847986e-02  1.60000000e+00 
 3.55800358e-04  1.80000023e+00 -9.85767986e-02  1.60000000e+00 
 3.57800358e-04  1.79999972e+00 -9.85687986e-02  1.60000000e+00 
 3.59800358e-04  1.80000023e+00 -9.85607986e-02  1.60000000e+00 
 3.61800358e-04  1.79999972e+00 -9.85527986e-02  1.60000000e+00 
 3.63800358e-04  1.80000023e+00 -9.85447986e-02  1.60000000e+00 
 3.65800358e-04  1.79999972e+00 -9.85367986e-02  1.60000000e+00 
 3.67800358e-04  1.80000023e+00 -9.85287986e-02  1.60000000e+00 
 3.69800358e-04  1.79999972e+00 -9.85207986e-02  1.60000000e+00 
 3.71800358e-04  1.80000023e+00 -9.85127986e-02  1.60000000e+00 
 3.73800358e-04  1.79999972e+00 -9.85047986e-02  1.60000000e+00 
 3.75800358e-04  1.80000023e+00 -9.84967986e-02  1.60000000e+00 
 3.77800358e-04  1.79999972e+00 -9.84887986e-02  1.60000000e+00 
 3.79800358e-04  1.80000023e+00 -9.84807986e-02  1.60000000e+00 
 3.81800358e-04  1.79999972e+00 -9.84727986e-02  1.60000000e+00 
 3.83800358e-04  1.80000023e+00 -9.84647986e-02  1.60000000e+00 
 3.85800358e-04  1.79999972e+00 -9.84567986e-02  1.60000000e+00 
 3.87800358e-04  1.80000023e+00 -9.84487986e-02  1.60000000e+00 
 3.89800358e-04  1.79999972e+00 -9.84407986e-02  1.60000000e+00 
 3.91800358e-04  1.80000023e+00 -9.84327986e-02  1.60000000e+00 
 3.93800358e-04  1.79999972e+00 -9.84247986e-02  1.60000000e+00 
 3.95800358e-04  1.80000023e+00 -9.84167986e-02  1.60000000e+00 
 3.97800358e-04  1.79999972e+00 -9.84087986e-02  1.60000000e+00 
 3.99800358e-04  1.80000023e+00 -9.84007986e-02  1.60000000e+00 
 4.01800358e-04  1.79999972e+00 -9.83927986e-02  1.60000000e+00 
 4.03800358e-04  1.80000023e+00 -9.83847986e-02  1.60000000e+00 
 4.05800358e-04  1.79999972e+00 -9.83767986e-02  1.60000000e+00 
 4.07800358e-04  1.80000023e+00 -9.83687986e-02  1.60000000e+00 
 4.09800358e-04  1.79999972e+00 -9.83607986e-02  1.60000000e+00 
 4.11800358e-04  1.80000023e+00 -9.83527986e-02  1.60000000e+00 
 4.13800358e-04  1.79999972e+00 -9.83447986e-02  1.60000000e+00 
 4.15800358e-04  1.80000023e+00 -9.83367986e-02  1.60000000e+00 
 4.17800358e-04  1.79999972e+00 -9.83287986e-02  1.60000000e+00 
 4.19800358e-04  1.80000023e+00 -9.83207986e-02  1.60000000e+00 
 4.21800358e-04  1.79999972e+00 -9.83127986e-02  1.60000000e+00 
 4.23800358e-04  1.80000023e+00 -9.83047986e-02  1.60000000e+00 
 4.25800358e-04  1.79999972e+00 -9.82967986e-02  1.60000000e+00 
 4.27800358e-04  1.80000023e+00 -9.82887986e-02  1.60000000e+00 
 4.29800358e-04  1.79999972e+00 -9.82807986e-02  1.60000000e+00 
 4.31800358e-04  1.80000023e+00 -9.82727986e-02  1.60000000e+00 
 4.33800358e-04  1.79999972e+00 -9.82647986e-02  1.60000000e+00 
 4.35800358e-04  1.80000023e+00 -9.82567986e-02  1.60000000e+00 
 4.37800358e-04  1.79999972e+00 -9.82487986e-02  1.60000000e+00 
 4.39800358e-04  1.80000023e+00 -9.82407986e-02  1.60000000e+00 
 4.41800358e-04  1.79999972e+00 -9.82327986e-02  1.60000000e+00 
 4.43800358e-04  1.80000023e+00 -9.82247986e-02  1.60000000e+00 
 4.45800358e-04  1.79999972e+00 -9.82167986e-02  1.60000000e+00 
 4.47800358e-04  1.80000023e+00 -9.82087986e-02  1.60000000e+00 
 4.49800358e-04  1.79999972e+00 -9.82007986e-02  1.60000000e+00 
 4.51800358e-04  1.80000023e+00 -9.81927986e-02  1.60000000e+00 
 4.53800358e-04  1.79999972e+00 -9.81847986e-02  1.60000000e+00 
 4.55800358e-04  1.80000023e+00 -9.81767986e-02  1.60000000e+00 
 4.57800358e-04  1.79999972e+00 -9.81687986e-02  1.60000000e+00 
 4.59800358e-04  1.80000023e+00 -9.81607986e-02  1.60000000e+00 
 4.61800358e-04  1.79999972e+00 -9.81527986e-02  1.60000000e+00 
 4.63800358e-04  1.80000023e+00 -9.81447986e-02  1.60000000e+00 
 4.65800358e-04  1.79999972e+00 -9.81367986e-02  1.60000000e+00 
 4.67800358e-04  1.80000023e+00 -9.81287986e-02  1.60000000e+00 
 4.69800358e-04  1.79999972e+00 -9.81207986e-02  1.60000000e+00 
 4.71800358e-04  1.80000023e+00 -9.81127986e-02  1.60000000e+00 
 4.73800358e-04  1.79999972e+00 -9.81047986e-02  1.60000000e+00 
 4.75800358e-04  1.80000023e+00 -9.80967986e-02  1.60000000e+00 
 4.77800358e-04  1.79999972e+00 -9.80887986e-02  1.60000000e+00 
 4.79800358e-04  1.80000023e+00 -9.80807986e-02  1.60000000e+00 
 4.81800358e-04  1.79999972e+00 -9.80727986e-02  1.60000000e+00 
 4.83800358e-04  1.80000023e+00 -9.80647986e-02  1.60000000e+00 
 4.85800358e-04  1.79999972e+00 -9.80567986e-02  1.60000000e+00 
 4.87800358e-04  1.80000023e+00 -9.80487986e-02  1.60000000e+00 
 4.89800358e-04  1.79999972e+00 -9.80407986e-02  1.60000000e+00 
 4.91800358e-04  1.80000023e+00 -9.80327986e-02  1.60000000e+00 
 4.93800358e-04  1.79999972e+00 -9.80247986e-02  1.60000000e+00 
 4.95800358e-04  1.80000023e+00 -9.80167986e-02  1.60000000e+00 
 4.97800358e-04  1.79999972e+00 -9.80087986e-02  1.60000000e+00 
 4.99800358e-04  1.80000023e+00 -9.80007986e-02  1.60000000e+00 
 5.00100100e-04  1.79999972e+00 -9.79995996e-02  1.60000000e+00 
 5.00100110e-04  1.79996688e+00 -9.79995996e-02  1.60000000e+00 
 5.00100130e-04  1.79998970e+00 -9.79995995e-02  1.60000000e+00 
 5.00100170e-04  1.79995840e+00 -9.79995993e-02  1.60000000e+00 
 5.00100200e-04  1.80025634e+00 -9.79995992e-02  1.60000000e+00 
 5.00100208e-04  1.80033040e+00 -9.79995992e-02  1.60000000e+00 
 5.00100224e-04  1.80020398e+00 -9.79995991e-02  1.60000000e+00 
 5.00100256e-04  1.79984349e+00 -9.79995990e-02  1.60000000e+00 
 5.00100320e-04  1.79875146e+00 -9.79995987e-02  1.60000000e+00 
 5.00100399e-04  1.80433087e+00 -9.79995984e-02  1.60000000e+00 
 5.00100481e-04  1.79749049e+00 -9.79995981e-02  1.60000000e+00 
 5.00100611e-04  1.80199764e+00 -9.79995976e-02  1.60000000e+00 
 5.00100748e-04  1.79838869e+00 -9.79995970e-02  1.60000000e+00 
 5.00101022e-04  1.80148832e+00 -9.79995959e-02  1.60000000e+00 
 5.00101541e-04  1.79860558e+00 -9.79995938e-02  1.60000000e+00 
 5.00102341e-04  1.80137174e+00 -9.79995906e-02  1.60000000e+00 
 5.00103943e-04  1.79867119e+00 -9.79995842e-02  1.60000000e+00 
