 time            v(Q)            v(A)-v(B)       v(B)           
 0.00000000e+00  4.64350679e-09  7.00000000e-01  0.00000000e+00 
 1.00000000e-09  4.64352004e-09  7.00000004e-01  0.00000000e+00 
 2.00000000e-09  4.64352010e-09  7.00000008e-01  0.00000000e+00 
 4.00000000e-09  4.64352007e-09  7.00000016e-01  0.00000000e+00 
 8.00000000e-09  4.64352006e-09  7.00000032e-01  0.00000000e+00 
 1.60000000e-08  4.64352004e-09  7.00000064e-01  0.00000000e+00 
 3.20000000e-08  4.64352005e-09  7.00000128e-01  0.00000000e+00 
 6.40000000e-08  4.64351991e-09  7.00000256e-01  0.00000000e+00 
 1.00000000e-07  4.64351981e-09  7.00000400e-01  0.00000000e+00 
 1.00010000e-07  1.41225614e-05  7.00000400e-01  0.00000000e+00 
 1.00030000e-07 -7.14500796e-06  7.00000400e-01  0.00000000e+00 
 1.00070000e-07 -6.98410031e-06  7.00000400e-01  0.00000000e+00 
 1.00100000e-07 -5.15624762e-06  7.00000400e-01  0.00000000e+00 
 1.00108000e-07  3.15178834e-06  7.00000400e-01  0.00000000e+00 
 1.00124000e-07  1.00598485e-05  7.00000400e-01  0.00000000e+00 
 1.00156000e-07 -1.03211440e-06  7.00000401e-01  0.00000000e+00 
 1.00220000e-07  3.87838047e-07  7.00000401e-01  0.00000000e+00 
 1.00348000e-07 -1.95780148e-07  7.00000401e-01  0.00000000e+00 
 1.00604000e-07  7.45775331e-08  7.00000402e-01  0.00000000e+00 
 1.01116000e-07 -2.47665287e-08  7.00000404e-01  0.00000000e+00 
 1.02140000e-07  1.15953354e-08  7.00000409e-01  0.00000000e+00 
 1.04188000e-07  8.46208336e-09  7.00000417e-01  0.00000000e+00 
 1.08284000e-07 -4.56632761e-09  7.00000433e-01  0.00000000e+00 
 1.16476000e-07  1.65442867e-08  7.00000466e-01  0.00000000e+00 
 1.32860000e-07 -8.60181634e-09  7.00000531e-01  0.00000000e+00 
 1.65628000e-07  1.85607696e-08  7.00000663e-01  0.00000000e+00 
 2.31164000e-07 -9.60968574e-09  7.00000925e-01  0.00000000e+00 
 3.62236000e-07  1.90646227e-08  7.00001449e-01  0.00000000e+00 
 6.24380000e-07 -9.86159095e-09  7.00002498e-01  0.00000000e+00 
 1.14866800e-06  1.91905675e-08  7.00004595e-01  0.00000000e+00 
 2.19724400e-06 -9.92456640e-09  7.00008789e-01  0.00000000e+00 
 4.19724400e-06  1.92225578e-08  7.00016789e-01  0.00000000e+00 
 6.19724400e-06 -9.94658138e-09  7.00024789e-01  0.00000000e+00 
 8.19724400e-06  1.92445643e-08  7.00032789e-01  0.00000000e+00 
 1.01972440e-05 -9.96859322e-09  7.00040789e-01  0.00000000e+00 
 1.21972440e-05  1.92665726e-08  7.00048789e-01  0.00000000e+00 
 1.41972440e-05 -9.99060369e-09  7.00056789e-01  0.00000000e+00 
 1.61972440e-05  1.92885815e-08  7.00064789e-01  0.00000000e+00 
 1.81972440e-05 -1.00126134e-08  7.00072789e-01  0.00000000e+00 
 2.01972440e-05  1.93105904e-08  7.00080789e-01  0.00000000e+00 
 2.21972440e-05 -1.00346228e-08  7.00088789e-01  0.00000000e+00 
 2.41972440e-05  1.93325993e-08  7.00096789e-01  0.00000000e+00 
 2.61972440e-05 -1.00566318e-08  7.00104789e-01  0.00000000e+00 
 2.81972440e-05  1.93546081e-08  7.00112789e-01  0.00000000e+00 
 3.01972440e-05 -1.00786406e-08  7.00120789e-01  0.00000000e+00 
 3.21972440e-05  1.93766167e-08  7.00128789e-01  0.00000000e+00 
 3.41972440e-05 -1.01006492e-08  7.00136789e-01  0.00000000e+00 
 3.61972440e-05  1.93986251e-08  7.00144789e-01  0.00000000e+00 
 3.81972440e-05 -1.01226576e-08  7.00152789e-01  0.00000000e+00 
 4.01972440e-05  1.94206333e-08  7.00160789e-01  0.00000000e+00 
 4.21972440e-05 -1.01446658e-08  7.00168789e-01  0.00000000e+00 
 4.41972440e-05  1.94426413e-08  7.00176789e-01  0.00000000e+00 
 4.61972440e-05 -1.01666738e-08  7.00184789e-01  0.00000000e+00 
 4.81972440e-05  1.94646492e-08  7.00192789e-01  0.00000000e+00 
 5.01972440e-05 -1.01886817e-08  7.00200789e-01  0.00000000e+00 
 5.21972440e-05  1.94866568e-08  7.00208789e-01  0.00000000e+00 
 5.41972440e-05 -1.02106893e-08  7.00216789e-01  0.00000000e+00 
 5.61972440e-05  1.95086643e-08  7.00224789e-01  0.00000000e+00 
 5.81972440e-05 -1.02326967e-08  7.00232789e-01  0.00000000e+00 
 6.01972440e-05  1.95306716e-08  7.00240789e-01  0.00000000e+00 
 6.21972440e-05 -1.02547039e-08  7.00248789e-01  0.00000000e+00 
 6.41972440e-05  1.95526786e-08  7.00256789e-01  0.00000000e+00 
 6.61972440e-05 -1.02767110e-08  7.00264789e-01  0.00000000e+00 
 6.81972440e-05  1.95746856e-08  7.00272789e-01  0.00000000e+00 
 7.01972440e-05 -1.02987179e-08  7.00280789e-01  0.00000000e+00 
 7.21972440e-05  1.95966923e-08  7.00288789e-01  0.00000000e+00 
 7.41972440e-05 -1.03207246e-08  7.00296789e-01  0.00000000e+00 
 7.61972440e-05  1.96186988e-08  7.00304789e-01  0.00000000e+00 
 7.81972440e-05 -1.03427311e-08  7.00312789e-01  0.00000000e+00 
 8.01972440e-05  1.96407051e-08  7.00320789e-01  0.00000000e+00 
 8.21972440e-05 -1.03647373e-08  7.00328789e-01  0.00000000e+00 
 8.41972440e-05  1.96627113e-08  7.00336789e-01  0.00000000e+00 
 8.61972440e-05 -1.03867435e-08  7.00344789e-01  0.00000000e+00 
 8.81972440e-05  1.96847173e-08  7.00352789e-01  0.00000000e+00 
 9.01972440e-05 -1.04087494e-08  7.00360789e-01  0.00000000e+00 
 9.21972440e-05  1.97067231e-08  7.00368789e-01  0.00000000e+00 
 9.41972440e-05 -1.04307552e-08  7.00376789e-01  0.00000000e+00 
 9.61972440e-05  1.97287287e-08  7.00384789e-01  0.00000000e+00 
 9.81972440e-05 -1.04527608e-08  7.00392789e-01  0.00000000e+00 
 1.00197244e-04  1.97507341e-08  7.00400789e-01  0.00000000e+00 
 1.02197244e-04 -1.04747662e-08  7.00408789e-01  0.00000000e+00 
 1.04197244e-04  1.97727394e-08  7.00416789e-01  0.00000000e+00 
 1.06197244e-04 -1.04967714e-08  7.00424789e-01  0.00000000e+00 
 1.08197244e-04  1.97947445e-08  7.00432789e-01  0.00000000e+00 
 1.10197244e-04 -1.05187765e-08  7.00440789e-01  0.00000000e+00 
 1.12197244e-04  1.98167494e-08  7.00448789e-01  0.00000000e+00 
 1.14197244e-04 -1.05407814e-08  7.00456789e-01  0.00000000e+00 
 1.16197244e-04  1.98387542e-08  7.00464789e-01  0.00000000e+00 
 1.18197244e-04 -1.05627861e-08  7.00472789e-01  0.00000000e+00 
 1.20197244e-04  1.98607587e-08  7.00480789e-01  0.00000000e+00 
 1.22197244e-04 -1.05847907e-08  7.00488789e-01  0.00000000e+00 
 1.24197244e-04  1.98827631e-08  7.00496789e-01  0.00000000e+00 
 1.26197244e-04 -1.06067950e-08  7.00504789e-01  0.00000000e+00 
 1.28197244e-04  1.99047673e-08  7.00512789e-01  0.00000000e+00 
 1.30197244e-04 -1.06287992e-08  7.00520789e-01  0.00000000e+00 
 1.32197244e-04  1.99267714e-08  7.00528789e-01  0.00000000e+00 
 1.34197244e-04 -1.06508032e-08  7.00536789e-01  0.00000000e+00 
 1.36197244e-04  1.99487752e-08  7.00544789e-01  0.00000000e+00 
 1.38197244e-04 -1.06728071e-08  7.00552789e-01  0.00000000e+00 
 1.40197244e-04  1.99707789e-08  7.00560789e-01  0.00000000e+00 
 1.42197244e-04 -1.06948107e-08  7.00568789e-01  0.00000000e+00 
 1.44197244e-04  1.99927825e-08  7.00576789e-01  0.00000000e+00 
 1.46197244e-04 -1.07168143e-08  7.00584789e-01  0.00000000e+00 
 1.48197244e-04  2.00147859e-08  7.00592789e-01  0.00000000e+00 
 1.50197244e-04 -1.07388177e-08  7.00600789e-01  0.00000000e+00 
 1.52197244e-04  2.00367890e-08  7.00608789e-01  0.00000000e+00 
 1.54197244e-04 -1.07608208e-08  7.00616789e-01  0.00000000e+00 
 1.56197244e-04  2.00587920e-08  7.00624789e-01  0.00000000e+00 
 1.58197244e-04 -1.07828238e-08  7.00632789e-01  0.00000000e+00 
 1.60197244e-04  2.00807950e-08  7.00640789e-01  0.00000000e+00 
 1.62197244e-04 -1.08048267e-08  7.00648789e-01  0.00000000e+00 
 1.64197244e-04  2.01027976e-08  7.00656789e-01  0.00000000e+00 
 1.66197244e-04 -1.08268294e-08  7.00664789e-01  0.00000000e+00 
 1.68197244e-04  2.01248002e-08  7.00672789e-01  0.00000000e+00 
 1.70197244e-04 -1.08488319e-08  7.00680789e-01  0.00000000e+00 
 1.72197244e-04  2.01468026e-08  7.00688789e-01  0.00000000e+00 
 1.74197244e-04 -1.08708343e-08  7.00696789e-01  0.00000000e+00 
 1.76197244e-04  2.01688049e-08  7.00704789e-01  0.00000000e+00 
 1.78197244e-04 -1.08928365e-08  7.00712789e-01  0.00000000e+00 
 1.80197244e-04  2.01908069e-08  7.00720789e-01  0.00000000e+00 
 1.82197244e-04 -1.09148386e-08  7.00728789e-01  0.00000000e+00 
 1.84197244e-04  2.02128088e-08  7.00736789e-01  0.00000000e+00 
 1.86197244e-04 -1.09368405e-08  7.00744789e-01  0.00000000e+00 
 1.88197244e-04  2.02348106e-08  7.00752789e-01  0.00000000e+00 
 1.90197244e-04 -1.09588423e-08  7.00760789e-01  0.00000000e+00 
 1.92197244e-04  2.02568122e-08  7.00768789e-01  0.00000000e+00 
 1.94197244e-04 -1.09808438e-08  7.00776789e-01  0.00000000e+00 
 1.96197244e-04  2.02788137e-08  7.00784789e-01  0.00000000e+00 
 1.98197244e-04 -1.10028453e-08  7.00792789e-01  0.00000000e+00 
 2.00000000e-04  2.03020186e-08  7.00800000e-01  0.00000000e+00 
 2.00132732e-04  3.09319737e-06 -9.91994691e-02  8.00000000e-01 
 2.00398195e-04 -3.08965573e-06 -9.91984072e-02  8.00000000e-01 
 2.00605826e-04  3.09172447e-06 -9.91975767e-02  8.00000000e-01 
 2.00853817e-04 -3.08813867e-06 -9.91965847e-02  8.00000000e-01 
 2.01349798e-04  3.09068764e-06 -9.91946008e-02  8.00000000e-01 
 2.02341760e-04 -3.08762062e-06 -9.91906330e-02  8.00000000e-01 
 2.04325685e-04  3.09042857e-06 -9.91826973e-02  8.00000000e-01 
 2.06325685e-04 -3.08744867e-06 -9.91746973e-02  8.00000000e-01 
 2.08325685e-04  3.09025729e-06 -9.91666973e-02  8.00000000e-01 
 2.10325685e-04 -3.08727745e-06 -9.91586973e-02  8.00000000e-01 
 2.12325685e-04  3.09008602e-06 -9.91506973e-02  8.00000000e-01 
 2.14325685e-04 -3.08710625e-06 -9.91426973e-02  8.00000000e-01 
 2.16325685e-04  3.08991478e-06 -9.91346973e-02  8.00000000e-01 
 2.18325685e-04 -3.08693507e-06 -9.91266973e-02  8.00000000e-01 
 2.20325685e-04  3.08974357e-06 -9.91186973e-02  8.00000000e-01 
 2.22325685e-04 -3.08676392e-06 -9.91106973e-02  8.00000000e-01 
 2.24325685e-04  3.08957238e-06 -9.91026973e-02  8.00000000e-01 
 2.26325685e-04 -3.08659280e-06 -9.90946973e-02  8.00000000e-01 
 2.28325685e-04  3.08940121e-06 -9.90866973e-02  8.00000000e-01 
 2.30325685e-04 -3.08642170e-06 -9.90786973e-02  8.00000000e-01 
 2.32325685e-04  3.08923007e-06 -9.90706973e-02  8.00000000e-01 
 2.34325685e-04 -3.08625062e-06 -9.90626973e-02  8.00000000e-01 
 2.36325685e-04  3.08905895e-06 -9.90546973e-02  8.00000000e-01 
 2.38325685e-04 -3.08607957e-06 -9.90466973e-02  8.00000000e-01 
 2.40325685e-04  3.08888786e-06 -9.90386973e-02  8.00000000e-01 
 2.42325685e-04 -3.08590854e-06 -9.90306973e-02  8.00000000e-01 
 2.44325685e-04  3.08871679e-06 -9.90226973e-02  8.00000000e-01 
 2.46325685e-04 -3.08573754e-06 -9.90146973e-02  8.00000000e-01 
 2.48325685e-04  3.08854575e-06 -9.90066973e-02  8.00000000e-01 
 2.50325685e-04 -3.08556657e-06 -9.89986973e-02  8.00000000e-01 
 2.52325685e-04  3.08837473e-06 -9.89906973e-02  8.00000000e-01 
 2.54325685e-04 -3.08539561e-06 -9.89826973e-02  8.00000000e-01 
 2.56325685e-04  3.08820374e-06 -9.89746973e-02  8.00000000e-01 
 2.58325685e-04 -3.08522469e-06 -9.89666973e-02  8.00000000e-01 
 2.60325685e-04  3.08803277e-06 -9.89586973e-02  8.00000000e-01 
 2.62325685e-04 -3.08505378e-06 -9.89506973e-02  8.00000000e-01 
 2.64325685e-04  3.08786182e-06 -9.89426973e-02  8.00000000e-01 
 2.66325685e-04 -3.08488291e-06 -9.89346973e-02  8.00000000e-01 
 2.68325685e-04  3.08769090e-06 -9.89266973e-02  8.00000000e-01 
 2.70325685e-04 -3.08471205e-06 -9.89186973e-02  8.00000000e-01 
 2.72325685e-04  3.08752001e-06 -9.89106973e-02  8.00000000e-01 
 2.74325685e-04 -3.08454122e-06 -9.89026973e-02  8.00000000e-01 
 2.76325685e-04  3.08734914e-06 -9.88946973e-02  8.00000000e-01 
 2.78325685e-04 -3.08437042e-06 -9.88866973e-02  8.00000000e-01 
 2.80325685e-04  3.08717829e-06 -9.88786973e-02  8.00000000e-01 
 2.82325685e-04 -3.08419964e-06 -9.88706973e-02  8.00000000e-01 
 2.84325685e-04  3.08700747e-06 -9.88626973e-02  8.00000000e-01 
 2.86325685e-04 -3.08402888e-06 -9.88546973e-02  8.00000000e-01 
 2.88325685e-04  3.08683667e-06 -9.88466973e-02  8.00000000e-01 
 2.90325685e-04 -3.08385815e-06 -9.88386973e-02  8.00000000e-01 
 2.92325685e-04  3.08666590e-06 -9.88306973e-02  8.00000000e-01 
 2.94325685e-04 -3.08368745e-06 -9.88226973e-02  8.00000000e-01 
 2.96325685e-04  3.08649515e-06 -9.88146973e-02  8.00000000e-01 
 2.98325685e-04 -3.08351677e-06 -9.88066973e-02  8.00000000e-01 
 3.00325685e-04  3.08632443e-06 -9.87986973e-02  8.00000000e-01 
 3.02325685e-04 -3.08334611e-06 -9.87906973e-02  8.00000000e-01 
 3.04325685e-04  3.08615373e-06 -9.87826973e-02  8.00000000e-01 
 3.06325685e-04 -3.08317548e-06 -9.87746973e-02  8.00000000e-01 
 3.08325685e-04  3.08598306e-06 -9.87666973e-02  8.00000000e-01 
 3.10325685e-04 -3.08300487e-06 -9.87586973e-02  8.00000000e-01 
 3.12325685e-04  3.08581241e-06 -9.87506973e-02  8.00000000e-01 
 3.14325685e-04 -3.08283429e-06 -9.87426973e-02  8.00000000e-01 
 3.16325685e-04  3.08564178e-06 -9.87346973e-02  8.00000000e-01 
 3.18325685e-04 -3.08266373e-06 -9.87266973e-02  8.00000000e-01 
 3.20325685e-04  3.08547118e-06 -9.87186973e-02  8.00000000e-01 
 3.22325685e-04 -3.08249319e-06 -9.87106973e-02  8.00000000e-01 
 3.24325685e-04  3.08530061e-06 -9.87026973e-02  8.00000000e-01 
 3.26325685e-04 -3.08232269e-06 -9.86946973e-02  8.00000000e-01 
 3.28325685e-04  3.08513005e-06 -9.86866973e-02  8.00000000e-01 
 3.30325685e-04 -3.08215220e-06 -9.86786973e-02  8.00000000e-01 
 3.32325685e-04  3.08495953e-06 -9.86706973e-02  8.00000000e-01 
 3.34325685e-04 -3.08198174e-06 -9.86626973e-02  8.00000000e-01 
 3.36325685e-04  3.08478902e-06 -9.86546973e-02  8.00000000e-01 
 3.38325685e-04 -3.08181130e-06 -9.86466973e-02  8.00000000e-01 
 3.40325685e-04  3.08461854e-06 -9.86386973e-02  8.00000000e-01 
 3.42325685e-04 -3.08164089e-06 -9.86306973e-02  8.00000000e-01 
 3.44325685e-04  3.08444809e-06 -9.86226973e-02  8.00000000e-01 
 3.46325685e-04 -3.08147050e-06 -9.86146973e-02  8.00000000e-01 
 3.48325685e-04  3.08427766e-06 -9.86066973e-02  8.00000000e-01 
 3.50325685e-04 -3.08130014e-06 -9.85986973e-02  8.00000000e-01 
 3.52325685e-04  3.08410725e-06 -9.85906973e-02  8.00000000e-01 
 3.54325685e-04 -3.08112980e-06 -9.85826973e-02  8.00000000e-01 
 3.56325685e-04  3.08393687e-06 -9.85746973e-02  8.00000000e-01 
 3.58325685e-04 -3.08095949e-06 -9.85666973e-02  8.00000000e-01 
 3.60325685e-04  3.08376651e-06 -9.85586973e-02  8.00000000e-01 
 3.62325685e-04 -3.08078920e-06 -9.85506973e-02  8.00000000e-01 
 3.64325685e-04  3.08359618e-06 -9.85426973e-02  8.00000000e-01 
 3.66325685e-04 -3.08061893e-06 -9.85346973e-02  8.00000000e-01 
 3.68325685e-04  3.08342587e-06 -9.85266973e-02  8.00000000e-01 
 3.70325685e-04 -3.08044869e-06 -9.85186973e-02  8.00000000e-01 
 3.72325685e-04  3.08325559e-06 -9.85106973e-02  8.00000000e-01 
 3.74325685e-04 -3.08027847e-06 -9.85026973e-02  8.00000000e-01 
 3.76325685e-04  3.08308533e-06 -9.84946973e-02  8.00000000e-01 
 3.78325685e-04 -3.08010828e-06 -9.84866973e-02  8.00000000e-01 
 3.80325685e-04  3.08291509e-06 -9.84786973e-02  8.00000000e-01 
 3.82325685e-04 -3.07993811e-06 -9.84706973e-02  8.00000000e-01 
 3.84325685e-04  3.08274488e-06 -9.84626973e-02  8.00000000e-01 
 3.86325685e-04 -3.07976797e-06 -9.84546973e-02  8.00000000e-01 
 3.88325685e-04  3.08257469e-06 -9.84466973e-02  8.00000000e-01 
 3.90325685e-04 -3.07959785e-06 -9.84386973e-02  8.00000000e-01 
 3.92325685e-04  3.08240452e-06 -9.84306973e-02  8.00000000e-01 
 3.94325685e-04 -3.07942775e-06 -9.84226973e-02  8.00000000e-01 
 3.96325685e-04  3.08223438e-06 -9.84146973e-02  8.00000000e-01 
 3.98325685e-04 -3.07925768e-06 -9.84066973e-02  8.00000000e-01 
 4.00325685e-04  3.08206427e-06 -9.83986973e-02  8.00000000e-01 
 4.02325685e-04 -3.07908763e-06 -9.83906973e-02  8.00000000e-01 
 4.04325685e-04  3.08189418e-06 -9.83826973e-02  8.00000000e-01 
 4.06325685e-04 -3.07891760e-06 -9.83746973e-02  8.00000000e-01 
 4.08325685e-04  3.08172411e-06 -9.83666973e-02  8.00000000e-01 
 4.10325685e-04 -3.07874760e-06 -9.83586973e-02  8.00000000e-01 
 4.12325685e-04  3.08155406e-06 -9.83506973e-02  8.00000000e-01 
 4.14325685e-04 -3.07857763e-06 -9.83426973e-02  8.00000000e-01 
 4.16325685e-04  3.08138404e-06 -9.83346973e-02  8.00000000e-01 
 4.18325685e-04 -3.07840768e-06 -9.83266973e-02  8.00000000e-01 
 4.20325685e-04  3.08121404e-06 -9.83186973e-02  8.00000000e-01 
 4.22325685e-04 -3.07823775e-06 -9.83106973e-02  8.00000000e-01 
 4.24325685e-04  3.08104407e-06 -9.83026973e-02  8.00000000e-01 
 4.26325685e-04 -3.07806784e-06 -9.82946973e-02  8.00000000e-01 
 4.28325685e-04  3.08087412e-06 -9.82866973e-02  8.00000000e-01 
 4.30325685e-04 -3.07789796e-06 -9.82786973e-02  8.00000000e-01 
 4.32325685e-04  3.08070419e-06 -9.82706973e-02  8.00000000e-01 
 4.34325685e-04 -3.07772810e-06 -9.82626973e-02  8.00000000e-01 
 4.36325685e-04  3.08053429e-06 -9.82546973e-02  8.00000000e-01 
 4.38325685e-04 -3.07755827e-06 -9.82466973e-02  8.00000000e-01 
 4.40325685e-04  3.08036441e-06 -9.82386973e-02  8.00000000e-01 
 4.42325685e-04 -3.07738846e-06 -9.82306973e-02  8.00000000e-01 
 4.44325685e-04  3.08019456e-06 -9.82226973e-02  8.00000000e-01 
 4.46325685e-04 -3.07721868e-06 -9.82146973e-02  8.00000000e-01 
 4.48325685e-04  3.08002473e-06 -9.82066973e-02  8.00000000e-01 
 4.50325685e-04 -3.07704891e-06 -9.81986973e-02  8.00000000e-01 
 4.52325685e-04  3.07985492e-06 -9.81906973e-02  8.00000000e-01 
 4.54325685e-04 -3.07687918e-06 -9.81826973e-02  8.00000000e-01 
 4.56325685e-04  3.07968514e-06 -9.81746973e-02  8.00000000e-01 
 4.58325685e-04 -3.07670946e-06 -9.81666973e-02  8.00000000e-01 
 4.60325685e-04  3.07951537e-06 -9.81586973e-02  8.00000000e-01 
 4.62325685e-04 -3.07653977e-06 -9.81506973e-02  8.00000000e-01 
 4.64325685e-04  3.07934564e-06 -9.81426973e-02  8.00000000e-01 
 4.66325685e-04 -3.07637010e-06 -9.81346973e-02  8.00000000e-01 
 4.68325685e-04  3.07917592e-06 -9.81266973e-02  8.00000000e-01 
 4.70325685e-04 -3.07620046e-06 -9.81186973e-02  8.00000000e-01 
 4.72325685e-04  3.07900623e-06 -9.81106973e-02  8.00000000e-01 
 4.74325685e-04 -3.07603084e-06 -9.81026973e-02  8.00000000e-01 
 4.76325685e-04  3.07883656e-06 -9.80946973e-02  8.00000000e-01 
 4.78325685e-04 -3.07586124e-06 -9.80866973e-02  8.00000000e-01 
 4.80325685e-04  3.07866692e-06 -9.80786973e-02  8.00000000e-01 
 4.82325685e-04 -3.07569166e-06 -9.80706973e-02  8.00000000e-01 
 4.84325685e-04  3.07849730e-06 -9.80626973e-02  8.00000000e-01 
 4.86325685e-04 -3.07552211e-06 -9.80546973e-02  8.00000000e-01 
 4.88325685e-04  3.07832770e-06 -9.80466973e-02  8.00000000e-01 
 4.90325685e-04 -3.07535258e-06 -9.80386973e-02  8.00000000e-01 
 4.92325685e-04  3.07815813e-06 -9.80306973e-02  8.00000000e-01 
 4.94325685e-04 -3.07518308e-06 -9.80226973e-02  8.00000000e-01 
 4.96325685e-04  3.07798858e-06 -9.80146973e-02  8.00000000e-01 
 4.98325685e-04 -3.07501360e-06 -9.80066973e-02  8.00000000e-01 
 5.00100100e-04  3.07780827e-06 -9.79995996e-02  8.00000000e-01 
 5.00100110e-04 -5.54176496e-05 -9.79995996e-02  8.00000000e-01 
 5.00100130e-04 -1.13768155e-05 -9.79995995e-02  8.00000000e-01 
 5.00100170e-04  2.31307343e-05 -9.79995993e-02  8.00000000e-01 
 5.00100200e-04  2.84830026e-04 -9.79995992e-02  8.00000000e-01 
 5.00100208e-04  3.33830175e-04 -9.79995992e-02  8.00000000e-01 
 5.00100224e-04  2.28071196e-04 -9.79995991e-02  8.00000000e-01 
 5.00100256e-04  1.62707358e-04 -9.79995990e-02  8.00000000e-01 
 5.00100320e-04 -2.29834293e-02 -9.79995987e-02  8.00000000e-01 
 5.00100393e-04  1.72008533e-02 -9.79995984e-02  8.00000000e-01 
 5.00100469e-04 -1.19836788e-02 -9.79995981e-02  8.00000000e-01 
 5.00100620e-04  1.11563012e-02 -9.79995975e-02  8.00000000e-01 
 5.00100800e-04 -9.79554188e-03 -9.79995968e-02  8.00000000e-01 
 5.00101161e-04  9.49495412e-03 -9.79995954e-02  8.00000000e-01 
 5.00101776e-04 -9.10959189e-03 -9.79995929e-02  8.00000000e-01 
 5.00102767e-04  9.01269841e-03 -9.79995889e-02  8.00000000e-01 
 5.00104748e-04 -8.88755110e-03 -9.79995810e-02  8.00000000e-01 
 5.00108712e-04  8.87803997e-03 -9.79995652e-02  8.00000000e-01 
 5.00116202e-04 -8.83330363e-03 -9.79995352e-02  8.00000000e-01 
 5.00131182e-04  8.84322034e-03 -9.79994753e-02  8.00000000e-01 
 5.00161143e-04 -8.81935946e-03 -9.79993554e-02  8.00000000e-01 
 5.00221065e-04  8.83479338e-03 -9.79991157e-02  8.00000000e-01 
