 time            v(Q)            v(A)-v(B)       v(B)           
 0.00000000e+00  1.79999994e+00  1.70000000e+00  0.00000000e+00 
 1.00000000e-09  1.79999994e+00  1.70000000e+00  0.00000000e+00 
 2.00000000e-09  1.79999994e+00  1.70000001e+00  0.00000000e+00 
 4.00000000e-09  1.79999994e+00  1.70000002e+00  0.00000000e+00 
 8.00000000e-09  1.79999994e+00  1.70000003e+00  0.00000000e+00 
 1.60000000e-08  1.79999994e+00  1.70000006e+00  0.00000000e+00 
 3.20000000e-08  1.79999994e+00  1.70000013e+00  0.00000000e+00 
 6.40000000e-08  1.79999994e+00  1.70000026e+00  0.00000000e+00 
 1.00000000e-07  1.79999994e+00  1.70000040e+00  0.00000000e+00 
 1.00010000e-07  1.80002673e+00  1.70000040e+00  0.00000000e+00 
 1.00030000e-07  1.80002718e+00  1.70000040e+00  0.00000000e+00 
 1.00070000e-07  1.79991407e+00  1.70000040e+00  0.00000000e+00 
 1.00100000e-07  1.79984322e+00  1.70000040e+00  0.00000000e+00 
 1.00107584e-07  1.79974822e+00  1.70000040e+00  0.00000000e+00 
 1.00122751e-07  1.80060325e+00  1.70000040e+00  0.00000000e+00 
 1.00153086e-07  1.80618097e+00  1.70000040e+00  0.00000000e+00 
 1.00207379e-07  1.79953500e+00  1.70000040e+00  0.00000000e+00 
 1.00259581e-07  1.79951415e+00  1.70000040e+00  0.00000000e+00 
 1.00351800e-07  1.80151354e+00  1.70000040e+00  0.00000000e+00 
 1.00447002e-07  1.79807072e+00  1.70000040e+00  0.00000000e+00 
 1.00568391e-07  1.80138041e+00  1.70000040e+00  0.00000000e+00 
 1.00795373e-07  1.79876502e+00  1.70000040e+00  0.00000000e+00 
 1.01000126e-07  1.80108115e+00  1.70000040e+00  0.00000000e+00 
 1.01409633e-07  1.79897953e+00  1.70000041e+00  0.00000000e+00 
 1.01974925e-07  1.80097769e+00  1.70000041e+00  0.00000000e+00 
 1.02850650e-07  1.79904792e+00  1.70000041e+00  0.00000000e+00 
 1.04355610e-07  1.80093756e+00  1.70000042e+00  0.00000000e+00 
 1.07184321e-07  1.79907016e+00  1.70000043e+00  0.00000000e+00 
 1.12414650e-07  1.80092588e+00  1.70000045e+00  0.00000000e+00 
 1.22875308e-07  1.79907629e+00  1.70000049e+00  0.00000000e+00 
 1.43796624e-07  1.80092283e+00  1.70000058e+00  0.00000000e+00 
 1.85639257e-07  1.79907781e+00  1.70000074e+00  0.00000000e+00 
 2.69324523e-07  1.80092208e+00  1.70000108e+00  0.00000000e+00 
 4.36695055e-07  1.79907819e+00  1.70000175e+00  0.00000000e+00 
 7.71436119e-07  1.80092189e+00  1.70000309e+00  0.00000000e+00 
 1.44091825e-06  1.79907828e+00  1.70000576e+00  0.00000000e+00 
 2.77988250e-06  1.80092184e+00  1.70001112e+00  0.00000000e+00 
 4.77988250e-06  1.79907830e+00  1.70001912e+00  0.00000000e+00 
 6.77988250e-06  1.80092182e+00  1.70002712e+00  0.00000000e+00 
 8.77988250e-06  1.79907833e+00  1.70003512e+00  0.00000000e+00 
 1.07798825e-05  1.80092180e+00  1.70004312e+00  0.00000000e+00 
 1.27798825e-05  1.79907835e+00  1.70005112e+00  0.00000000e+00 
 1.47798825e-05  1.80092178e+00  1.70005912e+00  0.00000000e+00 
 1.67798825e-05  1.79907837e+00  1.70006712e+00  0.00000000e+00 
 1.87798825e-05  1.80092175e+00  1.70007512e+00  0.00000000e+00 
 2.07798825e-05  1.79907839e+00  1.70008312e+00  0.00000000e+00 
 2.27798825e-05  1.80092173e+00  1.70009112e+00  0.00000000e+00 
 2.47798825e-05  1.79907841e+00  1.70009912e+00  0.00000000e+00 
 2.67798825e-05  1.80092171e+00  1.70010712e+00  0.00000000e+00 
 2.87798825e-05  1.79907843e+00  1.70011512e+00  0.00000000e+00 
 3.07798825e-05  1.80092169e+00  1.70012312e+00  0.00000000e+00 
 3.27798825e-05  1.79907845e+00  1.70013112e+00  0.00000000e+00 
 3.47798825e-05  1.80092167e+00  1.70013912e+00  0.00000000e+00 
 3.67798825e-05  1.79907848e+00  1.70014712e+00  0.00000000e+00 
 3.87798825e-05  1.80092165e+00  1.70015512e+00  0.00000000e+00 
 4.07798825e-05  1.79907850e+00  1.70016312e+00  0.00000000e+00 
 4.27798825e-05  1.80092163e+00  1.70017112e+00  0.00000000e+00 
 4.47798825e-05  1.79907852e+00  1.70017912e+00  0.00000000e+00 
 4.67798825e-05  1.80092161e+00  1.70018712e+00  0.00000000e+00 
 4.87798825e-05  1.79907854e+00  1.70019512e+00  0.00000000e+00 
 5.07798825e-05  1.80092158e+00  1.70020312e+00  0.00000000e+00 
 5.27798825e-05  1.79907856e+00  1.70021112e+00  0.00000000e+00 
 5.47798825e-05  1.80092156e+00  1.70021912e+00  0.00000000e+00 
 5.67798825e-05  1.79907858e+00  1.70022712e+00  0.00000000e+00 
 5.87798825e-05  1.80092154e+00  1.70023512e+00  0.00000000e+00 
 6.07798825e-05  1.79907860e+00  1.70024312e+00  0.00000000e+00 
 6.27798825e-05  1.80092152e+00  1.70025112e+00  0.00000000e+00 
 6.47798825e-05  1.79907862e+00  1.70025912e+00  0.00000000e+00 
 6.67798825e-05  1.80092150e+00  1.70026712e+00  0.00000000e+00 
 6.87798825e-05  1.79907865e+00  1.70027512e+00  0.00000000e+00 
 7.07798825e-05  1.80092148e+00  1.70028312e+00  0.00000000e+00 
 7.27798825e-05  1.79907867e+00  1.70029112e+00  0.00000000e+00 
 7.47798825e-05  1.80092146e+00  1.70029912e+00  0.00000000e+00 
 7.67798825e-05  1.79907869e+00  1.70030712e+00  0.00000000e+00 
 7.87798825e-05  1.80092143e+00  1.70031512e+00  0.00000000e+00 
 8.07798825e-05  1.79907871e+00  1.70032312e+00  0.00000000e+00 
 8.27798825e-05  1.80092141e+00  1.70033112e+00  0.00000000e+00 
 8.47798825e-05  1.79907873e+00  1.70033912e+00  0.00000000e+00 
 8.67798825e-05  1.80092139e+00  1.70034712e+00  0.00000000e+00 
 8.87798825e-05  1.79907875e+00  1.70035512e+00  0.00000000e+00 
 9.07798825e-05  1.80092137e+00  1.70036312e+00  0.00000000e+00 
 9.27798825e-05  1.79907877e+00  1.70037112e+00  0.00000000e+00 
 9.47798825e-05  1.80092135e+00  1.70037912e+00  0.00000000e+00 
 9.67798825e-05  1.79907879e+00  1.70038712e+00  0.00000000e+00 
 9.87798825e-05  1.80092133e+00  1.70039512e+00  0.00000000e+00 
 1.00779883e-04  1.79907882e+00  1.70040312e+00  0.00000000e+00 
 1.02779883e-04  1.80092131e+00  1.70041112e+00  0.00000000e+00 
 1.04779883e-04  1.79907884e+00  1.70041912e+00  0.00000000e+00 
 1.06779883e-04  1.80092129e+00  1.70042712e+00  0.00000000e+00 
 1.08779883e-04  1.79907886e+00  1.70043512e+00  0.00000000e+00 
 1.10779883e-04  1.80092126e+00  1.70044312e+00  0.00000000e+00 
 1.12779883e-04  1.79907888e+00  1.70045112e+00  0.00000000e+00 
 1.14779883e-04  1.80092124e+00  1.70045912e+00  0.00000000e+00 
 1.16779883e-04  1.79907890e+00  1.70046712e+00  0.00000000e+00 
 1.18779883e-04  1.80092122e+00  1.70047512e+00  0.00000000e+00 
 1.20779883e-04  1.79907892e+00  1.70048312e+00  0.00000000e+00 
 1.22779883e-04  1.80092120e+00  1.70049112e+00  0.00000000e+00 
 1.24779883e-04  1.79907894e+00  1.70049912e+00  0.00000000e+00 
 1.26779883e-04  1.80092118e+00  1.70050712e+00  0.00000000e+00 
 1.28779883e-04  1.79907896e+00  1.70051512e+00  0.00000000e+00 
 1.30779883e-04  1.80092116e+00  1.70052312e+00  0.00000000e+00 
 1.32779883e-04  1.79907899e+00  1.70053112e+00  0.00000000e+00 
 1.34779883e-04  1.80092114e+00  1.70053912e+00  0.00000000e+00 
 1.36779883e-04  1.79907901e+00  1.70054712e+00  0.00000000e+00 
 1.38779883e-04  1.80092111e+00  1.70055512e+00  0.00000000e+00 
 1.40779883e-04  1.79907903e+00  1.70056312e+00  0.00000000e+00 
 1.42779883e-04  1.80092109e+00  1.70057112e+00  0.00000000e+00 
 1.44779883e-04  1.79907905e+00  1.70057912e+00  0.00000000e+00 
 1.46779883e-04  1.80092107e+00  1.70058712e+00  0.00000000e+00 
 1.48779883e-04  1.79907907e+00  1.70059512e+00  0.00000000e+00 
 1.50779883e-04  1.80092105e+00  1.70060312e+00  0.00000000e+00 
 1.52779883e-04  1.79907909e+00  1.70061112e+00  0.00000000e+00 
 1.54779883e-04  1.80092103e+00  1.70061912e+00  0.00000000e+00 
 1.56779883e-04  1.79907911e+00  1.70062712e+00  0.00000000e+00 
 1.58779883e-04  1.80092101e+00  1.70063512e+00  0.00000000e+00 
 1.60779883e-04  1.79907914e+00  1.70064312e+00  0.00000000e+00 
 1.62779883e-04  1.80092099e+00  1.70065112e+00  0.00000000e+00 
 1.64779883e-04  1.79907916e+00  1.70065912e+00  0.00000000e+00 
 1.66779883e-04  1.80092096e+00  1.70066712e+00  0.00000000e+00 
 1.68779883e-04  1.79907918e+00  1.70067512e+00  0.00000000e+00 
 1.70779883e-04  1.80092094e+00  1.70068312e+00  0.00000000e+00 
 1.72779883e-04  1.79907920e+00  1.70069112e+00  0.00000000e+00 
 1.74779883e-04  1.80092092e+00  1.70069912e+00  0.00000000e+00 
 1.76779883e-04  1.79907922e+00  1.70070712e+00  0.00000000e+00 
 1.78779883e-04  1.80092090e+00  1.70071512e+00  0.00000000e+00 
 1.80779883e-04  1.79907924e+00  1.70072312e+00  0.00000000e+00 
 1.82779883e-04  1.80092088e+00  1.70073112e+00  0.00000000e+00 
 1.84779883e-04  1.79907926e+00  1.70073912e+00  0.00000000e+00 
 1.86779883e-04  1.80092086e+00  1.70074712e+00  0.00000000e+00 
 1.88779883e-04  1.79907929e+00  1.70075512e+00  0.00000000e+00 
 1.90779883e-04  1.80092084e+00  1.70076312e+00  0.00000000e+00 
 1.92779883e-04  1.79907931e+00  1.70077112e+00  0.00000000e+00 
 1.94779883e-04  1.80092081e+00  1.70077912e+00  0.00000000e+00 
 1.96779883e-04  1.79907933e+00  1.70078712e+00  0.00000000e+00 
 1.98779883e-04  1.80092079e+00  1.70079512e+00  0.00000000e+00 
 2.00000000e-04  1.79907936e+00  1.70080000e+00  0.00000000e+00 
 2.00114837e-04  1.79999986e+00 -9.91995407e-02  1.80000000e+00 
 2.00344512e-04  1.80000003e+00 -9.91986220e-02  1.80000000e+00 
 2.00539999e-04  1.79999985e+00 -9.91978400e-02  1.80000000e+00 
 2.00763435e-04  1.80000003e+00 -9.91969463e-02  1.80000000e+00 
 2.01210306e-04  1.79999985e+00 -9.91951588e-02  1.80000000e+00 
 2.02104048e-04  1.80000003e+00 -9.91915838e-02  1.80000000e+00 
 2.03891532e-04  1.79999985e+00 -9.91844339e-02  1.80000000e+00 
 2.05891532e-04  1.80000003e+00 -9.91764339e-02  1.80000000e+00 
 2.07891532e-04  1.79999985e+00 -9.91684339e-02  1.80000000e+00 
 2.09891532e-04  1.80000003e+00 -9.91604339e-02  1.80000000e+00 
 2.11891532e-04  1.79999985e+00 -9.91524339e-02  1.80000000e+00 
 2.13891532e-04  1.80000003e+00 -9.91444339e-02  1.80000000e+00 
 2.15891532e-04  1.79999985e+00 -9.91364339e-02  1.80000000e+00 
 2.17891532e-04  1.80000003e+00 -9.91284339e-02  1.80000000e+00 
 2.19891532e-04  1.79999985e+00 -9.91204339e-02  1.80000000e+00 
 2.21891532e-04  1.80000003e+00 -9.91124339e-02  1.80000000e+00 
 2.23891532e-04  1.79999985e+00 -9.91044339e-02  1.80000000e+00 
 2.25891532e-04  1.80000003e+00 -9.90964339e-02  1.80000000e+00 
 2.27891532e-04  1.79999985e+00 -9.90884339e-02  1.80000000e+00 
 2.29891532e-04  1.80000003e+00 -9.90804339e-02  1.80000000e+00 
 2.31891532e-04  1.79999985e+00 -9.90724339e-02  1.80000000e+00 
 2.33891532e-04  1.80000003e+00 -9.90644339e-02  1.80000000e+00 
 2.35891532e-04  1.79999985e+00 -9.90564339e-02  1.80000000e+00 
 2.37891532e-04  1.80000003e+00 -9.90484339e-02  1.80000000e+00 
 2.39891532e-04  1.79999985e+00 -9.90404339e-02  1.80000000e+00 
 2.41891532e-04  1.80000003e+00 -9.90324339e-02  1.80000000e+00 
 2.43891532e-04  1.79999985e+00 -9.90244339e-02  1.80000000e+00 
 2.45891532e-04  1.80000003e+00 -9.90164339e-02  1.80000000e+00 
 2.47891532e-04  1.79999985e+00 -9.90084339e-02  1.80000000e+00 
 2.49891532e-04  1.80000003e+00 -9.90004339e-02  1.80000000e+00 
 2.51891532e-04  1.79999985e+00 -9.89924339e-02  1.80000000e+00 
 2.53891532e-04  1.80000003e+00 -9.89844339e-02  1.80000000e+00 
 2.55891532e-04  1.79999985e+00 -9.89764339e-02  1.80000000e+00 
 2.57891532e-04  1.80000003e+00 -9.89684339e-02  1.80000000e+00 
 2.59891532e-04  1.79999985e+00 -9.89604339e-02  1.80000000e+00 
 2.61891532e-04  1.80000003e+00 -9.89524339e-02  1.80000000e+00 
 2.63891532e-04  1.79999985e+00 -9.89444339e-02  1.80000000e+00 
 2.65891532e-04  1.80000003e+00 -9.89364339e-02  1.80000000e+00 
 2.67891532e-04  1.79999985e+00 -9.89284339e-02  1.80000000e+00 
 2.69891532e-04  1.80000003e+00 -9.89204339e-02  1.80000000e+00 
 2.71891532e-04  1.79999985e+00 -9.89124339e-02  1.80000000e+00 
 2.73891532e-04  1.80000004e+00 -9.89044339e-02  1.80000000e+00 
 2.75891532e-04  1.79999985e+00 -9.88964339e-02  1.80000000e+00 
 2.77891532e-04  1.80000004e+00 -9.88884339e-02  1.80000000e+00 
 2.79891532e-04  1.79999985e+00 -9.88804339e-02  1.80000000e+00 
 2.81891532e-04  1.80000004e+00 -9.88724339e-02  1.80000000e+00 
 2.83891532e-04  1.79999985e+00 -9.88644339e-02  1.80000000e+00 
 2.85891532e-04  1.80000004e+00 -9.88564339e-02  1.80000000e+00 
 2.87891532e-04  1.79999984e+00 -9.88484339e-02  1.80000000e+00 
 2.89891532e-04  1.80000004e+00 -9.88404339e-02  1.80000000e+00 
 2.91891532e-04  1.79999984e+00 -9.88324339e-02  1.80000000e+00 
 2.93891532e-04  1.80000004e+00 -9.88244339e-02  1.80000000e+00 
 2.95891532e-04  1.79999984e+00 -9.88164339e-02  1.80000000e+00 
 2.97891532e-04  1.80000004e+00 -9.88084339e-02  1.80000000e+00 
 2.99891532e-04  1.79999984e+00 -9.88004339e-02  1.80000000e+00 
 3.01891532e-04  1.80000004e+00 -9.87924339e-02  1.80000000e+00 
 3.03891532e-04  1.79999984e+00 -9.87844339e-02  1.80000000e+00 
 3.05891532e-04  1.80000004e+00 -9.87764339e-02  1.80000000e+00 
 3.07891532e-04  1.79999984e+00 -9.87684339e-02  1.80000000e+00 
 3.09891532e-04  1.80000004e+00 -9.87604339e-02  1.80000000e+00 
 3.11891532e-04  1.79999984e+00 -9.87524339e-02  1.80000000e+00 
 3.13891532e-04  1.80000004e+00 -9.87444339e-02  1.80000000e+00 
 3.15891532e-04  1.79999984e+00 -9.87364339e-02  1.80000000e+00 
 3.17891532e-04  1.80000004e+00 -9.87284339e-02  1.80000000e+00 
 3.19891532e-04  1.79999984e+00 -9.87204339e-02  1.80000000e+00 
 3.21891532e-04  1.80000004e+00 -9.87124339e-02  1.80000000e+00 
 3.23891532e-04  1.79999984e+00 -9.87044339e-02  1.80000000e+00 
 3.25891532e-04  1.80000004e+00 -9.86964339e-02  1.80000000e+00 
 3.27891532e-04  1.79999984e+00 -9.86884339e-02  1.80000000e+00 
 3.29891532e-04  1.80000004e+00 -9.86804339e-02  1.80000000e+00 
 3.31891532e-04  1.79999984e+00 -9.86724339e-02  1.80000000e+00 
 3.33891532e-04  1.80000004e+00 -9.86644339e-02  1.80000000e+00 
 3.35891532e-04  1.79999984e+00 -9.86564339e-02  1.80000000e+00 
 3.37891532e-04  1.80000004e+00 -9.86484339e-02  1.80000000e+00 
 3.39891532e-04  1.79999984e+00 -9.86404339e-02  1.80000000e+00 
 3.41891532e-04  1.80000004e+00 -9.86324339e-02  1.80000000e+00 
 3.43891532e-04  1.79999984e+00 -9.86244339e-02  1.80000000e+00 
 3.45891532e-04  1.80000004e+00 -9.86164339e-02  1.80000000e+00 
 3.47891532e-04  1.79999984e+00 -9.86084339e-02  1.80000000e+00 
 3.49891532e-04  1.80000004e+00 -9.86004339e-02  1.80000000e+00 
 3.51891532e-04  1.79999984e+00 -9.85924339e-02  1.80000000e+00 
 3.53891532e-04  1.80000004e+00 -9.85844339e-02  1.80000000e+00 
 3.55891532e-04  1.79999984e+00 -9.85764339e-02  1.80000000e+00 
 3.57891532e-04  1.80000004e+00 -9.85684339e-02  1.80000000e+00 
 3.59891532e-04  1.79999984e+00 -9.85604339e-02  1.80000000e+00 
 3.61891532e-04  1.80000004e+00 -9.85524339e-02  1.80000000e+00 
 3.63891532e-04  1.79999984e+00 -9.85444339e-02  1.80000000e+00 
 3.65891532e-04  1.80000004e+00 -9.85364339e-02  1.80000000e+00 
 3.67891532e-04  1.79999984e+00 -9.85284339e-02  1.80000000e+00 
 3.69891532e-04  1.80000004e+00 -9.85204339e-02  1.80000000e+00 
 3.71891532e-04  1.79999984e+00 -9.85124339e-02  1.80000000e+00 
 3.73891532e-04  1.80000004e+00 -9.85044339e-02  1.80000000e+00 
 3.75891532e-04  1.79999984e+00 -9.84964339e-02  1.80000000e+00 
 3.77891532e-04  1.80000004e+00 -9.84884339e-02  1.80000000e+00 
 3.79891532e-04  1.79999984e+00 -9.84804339e-02  1.80000000e+00 
 3.81891532e-04  1.80000004e+00 -9.84724339e-02  1.80000000e+00 
 3.83891532e-04  1.79999984e+00 -9.84644339e-02  1.80000000e+00 
 3.85891532e-04  1.80000004e+00 -9.84564339e-02  1.80000000e+00 
 3.87891532e-04  1.79999984e+00 -9.84484339e-02  1.80000000e+00 
 3.89891532e-04  1.80000004e+00 -9.84404339e-02  1.80000000e+00 
 3.91891532e-04  1.79999984e+00 -9.84324339e-02  1.80000000e+00 
 3.93891532e-04  1.80000004e+00 -9.84244339e-02  1.80000000e+00 
 3.95891532e-04  1.79999984e+00 -9.84164339e-02  1.80000000e+00 
 3.97891532e-04  1.80000004e+00 -9.84084339e-02  1.80000000e+00 
 3.99891532e-04  1.79999984e+00 -9.84004339e-02  1.80000000e+00 
 4.01891532e-04  1.80000004e+00 -9.83924339e-02  1.80000000e+00 
 4.03891532e-04  1.79999984e+00 -9.83844339e-02  1.80000000e+00 
 4.05891532e-04  1.80000004e+00 -9.83764339e-02  1.80000000e+00 
 4.07891532e-04  1.79999984e+00 -9.83684339e-02  1.80000000e+00 
 4.09891532e-04  1.80000004e+00 -9.83604339e-02  1.80000000e+00 
 4.11891532e-04  1.79999984e+00 -9.83524339e-02  1.80000000e+00 
 4.13891532e-04  1.80000004e+00 -9.83444339e-02  1.80000000e+00 
 4.15891532e-04  1.79999984e+00 -9.83364339e-02  1.80000000e+00 
 4.17891532e-04  1.80000004e+00 -9.83284339e-02  1.80000000e+00 
 4.19891532e-04  1.79999984e+00 -9.83204339e-02  1.80000000e+00 
 4.21891532e-04  1.80000004e+00 -9.83124339e-02  1.80000000e+00 
 4.23891532e-04  1.79999984e+00 -9.83044339e-02  1.80000000e+00 
 4.25891532e-04  1.80000004e+00 -9.82964339e-02  1.80000000e+00 
 4.27891532e-04  1.79999983e+00 -9.82884339e-02  1.80000000e+00 
 4.29891532e-04  1.80000005e+00 -9.82804339e-02  1.80000000e+00 
 4.31891532e-04  1.79999983e+00 -9.82724339e-02  1.80000000e+00 
 4.33891532e-04  1.80000005e+00 -9.82644339e-02  1.80000000e+00 
 4.35891532e-04  1.79999983e+00 -9.82564339e-02  1.80000000e+00 
 4.37891532e-04  1.80000005e+00 -9.82484339e-02  1.80000000e+00 
 4.39891532e-04  1.79999983e+00 -9.82404339e-02  1.80000000e+00 
 4.41891532e-04  1.80000005e+00 -9.82324339e-02  1.80000000e+00 
 4.43891532e-04  1.79999983e+00 -9.82244339e-02  1.80000000e+00 
 4.45891532e-04  1.80000005e+00 -9.82164339e-02  1.80000000e+00 
 4.47891532e-04  1.79999983e+00 -9.82084339e-02  1.80000000e+00 
 4.49891532e-04  1.80000005e+00 -9.82004339e-02  1.80000000e+00 
 4.51891532e-04  1.79999983e+00 -9.81924339e-02  1.80000000e+00 
 4.53891532e-04  1.80000005e+00 -9.81844339e-02  1.80000000e+00 
 4.55891532e-04  1.79999983e+00 -9.81764339e-02  1.80000000e+00 
 4.57891532e-04  1.80000005e+00 -9.81684339e-02  1.80000000e+00 
 4.59891532e-04  1.79999983e+00 -9.81604339e-02  1.80000000e+00 
 4.61891532e-04  1.80000005e+00 -9.81524339e-02  1.80000000e+00 
 4.63891532e-04  1.79999983e+00 -9.81444339e-02  1.80000000e+00 
 4.65891532e-04  1.80000005e+00 -9.81364339e-02  1.80000000e+00 
 4.67891532e-04  1.79999983e+00 -9.81284339e-02  1.80000000e+00 
 4.69891532e-04  1.80000005e+00 -9.81204339e-02  1.80000000e+00 
 4.71891532e-04  1.79999983e+00 -9.81124339e-02  1.80000000e+00 
 4.73891532e-04  1.80000005e+00 -9.81044339e-02  1.80000000e+00 
 4.75891532e-04  1.79999983e+00 -9.80964339e-02  1.80000000e+00 
 4.77891532e-04  1.80000005e+00 -9.80884339e-02  1.80000000e+00 
 4.79891532e-04  1.79999983e+00 -9.80804339e-02  1.80000000e+00 
 4.81891532e-04  1.80000005e+00 -9.80724339e-02  1.80000000e+00 
 4.83891532e-04  1.79999983e+00 -9.80644339e-02  1.80000000e+00 
 4.85891532e-04  1.80000005e+00 -9.80564339e-02  1.80000000e+00 
 4.87891532e-04  1.79999983e+00 -9.80484339e-02  1.80000000e+00 
 4.89891532e-04  1.80000005e+00 -9.80404339e-02  1.80000000e+00 
 4.91891532e-04  1.79999983e+00 -9.80324339e-02  1.80000000e+00 
 4.93891532e-04  1.80000005e+00 -9.80244339e-02  1.80000000e+00 
 4.95891532e-04  1.79999983e+00 -9.80164339e-02  1.80000000e+00 
 4.97891532e-04  1.80000005e+00 -9.80084339e-02  1.80000000e+00 
 4.99891532e-04  1.79999983e+00 -9.80004339e-02  1.80000000e+00 
 5.00100100e-04  1.80000005e+00 -9.79995996e-02  1.80000000e+00 
 5.00100110e-04  1.79998342e+00 -9.79995996e-02  1.80000000e+00 
 5.00100130e-04  1.79999612e+00 -9.79995995e-02  1.80000000e+00 
 5.00100170e-04  1.79997981e+00 -9.79995993e-02  1.80000000e+00 
 5.00100200e-04  1.80015167e+00 -9.79995992e-02  1.80000000e+00 
 5.00100208e-04  1.80019160e+00 -9.79995992e-02  1.80000000e+00 
 5.00100224e-04  1.80012732e+00 -9.79995991e-02  1.80000000e+00 
 5.00100256e-04  1.80002505e+00 -9.79995990e-02  1.80000000e+00 
 5.00100320e-04  1.79327583e+00 -9.79995987e-02  1.80000000e+00 
 5.00100405e-04  1.80258627e+00 -9.79995984e-02  1.80000000e+00 
 5.00100482e-04  1.79487268e+00 -9.79995981e-02  1.80000000e+00 
 5.00100636e-04  1.80377109e+00 -9.79995975e-02  1.80000000e+00 
 5.00100830e-04  1.79636670e+00 -9.79995967e-02  1.80000000e+00 
 5.00101216e-04  1.80337428e+00 -9.79995951e-02  1.80000000e+00 
 5.00101929e-04  1.79662353e+00 -9.79995923e-02  1.80000000e+00 
