 time            v(Q)            v(A)-v(B)       v(B)           
 0.00000000e+00  1.79999994e+00  9.00000000e-01  0.00000000e+00 
 1.00000000e-09  1.79999994e+00  9.00000004e-01  0.00000000e+00 
 2.00000000e-09  1.79999994e+00  9.00000008e-01  0.00000000e+00 
 4.00000000e-09  1.79999994e+00  9.00000016e-01  0.00000000e+00 
 8.00000000e-09  1.79999994e+00  9.00000032e-01  0.00000000e+00 
 1.60000000e-08  1.79999994e+00  9.00000064e-01  0.00000000e+00 
 3.20000000e-08  1.79999994e+00  9.00000128e-01  0.00000000e+00 
 6.40000000e-08  1.79999994e+00  9.00000256e-01  0.00000000e+00 
 1.00000000e-07  1.79999994e+00  9.00000400e-01  0.00000000e+00 
 1.00010000e-07  1.80002671e+00  9.00000400e-01  0.00000000e+00 
 1.00030000e-07  1.80002676e+00  9.00000400e-01  0.00000000e+00 
 1.00070000e-07  1.79994914e+00  9.00000400e-01  0.00000000e+00 
 1.00100000e-07  1.79997663e+00  9.00000400e-01  0.00000000e+00 
 1.00107621e-07  1.80003308e+00  9.00000400e-01  0.00000000e+00 
 1.00122864e-07  1.80001098e+00  9.00000400e-01  0.00000000e+00 
 1.00153350e-07  1.79993943e+00  9.00000401e-01  0.00000000e+00 
 1.00214322e-07  1.80002014e+00  9.00000401e-01  0.00000000e+00 
 1.00291945e-07  1.80368730e+00  9.00000401e-01  0.00000000e+00 
 1.00391561e-07  1.79931272e+00  9.00000402e-01  0.00000000e+00 
 1.00498117e-07  1.79941273e+00  9.00000402e-01  0.00000000e+00 
 1.00694868e-07  1.80068057e+00  9.00000403e-01  0.00000000e+00 
 1.00873945e-07  1.79926139e+00  9.00000403e-01  0.00000000e+00 
 1.01232100e-07  1.80075996e+00  9.00000405e-01  0.00000000e+00 
 1.01707292e-07  1.79922868e+00  9.00000407e-01  0.00000000e+00 
 1.02437022e-07  1.80077746e+00  9.00000410e-01  0.00000000e+00 
 1.03633900e-07  1.79921945e+00  9.00000415e-01  0.00000000e+00 
 1.05578945e-07  1.80078228e+00  9.00000422e-01  0.00000000e+00 
 1.09469034e-07  1.79921691e+00  9.00000438e-01  0.00000000e+00 
 1.16053695e-07  1.80078355e+00  9.00000464e-01  0.00000000e+00 
 1.29223015e-07  1.79921622e+00  9.00000517e-01  0.00000000e+00 
 1.55561657e-07  1.80078389e+00  9.00000622e-01  0.00000000e+00 
 2.08238939e-07  1.79921605e+00  9.00000833e-01  0.00000000e+00 
 3.13593505e-07  1.80078397e+00  9.00001254e-01  0.00000000e+00 
 5.24302636e-07  1.79921601e+00  9.00002097e-01  0.00000000e+00 
 9.45720897e-07  1.80078399e+00  9.00003783e-01  0.00000000e+00 
 1.78855742e-06  1.79921600e+00  9.00007154e-01  0.00000000e+00 
 3.47423047e-06  1.80078400e+00  9.00013897e-01  0.00000000e+00 
 5.47423047e-06  1.79921600e+00  9.00021897e-01  0.00000000e+00 
 7.47423047e-06  1.80078400e+00  9.00029897e-01  0.00000000e+00 
 9.47423047e-06  1.79921600e+00  9.00037897e-01  0.00000000e+00 
 1.14742305e-05  1.80078400e+00  9.00045897e-01  0.00000000e+00 
 1.34742305e-05  1.79921599e+00  9.00053897e-01  0.00000000e+00 
 1.54742305e-05  1.80078400e+00  9.00061897e-01  0.00000000e+00 
 1.74742305e-05  1.79921599e+00  9.00069897e-01  0.00000000e+00 
 1.94742305e-05  1.80078401e+00  9.00077897e-01  0.00000000e+00 
 2.14742305e-05  1.79921599e+00  9.00085897e-01  0.00000000e+00 
 2.34742305e-05  1.80078401e+00  9.00093897e-01  0.00000000e+00 
 2.54742305e-05  1.79921598e+00  9.00101897e-01  0.00000000e+00 
 2.74742305e-05  1.80078401e+00  9.00109897e-01  0.00000000e+00 
 2.94742305e-05  1.79921598e+00  9.00117897e-01  0.00000000e+00 
 3.14742305e-05  1.80078402e+00  9.00125897e-01  0.00000000e+00 
 3.34742305e-05  1.79921598e+00  9.00133897e-01  0.00000000e+00 
 3.54742305e-05  1.80078402e+00  9.00141897e-01  0.00000000e+00 
 3.74742305e-05  1.79921597e+00  9.00149897e-01  0.00000000e+00 
 3.94742305e-05  1.80078402e+00  9.00157897e-01  0.00000000e+00 
 4.14742305e-05  1.79921597e+00  9.00165897e-01  0.00000000e+00 
 4.34742305e-05  1.80078402e+00  9.00173897e-01  0.00000000e+00 
 4.54742305e-05  1.79921597e+00  9.00181897e-01  0.00000000e+00 
 4.74742305e-05  1.80078403e+00  9.00189897e-01  0.00000000e+00 
 4.94742305e-05  1.79921597e+00  9.00197897e-01  0.00000000e+00 
 5.14742305e-05  1.80078403e+00  9.00205897e-01  0.00000000e+00 
 5.34742305e-05  1.79921596e+00  9.00213897e-01  0.00000000e+00 
 5.54742305e-05  1.80078403e+00  9.00221897e-01  0.00000000e+00 
 5.74742305e-05  1.79921596e+00  9.00229897e-01  0.00000000e+00 
 5.94742305e-05  1.80078404e+00  9.00237897e-01  0.00000000e+00 
 6.14742305e-05  1.79921596e+00  9.00245897e-01  0.00000000e+00 
 6.34742305e-05  1.80078404e+00  9.00253897e-01  0.00000000e+00 
 6.54742305e-05  1.79921595e+00  9.00261897e-01  0.00000000e+00 
 6.74742305e-05  1.80078404e+00  9.00269897e-01  0.00000000e+00 
 6.94742305e-05  1.79921595e+00  9.00277897e-01  0.00000000e+00 
 7.14742305e-05  1.80078405e+00  9.00285897e-01  0.00000000e+00 
 7.34742305e-05  1.79921595e+00  9.00293897e-01  0.00000000e+00 
 7.54742305e-05  1.80078405e+00  9.00301897e-01  0.00000000e+00 
 7.74742305e-05  1.79921594e+00  9.00309897e-01  0.00000000e+00 
 7.94742305e-05  1.80078405e+00  9.00317897e-01  0.00000000e+00 
 8.14742305e-05  1.79921594e+00  9.00325897e-01  0.00000000e+00 
 8.34742305e-05  1.80078405e+00  9.00333897e-01  0.00000000e+00 
 8.54742305e-05  1.79921594e+00  9.00341897e-01  0.00000000e+00 
 8.74742305e-05  1.80078406e+00  9.00349897e-01  0.00000000e+00 
 8.94742305e-05  1.79921594e+00  9.00357897e-01  0.00000000e+00 
 9.14742305e-05  1.80078406e+00  9.00365897e-01  0.00000000e+00 
 9.34742305e-05  1.79921593e+00  9.00373897e-01  0.00000000e+00 
 9.54742305e-05  1.80078406e+00  9.00381897e-01  0.00000000e+00 
 9.74742305e-05  1.79921593e+00  9.00389897e-01  0.00000000e+00 
 9.94742305e-05  1.80078407e+00  9.00397897e-01  0.00000000e+00 
 1.01474230e-04  1.79921593e+00  9.00405897e-01  0.00000000e+00 
 1.03474230e-04  1.80078407e+00  9.00413897e-01  0.00000000e+00 
 1.05474230e-04  1.79921592e+00  9.00421897e-01  0.00000000e+00 
 1.07474230e-04  1.80078407e+00  9.00429897e-01  0.00000000e+00 
 1.09474230e-04  1.79921592e+00  9.00437897e-01  0.00000000e+00 
 1.11474230e-04  1.80078408e+00  9.00445897e-01  0.00000000e+00 
 1.13474230e-04  1.79921592e+00  9.00453897e-01  0.00000000e+00 
 1.15474230e-04  1.80078408e+00  9.00461897e-01  0.00000000e+00 
 1.17474230e-04  1.79921591e+00  9.00469897e-01  0.00000000e+00 
 1.19474230e-04  1.80078408e+00  9.00477897e-01  0.00000000e+00 
 1.21474230e-04  1.79921591e+00  9.00485897e-01  0.00000000e+00 
 1.23474230e-04  1.80078408e+00  9.00493897e-01  0.00000000e+00 
 1.25474230e-04  1.79921591e+00  9.00501897e-01  0.00000000e+00 
 1.27474230e-04  1.80078409e+00  9.00509897e-01  0.00000000e+00 
 1.29474230e-04  1.79921590e+00  9.00517897e-01  0.00000000e+00 
 1.31474230e-04  1.80078409e+00  9.00525897e-01  0.00000000e+00 
 1.33474230e-04  1.79921590e+00  9.00533897e-01  0.00000000e+00 
 1.35474230e-04  1.80078409e+00  9.00541897e-01  0.00000000e+00 
 1.37474230e-04  1.79921590e+00  9.00549897e-01  0.00000000e+00 
 1.39474230e-04  1.80078410e+00  9.00557897e-01  0.00000000e+00 
 1.41474230e-04  1.79921589e+00  9.00565897e-01  0.00000000e+00 
 1.43474230e-04  1.80078410e+00  9.00573897e-01  0.00000000e+00 
 1.45474230e-04  1.79921589e+00  9.00581897e-01  0.00000000e+00 
 1.47474230e-04  1.80078410e+00  9.00589897e-01  0.00000000e+00 
 1.49474230e-04  1.79921589e+00  9.00597897e-01  0.00000000e+00 
 1.51474230e-04  1.80078411e+00  9.00605897e-01  0.00000000e+00 
 1.53474230e-04  1.79921589e+00  9.00613897e-01  0.00000000e+00 
 1.55474230e-04  1.80078411e+00  9.00621897e-01  0.00000000e+00 
 1.57474230e-04  1.79921588e+00  9.00629897e-01  0.00000000e+00 
 1.59474230e-04  1.80078411e+00  9.00637897e-01  0.00000000e+00 
 1.61474230e-04  1.79921588e+00  9.00645897e-01  0.00000000e+00 
 1.63474230e-04  1.80078411e+00  9.00653897e-01  0.00000000e+00 
 1.65474230e-04  1.79921588e+00  9.00661897e-01  0.00000000e+00 
 1.67474230e-04  1.80078412e+00  9.00669897e-01  0.00000000e+00 
 1.69474230e-04  1.79921587e+00  9.00677897e-01  0.00000000e+00 
 1.71474230e-04  1.80078412e+00  9.00685897e-01  0.00000000e+00 
 1.73474230e-04  1.79921587e+00  9.00693897e-01  0.00000000e+00 
 1.75474230e-04  1.80078412e+00  9.00701897e-01  0.00000000e+00 
 1.77474230e-04  1.79921587e+00  9.00709897e-01  0.00000000e+00 
 1.79474230e-04  1.80078413e+00  9.00717897e-01  0.00000000e+00 
 1.81474230e-04  1.79921586e+00  9.00725897e-01  0.00000000e+00 
 1.83474230e-04  1.80078413e+00  9.00733897e-01  0.00000000e+00 
 1.85474230e-04  1.79921586e+00  9.00741897e-01  0.00000000e+00 
 1.87474230e-04  1.80078413e+00  9.00749897e-01  0.00000000e+00 
 1.89474230e-04  1.79921586e+00  9.00757897e-01  0.00000000e+00 
 1.91474230e-04  1.80078414e+00  9.00765897e-01  0.00000000e+00 
 1.93474230e-04  1.79921585e+00  9.00773897e-01  0.00000000e+00 
 1.95474230e-04  1.80078414e+00  9.00781897e-01  0.00000000e+00 
 1.97474230e-04  1.79921585e+00  9.00789897e-01  0.00000000e+00 
 1.99474230e-04  1.80078414e+00  9.00797897e-01  0.00000000e+00 
 2.00000000e-04  1.79921584e+00  9.00800000e-01  0.00000000e+00 
 2.00061452e-04  1.79999990e+00 -9.91997542e-02  1.00000000e+00 
 2.00184357e-04  1.79999999e+00 -9.91992626e-02  1.00000000e+00 
 2.00294691e-04  1.79999989e+00 -9.91988212e-02  1.00000000e+00 
 2.00416952e-04  1.80000000e+00 -9.91983322e-02  1.00000000e+00 
 2.00661474e-04  1.79999988e+00 -9.91973541e-02  1.00000000e+00 
 2.01150518e-04  1.80000000e+00 -9.91953979e-02  1.00000000e+00 
 2.02128606e-04  1.79999988e+00 -9.91914856e-02  1.00000000e+00 
 2.04084782e-04  1.80000000e+00 -9.91836609e-02  1.00000000e+00 
 2.06084782e-04  1.79999988e+00 -9.91756609e-02  1.00000000e+00 
 2.08084782e-04  1.80000000e+00 -9.91676609e-02  1.00000000e+00 
 2.10084782e-04  1.79999988e+00 -9.91596609e-02  1.00000000e+00 
 2.12084782e-04  1.80000000e+00 -9.91516609e-02  1.00000000e+00 
 2.14084782e-04  1.79999988e+00 -9.91436609e-02  1.00000000e+00 
 2.16084782e-04  1.80000000e+00 -9.91356609e-02  1.00000000e+00 
 2.18084782e-04  1.79999988e+00 -9.91276609e-02  1.00000000e+00 
 2.20084782e-04  1.80000000e+00 -9.91196609e-02  1.00000000e+00 
 2.22084782e-04  1.79999988e+00 -9.91116609e-02  1.00000000e+00 
 2.24084782e-04  1.80000000e+00 -9.91036609e-02  1.00000000e+00 
 2.26084782e-04  1.79999988e+00 -9.90956609e-02  1.00000000e+00 
 2.28084782e-04  1.80000000e+00 -9.90876609e-02  1.00000000e+00 
 2.30084782e-04  1.79999988e+00 -9.90796609e-02  1.00000000e+00 
 2.32084782e-04  1.80000000e+00 -9.90716609e-02  1.00000000e+00 
 2.34084782e-04  1.79999988e+00 -9.90636609e-02  1.00000000e+00 
 2.36084782e-04  1.80000000e+00 -9.90556609e-02  1.00000000e+00 
 2.38084782e-04  1.79999988e+00 -9.90476609e-02  1.00000000e+00 
 2.40084782e-04  1.80000001e+00 -9.90396609e-02  1.00000000e+00 
 2.42084782e-04  1.79999988e+00 -9.90316609e-02  1.00000000e+00 
 2.44084782e-04  1.80000001e+00 -9.90236609e-02  1.00000000e+00 
 2.46084782e-04  1.79999987e+00 -9.90156609e-02  1.00000000e+00 
 2.48084782e-04  1.80000001e+00 -9.90076609e-02  1.00000000e+00 
 2.50084782e-04  1.79999987e+00 -9.89996609e-02  1.00000000e+00 
 2.52084782e-04  1.80000001e+00 -9.89916609e-02  1.00000000e+00 
 2.54084782e-04  1.79999987e+00 -9.89836609e-02  1.00000000e+00 
 2.56084782e-04  1.80000001e+00 -9.89756609e-02  1.00000000e+00 
 2.58084782e-04  1.79999987e+00 -9.89676609e-02  1.00000000e+00 
 2.60084782e-04  1.80000001e+00 -9.89596609e-02  1.00000000e+00 
 2.62084782e-04  1.79999987e+00 -9.89516609e-02  1.00000000e+00 
 2.64084782e-04  1.80000001e+00 -9.89436609e-02  1.00000000e+00 
 2.66084782e-04  1.79999987e+00 -9.89356609e-02  1.00000000e+00 
 2.68084782e-04  1.80000001e+00 -9.89276609e-02  1.00000000e+00 
 2.70084782e-04  1.79999987e+00 -9.89196609e-02  1.00000000e+00 
 2.72084782e-04  1.80000001e+00 -9.89116609e-02  1.00000000e+00 
 2.74084782e-04  1.79999987e+00 -9.89036609e-02  1.00000000e+00 
 2.76084782e-04  1.80000001e+00 -9.88956609e-02  1.00000000e+00 
 2.78084782e-04  1.79999987e+00 -9.88876609e-02  1.00000000e+00 
 2.80084782e-04  1.80000001e+00 -9.88796609e-02  1.00000000e+00 
 2.82084782e-04  1.79999987e+00 -9.88716609e-02  1.00000000e+00 
 2.84084782e-04  1.80000001e+00 -9.88636609e-02  1.00000000e+00 
 2.86084782e-04  1.79999987e+00 -9.88556609e-02  1.00000000e+00 
 2.88084782e-04  1.80000001e+00 -9.88476609e-02  1.00000000e+00 
 2.90084782e-04  1.79999987e+00 -9.88396609e-02  1.00000000e+00 
 2.92084782e-04  1.80000001e+00 -9.88316609e-02  1.00000000e+00 
 2.94084782e-04  1.79999987e+00 -9.88236609e-02  1.00000000e+00 
 2.96084782e-04  1.80000001e+00 -9.88156609e-02  1.00000000e+00 
 2.98084782e-04  1.79999987e+00 -9.88076609e-02  1.00000000e+00 
 3.00084782e-04  1.80000001e+00 -9.87996609e-02  1.00000000e+00 
 3.02084782e-04  1.79999987e+00 -9.87916609e-02  1.00000000e+00 
 3.04084782e-04  1.80000001e+00 -9.87836609e-02  1.00000000e+00 
 3.06084782e-04  1.79999987e+00 -9.87756609e-02  1.00000000e+00 
 3.08084782e-04  1.80000001e+00 -9.87676609e-02  1.00000000e+00 
 3.10084782e-04  1.79999987e+00 -9.87596609e-02  1.00000000e+00 
 3.12084782e-04  1.80000001e+00 -9.87516609e-02  1.00000000e+00 
 3.14084782e-04  1.79999987e+00 -9.87436609e-02  1.00000000e+00 
 3.16084782e-04  1.80000001e+00 -9.87356609e-02  1.00000000e+00 
 3.18084782e-04  1.79999987e+00 -9.87276609e-02  1.00000000e+00 
 3.20084782e-04  1.80000002e+00 -9.87196609e-02  1.00000000e+00 
 3.22084782e-04  1.79999986e+00 -9.87116609e-02  1.00000000e+00 
 3.24084782e-04  1.80000002e+00 -9.87036609e-02  1.00000000e+00 
 3.26084782e-04  1.79999986e+00 -9.86956609e-02  1.00000000e+00 
 3.28084782e-04  1.80000002e+00 -9.86876609e-02  1.00000000e+00 
 3.30084782e-04  1.79999986e+00 -9.86796609e-02  1.00000000e+00 
 3.32084782e-04  1.80000002e+00 -9.86716609e-02  1.00000000e+00 
 3.34084782e-04  1.79999986e+00 -9.86636609e-02  1.00000000e+00 
 3.36084782e-04  1.80000002e+00 -9.86556609e-02  1.00000000e+00 
 3.38084782e-04  1.79999986e+00 -9.86476609e-02  1.00000000e+00 
 3.40084782e-04  1.80000002e+00 -9.86396609e-02  1.00000000e+00 
 3.42084782e-04  1.79999986e+00 -9.86316609e-02  1.00000000e+00 
 3.44084782e-04  1.80000002e+00 -9.86236609e-02  1.00000000e+00 
 3.46084782e-04  1.79999986e+00 -9.86156609e-02  1.00000000e+00 
 3.48084782e-04  1.80000002e+00 -9.86076609e-02  1.00000000e+00 
 3.50084782e-04  1.79999986e+00 -9.85996609e-02  1.00000000e+00 
 3.52084782e-04  1.80000002e+00 -9.85916609e-02  1.00000000e+00 
 3.54084782e-04  1.79999986e+00 -9.85836609e-02  1.00000000e+00 
 3.56084782e-04  1.80000002e+00 -9.85756609e-02  1.00000000e+00 
 3.58084782e-04  1.79999986e+00 -9.85676609e-02  1.00000000e+00 
 3.60084782e-04  1.80000002e+00 -9.85596609e-02  1.00000000e+00 
 3.62084782e-04  1.79999986e+00 -9.85516609e-02  1.00000000e+00 
 3.64084782e-04  1.80000002e+00 -9.85436609e-02  1.00000000e+00 
 3.66084782e-04  1.79999986e+00 -9.85356609e-02  1.00000000e+00 
 3.68084782e-04  1.80000002e+00 -9.85276609e-02  1.00000000e+00 
 3.70084782e-04  1.79999986e+00 -9.85196609e-02  1.00000000e+00 
 3.72084782e-04  1.80000002e+00 -9.85116609e-02  1.00000000e+00 
 3.74084782e-04  1.79999986e+00 -9.85036609e-02  1.00000000e+00 
 3.76084782e-04  1.80000002e+00 -9.84956609e-02  1.00000000e+00 
 3.78084782e-04  1.79999986e+00 -9.84876609e-02  1.00000000e+00 
 3.80084782e-04  1.80000002e+00 -9.84796609e-02  1.00000000e+00 
 3.82084782e-04  1.79999986e+00 -9.84716609e-02  1.00000000e+00 
 3.84084782e-04  1.80000002e+00 -9.84636609e-02  1.00000000e+00 
 3.86084782e-04  1.79999986e+00 -9.84556609e-02  1.00000000e+00 
 3.88084782e-04  1.80000002e+00 -9.84476609e-02  1.00000000e+00 
 3.90084782e-04  1.79999986e+00 -9.84396609e-02  1.00000000e+00 
 3.92084782e-04  1.80000002e+00 -9.84316609e-02  1.00000000e+00 
 3.94084782e-04  1.79999986e+00 -9.84236609e-02  1.00000000e+00 
 3.96084782e-04  1.80000002e+00 -9.84156609e-02  1.00000000e+00 
 3.98084782e-04  1.79999985e+00 -9.84076609e-02  1.00000000e+00 
 4.00084782e-04  1.80000003e+00 -9.83996609e-02  1.00000000e+00 
 4.02084782e-04  1.79999985e+00 -9.83916609e-02  1.00000000e+00 
 4.04084782e-04  1.80000003e+00 -9.83836609e-02  1.00000000e+00 
 4.06084782e-04  1.79999985e+00 -9.83756609e-02  1.00000000e+00 
 4.08084782e-04  1.80000003e+00 -9.83676609e-02  1.00000000e+00 
 4.10084782e-04  1.79999985e+00 -9.83596609e-02  1.00000000e+00 
 4.12084782e-04  1.80000003e+00 -9.83516609e-02  1.00000000e+00 
 4.14084782e-04  1.79999985e+00 -9.83436609e-02  1.00000000e+00 
 4.16084782e-04  1.80000003e+00 -9.83356609e-02  1.00000000e+00 
 4.18084782e-04  1.79999985e+00 -9.83276609e-02  1.00000000e+00 
 4.20084782e-04  1.80000003e+00 -9.83196609e-02  1.00000000e+00 
 4.22084782e-04  1.79999985e+00 -9.83116609e-02  1.00000000e+00 
 4.24084782e-04  1.80000003e+00 -9.83036609e-02  1.00000000e+00 
 4.26084782e-04  1.79999985e+00 -9.82956609e-02  1.00000000e+00 
 4.28084782e-04  1.80000003e+00 -9.82876609e-02  1.00000000e+00 
 4.30084782e-04  1.79999985e+00 -9.82796609e-02  1.00000000e+00 
 4.32084782e-04  1.80000003e+00 -9.82716609e-02  1.00000000e+00 
 4.34084782e-04  1.79999985e+00 -9.82636609e-02  1.00000000e+00 
 4.36084782e-04  1.80000003e+00 -9.82556609e-02  1.00000000e+00 
 4.38084782e-04  1.79999985e+00 -9.82476609e-02  1.00000000e+00 
 4.40084782e-04  1.80000003e+00 -9.82396609e-02  1.00000000e+00 
 4.42084782e-04  1.79999985e+00 -9.82316609e-02  1.00000000e+00 
 4.44084782e-04  1.80000003e+00 -9.82236609e-02  1.00000000e+00 
 4.46084782e-04  1.79999985e+00 -9.82156609e-02  1.00000000e+00 
 4.48084782e-04  1.80000003e+00 -9.82076609e-02  1.00000000e+00 
 4.50084782e-04  1.79999985e+00 -9.81996609e-02  1.00000000e+00 
 4.52084782e-04  1.80000003e+00 -9.81916609e-02  1.00000000e+00 
 4.54084782e-04  1.79999985e+00 -9.81836609e-02  1.00000000e+00 
 4.56084782e-04  1.80000003e+00 -9.81756609e-02  1.00000000e+00 
 4.58084782e-04  1.79999985e+00 -9.81676609e-02  1.00000000e+00 
 4.60084782e-04  1.80000003e+00 -9.81596609e-02  1.00000000e+00 
 4.62084782e-04  1.79999985e+00 -9.81516609e-02  1.00000000e+00 
 4.64084782e-04  1.80000003e+00 -9.81436609e-02  1.00000000e+00 
 4.66084782e-04  1.79999985e+00 -9.81356609e-02  1.00000000e+00 
 4.68084782e-04  1.80000003e+00 -9.81276609e-02  1.00000000e+00 
 4.70084782e-04  1.79999985e+00 -9.81196609e-02  1.00000000e+00 
 4.72084782e-04  1.80000003e+00 -9.81116609e-02  1.00000000e+00 
 4.74084782e-04  1.79999985e+00 -9.81036609e-02  1.00000000e+00 
 4.76084782e-04  1.80000003e+00 -9.80956609e-02  1.00000000e+00 
 4.78084782e-04  1.79999984e+00 -9.80876609e-02  1.00000000e+00 
 4.80084782e-04  1.80000004e+00 -9.80796609e-02  1.00000000e+00 
 4.82084782e-04  1.79999984e+00 -9.80716609e-02  1.00000000e+00 
 4.84084782e-04  1.80000004e+00 -9.80636609e-02  1.00000000e+00 
 4.86084782e-04  1.79999984e+00 -9.80556609e-02  1.00000000e+00 
 4.88084782e-04  1.80000004e+00 -9.80476609e-02  1.00000000e+00 
 4.90084782e-04  1.79999984e+00 -9.80396609e-02  1.00000000e+00 
 4.92084782e-04  1.80000004e+00 -9.80316609e-02  1.00000000e+00 
 4.94084782e-04  1.79999984e+00 -9.80236609e-02  1.00000000e+00 
 4.96084782e-04  1.80000004e+00 -9.80156609e-02  1.00000000e+00 
 4.98084782e-04  1.79999984e+00 -9.80076609e-02  1.00000000e+00 
 5.00084782e-04  1.80000004e+00 -9.79996609e-02  1.00000000e+00 
 5.00100100e-04  1.79999981e+00 -9.79995996e-02  1.00000000e+00 
 5.00100110e-04  1.79997786e+00 -9.79995996e-02  1.00000000e+00 
 5.00100130e-04  1.79999506e+00 -9.79995995e-02  1.00000000e+00 
 5.00100170e-04  1.79999459e+00 -9.79995993e-02  1.00000000e+00 
 5.00100200e-04  1.80015281e+00 -9.79995992e-02  1.00000000e+00 
 5.00100208e-04  1.80017208e+00 -9.79995992e-02  1.00000000e+00 
 5.00100224e-04  1.80010445e+00 -9.79995991e-02  1.00000000e+00 
 5.00100256e-04  1.80003785e+00 -9.79995990e-02  1.00000000e+00 
 5.00100320e-04  1.79322343e+00 -9.79995987e-02  1.00000000e+00 
 5.00100405e-04  1.80264194e+00 -9.79995984e-02  1.00000000e+00 
 5.00100482e-04  1.79484505e+00 -9.79995981e-02  1.00000000e+00 
 5.00100635e-04  1.80379211e+00 -9.79995975e-02  1.00000000e+00 
 5.00100829e-04  1.79634124e+00 -9.79995967e-02  1.00000000e+00 
 5.00101215e-04  1.80339982e+00 -9.79995951e-02  1.00000000e+00 
