 time            v(Q)            v(A)-v(B)       v(B)           
 0.00000000e+00  2.67657749e-09  8.00000000e-01  0.00000000e+00 
 1.00000000e-09  2.67657754e-09  8.00000004e-01  0.00000000e+00 
 2.00000000e-09  2.67657753e-09  8.00000008e-01  0.00000000e+00 
 4.00000000e-09  2.67657754e-09  8.00000016e-01  0.00000000e+00 
 8.00000000e-09  2.67657748e-09  8.00000032e-01  0.00000000e+00 
 1.60000000e-08  2.67657750e-09  8.00000064e-01  0.00000000e+00 
 3.20000000e-08  2.67657754e-09  8.00000128e-01  0.00000000e+00 
 6.40000000e-08  2.67657753e-09  8.00000256e-01  0.00000000e+00 
 1.00000000e-07  2.67657754e-09  8.00000400e-01  0.00000000e+00 
 1.00010000e-07  1.12646458e-05  8.00000400e-01  0.00000000e+00 
 1.00030000e-07 -4.82702920e-06  8.00000400e-01  0.00000000e+00 
 1.00070000e-07 -8.32224917e-06  8.00000400e-01  0.00000000e+00 
 1.00100000e-07 -1.19628056e-05  8.00000400e-01  0.00000000e+00 
 1.00107629e-07  1.49316005e-05  8.00000400e-01  0.00000000e+00 
 1.00122888e-07  2.04803915e-05  8.00000400e-01  0.00000000e+00 
 1.00153405e-07 -2.29638728e-05  8.00000401e-01  0.00000000e+00 
 1.00214439e-07  9.29967879e-06  8.00000401e-01  0.00000000e+00 
 1.00291793e-07  1.52946673e-03  8.00000401e-01  0.00000000e+00 
 1.00391470e-07  2.12221666e-01  8.00000402e-01  0.00000000e+00 
 1.00498095e-07  1.35215002e+00  8.00000402e-01  0.00000000e+00 
 1.00619662e-07  1.79538512e+00  8.00000402e-01  0.00000000e+00 
 1.00780462e-07  1.79637239e+00  8.00000403e-01  0.00000000e+00 
 1.00992392e-07  1.79901146e+00  8.00000404e-01  0.00000000e+00 
 1.01211565e-07  1.79279028e+00  8.00000405e-01  0.00000000e+00 
 1.01644718e-07  1.80933765e+00  8.00000407e-01  0.00000000e+00 
 1.02155616e-07  1.79014194e+00  8.00000409e-01  0.00000000e+00 
 1.03177412e-07  1.81050643e+00  8.00000413e-01  0.00000000e+00 
 1.04784541e-07  1.78967475e+00  8.00000419e-01  0.00000000e+00 
 1.07998798e-07  1.81072764e+00  8.00000432e-01  0.00000000e+00 
 1.14189123e-07  1.78956975e+00  8.00000457e-01  0.00000000e+00 
 1.26248329e-07  1.81077689e+00  8.00000505e-01  0.00000000e+00 
 1.49904220e-07  1.78954405e+00  8.00000600e-01  0.00000000e+00 
 1.97216004e-07  1.81078909e+00  8.00000789e-01  0.00000000e+00 
 2.91839572e-07  1.78953767e+00  8.00001167e-01  0.00000000e+00 
 4.81086706e-07  1.81079209e+00  8.00001924e-01  0.00000000e+00 
 8.59580976e-07  1.78953608e+00  8.00003438e-01  0.00000000e+00 
 1.61656952e-06  1.81079283e+00  8.00006466e-01  0.00000000e+00 
 3.13054659e-06  1.78953569e+00  8.00012522e-01  0.00000000e+00 
 5.13054659e-06  1.81079305e+00  8.00020522e-01  0.00000000e+00 
 7.13054659e-06  1.78952546e+00  8.00028522e-01  0.00000000e+00 
 9.13054659e-06  1.81079324e+00  8.00036522e-01  0.00000000e+00 
 1.11305466e-05  1.78952527e+00  8.00044522e-01  0.00000000e+00 
 1.31305466e-05  1.81079342e+00  8.00052522e-01  0.00000000e+00 
 1.51305466e-05  1.78952507e+00  8.00060522e-01  0.00000000e+00 
 1.71305466e-05  1.81079361e+00  8.00068522e-01  0.00000000e+00 
 1.91305466e-05  1.78952488e+00  8.00076522e-01  0.00000000e+00 
 2.11305466e-05  1.81079380e+00  8.00084522e-01  0.00000000e+00 
 2.31305466e-05  1.78952468e+00  8.00092522e-01  0.00000000e+00 
 2.51305466e-05  1.81079399e+00  8.00100522e-01  0.00000000e+00 
 2.71305466e-05  1.78952449e+00  8.00108522e-01  0.00000000e+00 
 2.91305466e-05  1.81079417e+00  8.00116522e-01  0.00000000e+00 
 3.11305466e-05  1.78952429e+00  8.00124522e-01  0.00000000e+00 
 3.31305466e-05  1.81079436e+00  8.00132522e-01  0.00000000e+00 
 3.51305466e-05  1.78952410e+00  8.00140522e-01  0.00000000e+00 
 3.71305466e-05  1.81079455e+00  8.00148522e-01  0.00000000e+00 
 3.91305466e-05  1.78952390e+00  8.00156522e-01  0.00000000e+00 
 4.11305466e-05  1.81079473e+00  8.00164522e-01  0.00000000e+00 
 4.31305466e-05  1.78952370e+00  8.00172522e-01  0.00000000e+00 
 4.51305466e-05  1.81079492e+00  8.00180522e-01  0.00000000e+00 
 4.71305466e-05  1.78952351e+00  8.00188522e-01  0.00000000e+00 
 4.91305466e-05  1.81079511e+00  8.00196522e-01  0.00000000e+00 
 5.11305466e-05  1.78952331e+00  8.00204522e-01  0.00000000e+00 
 5.31305466e-05  1.81079529e+00  8.00212522e-01  0.00000000e+00 
 5.51305466e-05  1.78952312e+00  8.00220522e-01  0.00000000e+00 
 5.71305466e-05  1.81079548e+00  8.00228522e-01  0.00000000e+00 
 5.91305466e-05  1.78952292e+00  8.00236522e-01  0.00000000e+00 
 6.11305466e-05  1.81079567e+00  8.00244522e-01  0.00000000e+00 
 6.31305466e-05  1.78952273e+00  8.00252522e-01  0.00000000e+00 
 6.51305466e-05  1.81079585e+00  8.00260522e-01  0.00000000e+00 
 6.71305466e-05  1.78952253e+00  8.00268522e-01  0.00000000e+00 
 6.91305466e-05  1.81079604e+00  8.00276522e-01  0.00000000e+00 
 7.11305466e-05  1.78952234e+00  8.00284522e-01  0.00000000e+00 
 7.31305466e-05  1.81079623e+00  8.00292522e-01  0.00000000e+00 
 7.51305466e-05  1.78952214e+00  8.00300522e-01  0.00000000e+00 
 7.71305466e-05  1.81079641e+00  8.00308522e-01  0.00000000e+00 
 7.91305466e-05  1.78952195e+00  8.00316522e-01  0.00000000e+00 
 8.11305466e-05  1.81079660e+00  8.00324522e-01  0.00000000e+00 
 8.31305466e-05  1.78952175e+00  8.00332522e-01  0.00000000e+00 
 8.51305466e-05  1.81079678e+00  8.00340522e-01  0.00000000e+00 
 8.71305466e-05  1.78952156e+00  8.00348522e-01  0.00000000e+00 
 8.91305466e-05  1.81079697e+00  8.00356522e-01  0.00000000e+00 
 9.11305466e-05  1.78952136e+00  8.00364522e-01  0.00000000e+00 
 9.31305466e-05  1.81079716e+00  8.00372522e-01  0.00000000e+00 
 9.51305466e-05  1.78952117e+00  8.00380522e-01  0.00000000e+00 
 9.71305466e-05  1.81079734e+00  8.00388522e-01  0.00000000e+00 
 9.91305466e-05  1.78952097e+00  8.00396522e-01  0.00000000e+00 
 1.01130547e-04  1.81079753e+00  8.00404522e-01  0.00000000e+00 
 1.03130547e-04  1.78952078e+00  8.00412522e-01  0.00000000e+00 
 1.05130547e-04  1.81079771e+00  8.00420522e-01  0.00000000e+00 
 1.07130547e-04  1.78952058e+00  8.00428522e-01  0.00000000e+00 
 1.09130547e-04  1.81079790e+00  8.00436522e-01  0.00000000e+00 
 1.11130547e-04  1.78952039e+00  8.00444522e-01  0.00000000e+00 
 1.13130547e-04  1.81079809e+00  8.00452522e-01  0.00000000e+00 
 1.15130547e-04  1.78952019e+00  8.00460522e-01  0.00000000e+00 
 1.17130547e-04  1.81079827e+00  8.00468522e-01  0.00000000e+00 
 1.19130547e-04  1.78952000e+00  8.00476522e-01  0.00000000e+00 
 1.21130547e-04  1.81079846e+00  8.00484522e-01  0.00000000e+00 
 1.23130547e-04  1.78951980e+00  8.00492522e-01  0.00000000e+00 
 1.25130547e-04  1.81079864e+00  8.00500522e-01  0.00000000e+00 
 1.27130547e-04  1.78951961e+00  8.00508522e-01  0.00000000e+00 
 1.29130547e-04  1.81079883e+00  8.00516522e-01  0.00000000e+00 
 1.31130547e-04  1.78951941e+00  8.00524522e-01  0.00000000e+00 
 1.33130547e-04  1.81079901e+00  8.00532522e-01  0.00000000e+00 
 1.35130547e-04  1.78951922e+00  8.00540522e-01  0.00000000e+00 
 1.37130547e-04  1.81079920e+00  8.00548522e-01  0.00000000e+00 
 1.39130547e-04  1.78951903e+00  8.00556522e-01  0.00000000e+00 
 1.41130547e-04  1.81079938e+00  8.00564522e-01  0.00000000e+00 
 1.43130547e-04  1.78951883e+00  8.00572522e-01  0.00000000e+00 
 1.45130547e-04  1.81079957e+00  8.00580522e-01  0.00000000e+00 
 1.47130547e-04  1.78951864e+00  8.00588522e-01  0.00000000e+00 
 1.49130547e-04  1.81079975e+00  8.00596522e-01  0.00000000e+00 
 1.51130547e-04  1.78951844e+00  8.00604522e-01  0.00000000e+00 
 1.53130547e-04  1.81079994e+00  8.00612522e-01  0.00000000e+00 
 1.55130547e-04  1.78951825e+00  8.00620522e-01  0.00000000e+00 
 1.57130547e-04  1.81080013e+00  8.00628522e-01  0.00000000e+00 
 1.59130547e-04  1.78951806e+00  8.00636522e-01  0.00000000e+00 
 1.61130547e-04  1.81080031e+00  8.00644522e-01  0.00000000e+00 
 1.63130547e-04  1.78951786e+00  8.00652522e-01  0.00000000e+00 
 1.65130547e-04  1.81080049e+00  8.00660522e-01  0.00000000e+00 
 1.67130547e-04  1.78951767e+00  8.00668522e-01  0.00000000e+00 
 1.69130547e-04  1.81080068e+00  8.00676522e-01  0.00000000e+00 
 1.71130547e-04  1.78951747e+00  8.00684522e-01  0.00000000e+00 
 1.73130547e-04  1.81080086e+00  8.00692522e-01  0.00000000e+00 
 1.75130547e-04  1.78951728e+00  8.00700522e-01  0.00000000e+00 
 1.77130547e-04  1.81080105e+00  8.00708522e-01  0.00000000e+00 
 1.79130547e-04  1.78951709e+00  8.00716522e-01  0.00000000e+00 
 1.81130547e-04  1.81080123e+00  8.00724522e-01  0.00000000e+00 
 1.83130547e-04  1.78951689e+00  8.00732522e-01  0.00000000e+00 
 1.85130547e-04  1.81080142e+00  8.00740522e-01  0.00000000e+00 
 1.87130547e-04  1.78951670e+00  8.00748522e-01  0.00000000e+00 
 1.89130547e-04  1.81080160e+00  8.00756522e-01  0.00000000e+00 
 1.91130547e-04  1.78951651e+00  8.00764522e-01  0.00000000e+00 
 1.93130547e-04  1.81080179e+00  8.00772522e-01  0.00000000e+00 
 1.95130547e-04  1.78951631e+00  8.00780522e-01  0.00000000e+00 
 1.97130547e-04  1.81080197e+00  8.00788522e-01  0.00000000e+00 
 1.99130547e-04  1.78951612e+00  8.00796522e-01  0.00000000e+00 
 2.00000000e-04  1.81080413e+00  8.00800000e-01  0.00000000e+00 
 2.00077851e-04  1.14389244e-04 -9.91996886e-02  9.00000000e-01 
 2.00233552e-04 -8.72235286e-05 -9.91990658e-02  9.00000000e-01 
 2.00358414e-04  8.72538422e-05 -9.91985663e-02  9.00000000e-01 
 2.00502683e-04 -8.71935382e-05 -9.91979893e-02  9.00000000e-01 
 2.00791221e-04  8.72323406e-05 -9.91968351e-02  9.00000000e-01 
 2.01368297e-04 -8.71828571e-05 -9.91945268e-02  9.00000000e-01 
 2.02522450e-04  8.72269692e-05 -9.91899102e-02  9.00000000e-01 
 2.04522450e-04 -8.71800468e-05 -9.91819102e-02  9.00000000e-01 
 2.06522450e-04  8.72249045e-05 -9.91739102e-02  9.00000000e-01 
 2.08522450e-04 -8.71779843e-05 -9.91659102e-02  9.00000000e-01 
 2.10522450e-04  8.72228386e-05 -9.91579102e-02  9.00000000e-01 
 2.12522450e-04 -8.71759220e-05 -9.91499102e-02  9.00000000e-01 
 2.14522450e-04  8.72207728e-05 -9.91419102e-02  9.00000000e-01 
 2.16522450e-04 -8.71738595e-05 -9.91339102e-02  9.00000000e-01 
 2.18522450e-04  8.72187070e-05 -9.91259102e-02  9.00000000e-01 
 2.20522450e-04 -8.71717970e-05 -9.91179102e-02  9.00000000e-01 
 2.22522450e-04  8.72166413e-05 -9.91099102e-02  9.00000000e-01 
 2.24522450e-04 -8.71697346e-05 -9.91019102e-02  9.00000000e-01 
 2.26522450e-04  8.72145756e-05 -9.90939102e-02  9.00000000e-01 
 2.28522450e-04 -8.71676722e-05 -9.90859102e-02  9.00000000e-01 
 2.30522450e-04  8.72125099e-05 -9.90779102e-02  9.00000000e-01 
 2.32522450e-04 -8.71656101e-05 -9.90699102e-02  9.00000000e-01 
 2.34522450e-04  8.72104438e-05 -9.90619102e-02  9.00000000e-01 
 2.36522450e-04 -8.71635502e-05 -9.90539102e-02  9.00000000e-01 
 2.38522450e-04  8.72083858e-05 -9.90459102e-02  9.00000000e-01 
 2.40522450e-04 -8.71614942e-05 -9.90379102e-02  9.00000000e-01 
 2.42522450e-04  8.72063186e-05 -9.90299102e-02  9.00000000e-01 
 2.44522450e-04 -8.71594333e-05 -9.90219102e-02  9.00000000e-01 
 2.46522450e-04  8.72042524e-05 -9.90139102e-02  9.00000000e-01 
 2.48522450e-04 -8.71573725e-05 -9.90059102e-02  9.00000000e-01 
 2.50522450e-04  8.72021863e-05 -9.89979102e-02  9.00000000e-01 
 2.52522450e-04 -8.71553118e-05 -9.89899102e-02  9.00000000e-01 
 2.54522450e-04  8.72001201e-05 -9.89819102e-02  9.00000000e-01 
 2.56522450e-04 -8.71532515e-05 -9.89739102e-02  9.00000000e-01 
 2.58522450e-04  8.71980538e-05 -9.89659102e-02  9.00000000e-01 
 2.60522450e-04 -8.71511914e-05 -9.89579102e-02  9.00000000e-01 
 2.62522450e-04  8.71959876e-05 -9.89499102e-02  9.00000000e-01 
 2.64522450e-04 -8.71491313e-05 -9.89419102e-02  9.00000000e-01 
 2.66522450e-04  8.71939221e-05 -9.89339102e-02  9.00000000e-01 
 2.68522450e-04 -8.71470702e-05 -9.89259102e-02  9.00000000e-01 
 2.70522450e-04  8.71918586e-05 -9.89179102e-02  9.00000000e-01 
 2.72522450e-04 -8.71450057e-05 -9.89099102e-02  9.00000000e-01 
 2.74522450e-04  8.71898014e-05 -9.89019102e-02  9.00000000e-01 
 2.76522450e-04 -8.71429313e-05 -9.88939102e-02  9.00000000e-01 
 2.78522450e-04  8.71877606e-05 -9.88859102e-02  9.00000000e-01 
 2.80522450e-04 -8.71408313e-05 -9.88779102e-02  9.00000000e-01 
 2.82522450e-04  8.71857599e-05 -9.88699102e-02  9.00000000e-01 
 2.84522450e-04 -8.71386713e-05 -9.88619102e-02  9.00000000e-01 
 2.86522450e-04  8.71838467e-05 -9.88539102e-02  9.00000000e-01 
 2.88522450e-04 -8.71363900e-05 -9.88459102e-02  9.00000000e-01 
 2.90522450e-04  8.71820915e-05 -9.88379102e-02  9.00000000e-01 
 2.92522450e-04 -8.71339208e-05 -9.88299102e-02  9.00000000e-01 
 2.94522450e-04  8.71805329e-05 -9.88219102e-02  9.00000000e-01 
 2.96522450e-04 -8.71312825e-05 -9.88139102e-02  9.00000000e-01 
 2.98522450e-04  8.71790756e-05 -9.88059102e-02  9.00000000e-01 
 3.00522450e-04 -8.71286393e-05 -9.87979102e-02  9.00000000e-01 
 3.02522450e-04  8.71775272e-05 -9.87899102e-02  9.00000000e-01 
 3.04522450e-04 -8.71261567e-05 -9.87819102e-02  9.00000000e-01 
 3.06522450e-04  8.71757897e-05 -9.87739102e-02  9.00000000e-01 
 3.08522450e-04 -8.71238580e-05 -9.87659102e-02  9.00000000e-01 
 3.10522450e-04  8.71738958e-05 -9.87579102e-02  9.00000000e-01 
 3.12522450e-04 -8.71216820e-05 -9.87499102e-02  9.00000000e-01 
 3.14522450e-04  8.71719118e-05 -9.87419102e-02  9.00000000e-01 
 3.16522450e-04 -8.71195700e-05 -9.87339102e-02  9.00000000e-01 
 3.18522450e-04  8.71698841e-05 -9.87259102e-02  9.00000000e-01 
 3.20522450e-04 -8.71174877e-05 -9.87179102e-02  9.00000000e-01 
 3.22522450e-04  8.71678366e-05 -9.87099102e-02  9.00000000e-01 
 3.24522450e-04 -8.71154186e-05 -9.87019102e-02  9.00000000e-01 
 3.26522450e-04  8.71657807e-05 -9.86939102e-02  9.00000000e-01 
 3.28522450e-04 -8.71133553e-05 -9.86859102e-02  9.00000000e-01 
 3.30522450e-04  8.71637211e-05 -9.86779102e-02  9.00000000e-01 
 3.32522450e-04 -8.71112944e-05 -9.86699102e-02  9.00000000e-01 
 3.34522450e-04  8.71616600e-05 -9.86619102e-02  9.00000000e-01 
 3.36522450e-04 -8.71092346e-05 -9.86539102e-02  9.00000000e-01 
 3.38522450e-04  8.71595984e-05 -9.86459102e-02  9.00000000e-01 
 3.40522450e-04 -8.71071753e-05 -9.86379102e-02  9.00000000e-01 
 3.42522450e-04  8.71575365e-05 -9.86299102e-02  9.00000000e-01 
 3.44522450e-04 -8.71051163e-05 -9.86219102e-02  9.00000000e-01 
 3.46522450e-04  8.71554746e-05 -9.86139102e-02  9.00000000e-01 
 3.48522450e-04 -8.71030574e-05 -9.86059102e-02  9.00000000e-01 
 3.50522450e-04  8.71534127e-05 -9.85979102e-02  9.00000000e-01 
 3.52522450e-04 -8.71009986e-05 -9.85899102e-02  9.00000000e-01 
 3.54522450e-04  8.71513508e-05 -9.85819102e-02  9.00000000e-01 
 3.56522450e-04 -8.70989399e-05 -9.85739102e-02  9.00000000e-01 
 3.58522450e-04  8.71492890e-05 -9.85659102e-02  9.00000000e-01 
 3.60522450e-04 -8.70968813e-05 -9.85579102e-02  9.00000000e-01 
 3.62522450e-04  8.71472273e-05 -9.85499102e-02  9.00000000e-01 
 3.64522450e-04 -8.70948228e-05 -9.85419102e-02  9.00000000e-01 
 3.66522450e-04  8.71451656e-05 -9.85339102e-02  9.00000000e-01 
 3.68522450e-04 -8.70927643e-05 -9.85259102e-02  9.00000000e-01 
 3.70522450e-04  8.71431041e-05 -9.85179102e-02  9.00000000e-01 
 3.72522450e-04 -8.70907060e-05 -9.85099102e-02  9.00000000e-01 
 3.74522450e-04  8.71410426e-05 -9.85019102e-02  9.00000000e-01 
 3.76522450e-04 -8.70886476e-05 -9.84939102e-02  9.00000000e-01 
 3.78522450e-04  8.71389811e-05 -9.84859102e-02  9.00000000e-01 
 3.80522450e-04 -8.70865894e-05 -9.84779102e-02  9.00000000e-01 
 3.82522450e-04  8.71369198e-05 -9.84699102e-02  9.00000000e-01 
 3.84522450e-04 -8.70845312e-05 -9.84619102e-02  9.00000000e-01 
 3.86522450e-04  8.71348585e-05 -9.84539102e-02  9.00000000e-01 
 3.88522450e-04 -8.70824731e-05 -9.84459102e-02  9.00000000e-01 
 3.90522450e-04  8.71327972e-05 -9.84379102e-02  9.00000000e-01 
 3.92522450e-04 -8.70804151e-05 -9.84299102e-02  9.00000000e-01 
 3.94522450e-04  8.71307361e-05 -9.84219102e-02  9.00000000e-01 
 3.96522450e-04 -8.70783572e-05 -9.84139102e-02  9.00000000e-01 
 3.98522450e-04  8.71286750e-05 -9.84059102e-02  9.00000000e-01 
 4.00522450e-04 -8.70762993e-05 -9.83979102e-02  9.00000000e-01 
 4.02522450e-04  8.71266140e-05 -9.83899102e-02  9.00000000e-01 
 4.04522450e-04 -8.70742415e-05 -9.83819102e-02  9.00000000e-01 
 4.06522450e-04  8.71245531e-05 -9.83739102e-02  9.00000000e-01 
 4.08522450e-04 -8.70721837e-05 -9.83659102e-02  9.00000000e-01 
 4.10522450e-04  8.71224922e-05 -9.83579102e-02  9.00000000e-01 
 4.12522450e-04 -8.70701261e-05 -9.83499102e-02  9.00000000e-01 
 4.14522450e-04  8.71204314e-05 -9.83419102e-02  9.00000000e-01 
 4.16522450e-04 -8.70680685e-05 -9.83339102e-02  9.00000000e-01 
 4.18522450e-04  8.71183707e-05 -9.83259102e-02  9.00000000e-01 
 4.20522450e-04 -8.70660109e-05 -9.83179102e-02  9.00000000e-01 
 4.22522450e-04  8.71163101e-05 -9.83099102e-02  9.00000000e-01 
 4.24522450e-04 -8.70639535e-05 -9.83019102e-02  9.00000000e-01 
 4.26522450e-04  8.71142495e-05 -9.82939102e-02  9.00000000e-01 
 4.28522450e-04 -8.70618961e-05 -9.82859102e-02  9.00000000e-01 
 4.30522450e-04  8.71121890e-05 -9.82779102e-02  9.00000000e-01 
 4.32522450e-04 -8.70598388e-05 -9.82699102e-02  9.00000000e-01 
 4.34522450e-04  8.71101286e-05 -9.82619102e-02  9.00000000e-01 
 4.36522450e-04 -8.70577816e-05 -9.82539102e-02  9.00000000e-01 
 4.38522450e-04  8.71080682e-05 -9.82459102e-02  9.00000000e-01 
 4.40522450e-04 -8.70557244e-05 -9.82379102e-02  9.00000000e-01 
 4.42522450e-04  8.71060079e-05 -9.82299102e-02  9.00000000e-01 
 4.44522450e-04 -8.70536673e-05 -9.82219102e-02  9.00000000e-01 
 4.46522450e-04  8.71039477e-05 -9.82139102e-02  9.00000000e-01 
 4.48522450e-04 -8.70516103e-05 -9.82059102e-02  9.00000000e-01 
 4.50522450e-04  8.71018876e-05 -9.81979102e-02  9.00000000e-01 
 4.52522450e-04 -8.70495534e-05 -9.81899102e-02  9.00000000e-01 
 4.54522450e-04  8.70998275e-05 -9.81819102e-02  9.00000000e-01 
 4.56522450e-04 -8.70474965e-05 -9.81739102e-02  9.00000000e-01 
 4.58522450e-04  8.70977675e-05 -9.81659102e-02  9.00000000e-01 
 4.60522450e-04 -8.70454397e-05 -9.81579102e-02  9.00000000e-01 
 4.62522450e-04  8.70957076e-05 -9.81499102e-02  9.00000000e-01 
 4.64522450e-04 -8.70433829e-05 -9.81419102e-02  9.00000000e-01 
 4.66522450e-04  8.70936478e-05 -9.81339102e-02  9.00000000e-01 
 4.68522450e-04 -8.70413263e-05 -9.81259102e-02  9.00000000e-01 
 4.70522450e-04  8.70915880e-05 -9.81179102e-02  9.00000000e-01 
 4.72522450e-04 -8.70392697e-05 -9.81099102e-02  9.00000000e-01 
 4.74522450e-04  8.70895283e-05 -9.81019102e-02  9.00000000e-01 
 4.76522450e-04 -8.70372132e-05 -9.80939102e-02  9.00000000e-01 
 4.78522450e-04  8.70874686e-05 -9.80859102e-02  9.00000000e-01 
 4.80522450e-04 -8.70351567e-05 -9.80779102e-02  9.00000000e-01 
 4.82522450e-04  8.70854091e-05 -9.80699102e-02  9.00000000e-01 
 4.84522450e-04 -8.70331004e-05 -9.80619102e-02  9.00000000e-01 
 4.86522450e-04  8.70833496e-05 -9.80539102e-02  9.00000000e-01 
 4.88522450e-04 -8.70310441e-05 -9.80459102e-02  9.00000000e-01 
 4.90522450e-04  8.70812902e-05 -9.80379102e-02  9.00000000e-01 
 4.92522450e-04 -8.70289878e-05 -9.80299102e-02  9.00000000e-01 
 4.94522450e-04  8.70792308e-05 -9.80219102e-02  9.00000000e-01 
 4.96522450e-04 -8.70269317e-05 -9.80139102e-02  9.00000000e-01 
 4.98522450e-04  8.70771715e-05 -9.80059102e-02  9.00000000e-01 
 5.00100100e-04 -8.70246003e-05 -9.79995996e-02  9.00000000e-01 
 5.00100110e-04 -3.56531186e-05 -9.79995996e-02  9.00000000e-01 
 5.00100130e-04  1.22744885e-05 -9.79995995e-02  9.00000000e-01 
 5.00100170e-04 -5.62594665e-06 -9.79995993e-02  9.00000000e-01 
 5.00100200e-04  3.10868324e-05 -9.79995992e-02  9.00000000e-01 
 5.00100208e-04  1.13252730e-05 -9.79995992e-02  9.00000000e-01 
 5.00100224e-04 -5.91899160e-05 -9.79995991e-02  9.00000000e-01 
 5.00100256e-04 -2.90506666e-05 -9.79995990e-02  9.00000000e-01 
 5.00100320e-04 -1.23921028e-02 -9.79995987e-02  9.00000000e-01 
 5.00100387e-04  1.02045845e-02 -9.79995985e-02  9.00000000e-01 
 5.00100471e-04  2.62915431e-02 -9.79995981e-02  9.00000000e-01 
 5.00100568e-04 -1.04947565e-02 -9.79995977e-02  9.00000000e-01 
 5.00100720e-04  1.01616253e-02 -9.79995971e-02  9.00000000e-01 
 5.00100877e-04 -9.58232534e-03 -9.79995965e-02  9.00000000e-01 
