 time            v(Q)            v(A)-v(B)       v(B)           
 0.00000000e+00  2.67657754e-09  5.00000000e-01  0.00000000e+00 
 1.00000000e-09  2.67657753e-09  5.00000004e-01  0.00000000e+00 
 2.00000000e-09  2.67657754e-09  5.00000008e-01  0.00000000e+00 
 4.00000000e-09  2.67657754e-09  5.00000016e-01  0.00000000e+00 
 8.00000000e-09  2.67657748e-09  5.00000032e-01  0.00000000e+00 
 1.60000000e-08  2.67657750e-09  5.00000064e-01  0.00000000e+00 
 3.20000000e-08  2.67657749e-09  5.00000128e-01  0.00000000e+00 
 6.40000000e-08  2.67657749e-09  5.00000256e-01  0.00000000e+00 
 1.00000000e-07  2.67657748e-09  5.00000400e-01  0.00000000e+00 
 1.00010000e-07  1.06627734e-05  5.00000400e-01  0.00000000e+00 
 1.00030000e-07 -5.02356152e-06  5.00000400e-01  0.00000000e+00 
 1.00070000e-07 -6.71986981e-06  5.00000400e-01  0.00000000e+00 
 1.00100000e-07  8.27732367e-07  5.00000400e-01  0.00000000e+00 
 1.00107639e-07  1.55197882e-05  5.00000400e-01  0.00000000e+00 
 1.00122917e-07  9.03399220e-06  5.00000400e-01  0.00000000e+00 
 1.00153473e-07 -2.05618133e-05  5.00000401e-01  0.00000000e+00 
 1.00214585e-07  1.73979461e-05  5.00000401e-01  0.00000000e+00 
 1.00289340e-07 -1.84957581e-04  5.00000401e-01  0.00000000e+00 
 1.00416382e-07  3.93844170e-01  5.00000402e-01  0.00000000e+00 
 1.00549041e-07  1.50079358e+00  5.00000402e-01  0.00000000e+00 
 1.00678135e-07  1.81519936e+00  5.00000403e-01  0.00000000e+00 
 1.00900224e-07  1.78573013e+00  5.00000404e-01  0.00000000e+00 
 1.01122384e-07  1.81385640e+00  5.00000404e-01  0.00000000e+00 
 1.01502350e-07  1.78668150e+00  5.00000406e-01  0.00000000e+00 
 1.02018787e-07  1.81331635e+00  5.00000408e-01  0.00000000e+00 
 1.02785621e-07  1.78704615e+00  5.00000411e-01  0.00000000e+00 
 1.04006570e-07  1.81308153e+00  5.00000416e-01  0.00000000e+00 
 1.05802725e-07  1.78719206e+00  5.00000423e-01  0.00000000e+00 
 1.08672162e-07  1.81298380e+00  5.00000435e-01  0.00000000e+00 
 1.13084745e-07  1.78725170e+00  5.00000452e-01  0.00000000e+00 
 1.19977082e-07  1.81294407e+00  5.00000480e-01  0.00000000e+00 
 1.32702373e-07  1.78727463e+00  5.00000531e-01  0.00000000e+00 
 1.55232221e-07  1.81293098e+00  5.00000621e-01  0.00000000e+00 
 2.00291915e-07  1.78728145e+00  5.00000801e-01  0.00000000e+00 
 2.90411305e-07  1.81292744e+00  5.00001162e-01  0.00000000e+00 
 4.70650084e-07  1.78728315e+00  5.00001883e-01  0.00000000e+00 
 8.31127642e-07  1.81292656e+00  5.00003325e-01  0.00000000e+00 
 1.55208276e-06  1.78728357e+00  5.00006208e-01  0.00000000e+00 
 2.99399299e-06  1.81292634e+00  5.00011976e-01  0.00000000e+00 
 4.99399299e-06  1.78728370e+00  5.00019976e-01  0.00000000e+00 
 6.99399299e-06  1.81292623e+00  5.00027976e-01  0.00000000e+00 
 8.99399299e-06  1.78728380e+00  5.00035976e-01  0.00000000e+00 
 1.09939930e-05  1.81292612e+00  5.00043976e-01  0.00000000e+00 
 1.29939930e-05  1.78728390e+00  5.00051976e-01  0.00000000e+00 
 1.49939930e-05  1.81292602e+00  5.00059976e-01  0.00000000e+00 
 1.69939930e-05  1.78728400e+00  5.00067976e-01  0.00000000e+00 
 1.89939930e-05  1.81292591e+00  5.00075976e-01  0.00000000e+00 
 2.09939930e-05  1.78728410e+00  5.00083976e-01  0.00000000e+00 
 2.29939930e-05  1.81292580e+00  5.00091976e-01  0.00000000e+00 
 2.49939930e-05  1.78728421e+00  5.00099976e-01  0.00000000e+00 
 2.69939930e-05  1.81292570e+00  5.00107976e-01  0.00000000e+00 
 2.89939930e-05  1.78728431e+00  5.00115976e-01  0.00000000e+00 
 3.09939930e-05  1.81292559e+00  5.00123976e-01  0.00000000e+00 
 3.29939930e-05  1.78728441e+00  5.00131976e-01  0.00000000e+00 
 3.49939930e-05  1.81292549e+00  5.00139976e-01  0.00000000e+00 
 3.69939930e-05  1.78728451e+00  5.00147976e-01  0.00000000e+00 
 3.89939930e-05  1.81292538e+00  5.00155976e-01  0.00000000e+00 
 4.09939930e-05  1.78728462e+00  5.00163976e-01  0.00000000e+00 
 4.29939930e-05  1.81292527e+00  5.00171976e-01  0.00000000e+00 
 4.49939930e-05  1.78728472e+00  5.00179976e-01  0.00000000e+00 
 4.69939930e-05  1.81292517e+00  5.00187976e-01  0.00000000e+00 
 4.89939930e-05  1.78728482e+00  5.00195976e-01  0.00000000e+00 
 5.09939930e-05  1.81292506e+00  5.00203976e-01  0.00000000e+00 
 5.29939930e-05  1.78728492e+00  5.00211976e-01  0.00000000e+00 
 5.49939930e-05  1.81292495e+00  5.00219976e-01  0.00000000e+00 
 5.69939930e-05  1.78728502e+00  5.00227976e-01  0.00000000e+00 
 5.89939930e-05  1.81292485e+00  5.00235976e-01  0.00000000e+00 
 6.09939930e-05  1.78728513e+00  5.00243976e-01  0.00000000e+00 
 6.29939930e-05  1.81292474e+00  5.00251976e-01  0.00000000e+00 
 6.49939930e-05  1.78728523e+00  5.00259976e-01  0.00000000e+00 
 6.69939930e-05  1.81292464e+00  5.00267976e-01  0.00000000e+00 
 6.89939930e-05  1.78728533e+00  5.00275976e-01  0.00000000e+00 
 7.09939930e-05  1.81292453e+00  5.00283976e-01  0.00000000e+00 
 7.29939930e-05  1.78728543e+00  5.00291976e-01  0.00000000e+00 
 7.49939930e-05  1.81292442e+00  5.00299976e-01  0.00000000e+00 
 7.69939930e-05  1.78728553e+00  5.00307976e-01  0.00000000e+00 
 7.89939930e-05  1.81292432e+00  5.00315976e-01  0.00000000e+00 
 8.09939930e-05  1.78728564e+00  5.00323976e-01  0.00000000e+00 
 8.29939930e-05  1.81292421e+00  5.00331976e-01  0.00000000e+00 
 8.49939930e-05  1.78728574e+00  5.00339976e-01  0.00000000e+00 
 8.69939930e-05  1.81292411e+00  5.00347976e-01  0.00000000e+00 
 8.89939930e-05  1.78728584e+00  5.00355976e-01  0.00000000e+00 
 9.09939930e-05  1.81292400e+00  5.00363976e-01  0.00000000e+00 
 9.29939930e-05  1.78728594e+00  5.00371976e-01  0.00000000e+00 
 9.49939930e-05  1.81292389e+00  5.00379976e-01  0.00000000e+00 
 9.69939930e-05  1.78728604e+00  5.00387976e-01  0.00000000e+00 
 9.89939930e-05  1.81292379e+00  5.00395976e-01  0.00000000e+00 
 1.00993993e-04  1.78728615e+00  5.00403976e-01  0.00000000e+00 
 1.02993993e-04  1.81292368e+00  5.00411976e-01  0.00000000e+00 
 1.04993993e-04  1.78728625e+00  5.00419976e-01  0.00000000e+00 
 1.06993993e-04  1.81292357e+00  5.00427976e-01  0.00000000e+00 
 1.08993993e-04  1.78728635e+00  5.00435976e-01  0.00000000e+00 
 1.10993993e-04  1.81292347e+00  5.00443976e-01  0.00000000e+00 
 1.12993993e-04  1.78728645e+00  5.00451976e-01  0.00000000e+00 
 1.14993993e-04  1.81292336e+00  5.00459976e-01  0.00000000e+00 
 1.16993993e-04  1.78728655e+00  5.00467976e-01  0.00000000e+00 
 1.18993993e-04  1.81292326e+00  5.00475976e-01  0.00000000e+00 
 1.20993993e-04  1.78728666e+00  5.00483976e-01  0.00000000e+00 
 1.22993993e-04  1.81292315e+00  5.00491976e-01  0.00000000e+00 
 1.24993993e-04  1.78728676e+00  5.00499976e-01  0.00000000e+00 
 1.26993993e-04  1.81292304e+00  5.00507976e-01  0.00000000e+00 
 1.28993993e-04  1.78728686e+00  5.00515976e-01  0.00000000e+00 
 1.30993993e-04  1.81292294e+00  5.00523976e-01  0.00000000e+00 
 1.32993993e-04  1.78728696e+00  5.00531976e-01  0.00000000e+00 
 1.34993993e-04  1.81292283e+00  5.00539976e-01  0.00000000e+00 
 1.36993993e-04  1.78728706e+00  5.00547976e-01  0.00000000e+00 
 1.38993993e-04  1.81292273e+00  5.00555976e-01  0.00000000e+00 
 1.40993993e-04  1.78728717e+00  5.00563976e-01  0.00000000e+00 
 1.42993993e-04  1.81292262e+00  5.00571976e-01  0.00000000e+00 
 1.44993993e-04  1.78728727e+00  5.00579976e-01  0.00000000e+00 
 1.46993993e-04  1.81292251e+00  5.00587976e-01  0.00000000e+00 
 1.48993993e-04  1.78728737e+00  5.00595976e-01  0.00000000e+00 
 1.50993993e-04  1.81292241e+00  5.00603976e-01  0.00000000e+00 
 1.52993993e-04  1.78728747e+00  5.00611976e-01  0.00000000e+00 
 1.54993993e-04  1.81292230e+00  5.00619976e-01  0.00000000e+00 
 1.56993993e-04  1.78728757e+00  5.00627976e-01  0.00000000e+00 
 1.58993993e-04  1.81292220e+00  5.00635976e-01  0.00000000e+00 
 1.60993993e-04  1.78728768e+00  5.00643976e-01  0.00000000e+00 
 1.62993993e-04  1.81292209e+00  5.00651976e-01  0.00000000e+00 
 1.64993993e-04  1.78728778e+00  5.00659976e-01  0.00000000e+00 
 1.66993993e-04  1.81292198e+00  5.00667976e-01  0.00000000e+00 
 1.68993993e-04  1.78728788e+00  5.00675976e-01  0.00000000e+00 
 1.70993993e-04  1.81292188e+00  5.00683976e-01  0.00000000e+00 
 1.72993993e-04  1.78728798e+00  5.00691976e-01  0.00000000e+00 
 1.74993993e-04  1.81292177e+00  5.00699976e-01  0.00000000e+00 
 1.76993993e-04  1.78728808e+00  5.00707976e-01  0.00000000e+00 
 1.78993993e-04  1.81292167e+00  5.00715976e-01  0.00000000e+00 
 1.80993993e-04  1.78728819e+00  5.00723976e-01  0.00000000e+00 
 1.82993993e-04  1.81292156e+00  5.00731976e-01  0.00000000e+00 
 1.84993993e-04  1.78728829e+00  5.00739976e-01  0.00000000e+00 
 1.86993993e-04  1.81292145e+00  5.00747976e-01  0.00000000e+00 
 1.88993993e-04  1.78728839e+00  5.00755976e-01  0.00000000e+00 
 1.90993993e-04  1.81292135e+00  5.00763976e-01  0.00000000e+00 
 1.92993993e-04  1.78728849e+00  5.00771976e-01  0.00000000e+00 
 1.94993993e-04  1.81292124e+00  5.00779976e-01  0.00000000e+00 
 1.96993993e-04  1.78728859e+00  5.00787976e-01  0.00000000e+00 
 1.98993993e-04  1.81292114e+00  5.00795976e-01  0.00000000e+00 
 2.00000000e-04  1.78728875e+00  5.00800000e-01  0.00000000e+00 
 2.00200000e-04  1.79999946e+00 -9.91992000e-02  6.00000000e-01 
 2.00600000e-04  2.27967033e-05 -9.91976000e-02  6.00000000e-01 
 2.00945863e-04 -1.98158182e-05 -9.91962165e-02  6.00000000e-01 
 2.01322098e-04  1.98227355e-05 -9.91947116e-02  6.00000000e-01 
 2.01911075e-04 -1.98107948e-05 -9.91923557e-02  6.00000000e-01 
 2.02723276e-04  1.98193536e-05 -9.91891069e-02  6.00000000e-01 
 2.04347679e-04 -1.98086661e-05 -9.91826093e-02  6.00000000e-01 
 2.06347679e-04  1.98180661e-05 -9.91746093e-02  6.00000000e-01 
 2.08347679e-04 -1.98075135e-05 -9.91666093e-02  6.00000000e-01 
 2.10347679e-04  1.98169121e-05 -9.91586093e-02  6.00000000e-01 
 2.12347679e-04 -1.98063613e-05 -9.91506093e-02  6.00000000e-01 
 2.14347679e-04  1.98157584e-05 -9.91426093e-02  6.00000000e-01 
 2.16347679e-04 -1.98052093e-05 -9.91346093e-02  6.00000000e-01 
 2.18347679e-04  1.98146048e-05 -9.91266093e-02  6.00000000e-01 
 2.20347679e-04 -1.98040575e-05 -9.91186093e-02  6.00000000e-01 
 2.22347679e-04  1.98134515e-05 -9.91106093e-02  6.00000000e-01 
 2.24347679e-04 -1.98029059e-05 -9.91026093e-02  6.00000000e-01 
 2.26347679e-04  1.98122983e-05 -9.90946093e-02  6.00000000e-01 
 2.28347679e-04 -1.98017545e-05 -9.90866093e-02  6.00000000e-01 
 2.30347679e-04  1.98111454e-05 -9.90786093e-02  6.00000000e-01 
 2.32347679e-04 -1.98006033e-05 -9.90706093e-02  6.00000000e-01 
 2.34347679e-04  1.98099926e-05 -9.90626093e-02  6.00000000e-01 
 2.36347679e-04 -1.97994523e-05 -9.90546093e-02  6.00000000e-01 
 2.38347679e-04  1.98088400e-05 -9.90466093e-02  6.00000000e-01 
 2.40347679e-04 -1.97983014e-05 -9.90386093e-02  6.00000000e-01 
 2.42347679e-04  1.98076877e-05 -9.90306093e-02  6.00000000e-01 
 2.44347679e-04 -1.97971508e-05 -9.90226093e-02  6.00000000e-01 
 2.46347679e-04  1.98065355e-05 -9.90146093e-02  6.00000000e-01 
 2.48347679e-04 -1.97960004e-05 -9.90066093e-02  6.00000000e-01 
 2.50347679e-04  1.98053835e-05 -9.89986093e-02  6.00000000e-01 
 2.52347679e-04 -1.97948502e-05 -9.89906093e-02  6.00000000e-01 
 2.54347679e-04  1.98042318e-05 -9.89826093e-02  6.00000000e-01 
 2.56347679e-04 -1.97937001e-05 -9.89746093e-02  6.00000000e-01 
 2.58347679e-04  1.98030802e-05 -9.89666093e-02  6.00000000e-01 
 2.60347679e-04 -1.97925503e-05 -9.89586093e-02  6.00000000e-01 
 2.62347679e-04  1.98019288e-05 -9.89506093e-02  6.00000000e-01 
 2.64347679e-04 -1.97914007e-05 -9.89426093e-02  6.00000000e-01 
 2.66347679e-04  1.98007777e-05 -9.89346093e-02  6.00000000e-01 
 2.68347679e-04 -1.97902513e-05 -9.89266093e-02  6.00000000e-01 
 2.70347679e-04  1.97996267e-05 -9.89186093e-02  6.00000000e-01 
 2.72347679e-04 -1.97891020e-05 -9.89106093e-02  6.00000000e-01 
 2.74347679e-04  1.97984759e-05 -9.89026093e-02  6.00000000e-01 
 2.76347679e-04 -1.97879530e-05 -9.88946093e-02  6.00000000e-01 
 2.78347679e-04  1.97973254e-05 -9.88866093e-02  6.00000000e-01 
 2.80347679e-04 -1.97868042e-05 -9.88786093e-02  6.00000000e-01 
 2.82347679e-04  1.97961750e-05 -9.88706093e-02  6.00000000e-01 
 2.84347679e-04 -1.97856556e-05 -9.88626093e-02  6.00000000e-01 
 2.86347679e-04  1.97950248e-05 -9.88546093e-02  6.00000000e-01 
 2.88347679e-04 -1.97845071e-05 -9.88466093e-02  6.00000000e-01 
 2.90347679e-04  1.97938748e-05 -9.88386093e-02  6.00000000e-01 
 2.92347679e-04 -1.97833589e-05 -9.88306093e-02  6.00000000e-01 
 2.94347679e-04  1.97927251e-05 -9.88226093e-02  6.00000000e-01 
 2.96347679e-04 -1.97822109e-05 -9.88146093e-02  6.00000000e-01 
 2.98347679e-04  1.97915755e-05 -9.88066093e-02  6.00000000e-01 
 3.00347679e-04 -1.97810630e-05 -9.87986093e-02  6.00000000e-01 
 3.02347679e-04  1.97904261e-05 -9.87906093e-02  6.00000000e-01 
 3.04347679e-04 -1.97799154e-05 -9.87826093e-02  6.00000000e-01 
 3.06347679e-04  1.97892769e-05 -9.87746093e-02  6.00000000e-01 
 3.08347679e-04 -1.97787680e-05 -9.87666093e-02  6.00000000e-01 
 3.10347679e-04  1.97881280e-05 -9.87586093e-02  6.00000000e-01 
 3.12347679e-04 -1.97776207e-05 -9.87506093e-02  6.00000000e-01 
 3.14347679e-04  1.97869792e-05 -9.87426093e-02  6.00000000e-01 
 3.16347679e-04 -1.97764737e-05 -9.87346093e-02  6.00000000e-01 
 3.18347679e-04  1.97858306e-05 -9.87266093e-02  6.00000000e-01 
 3.20347679e-04 -1.97753268e-05 -9.87186093e-02  6.00000000e-01 
 3.22347679e-04  1.97846822e-05 -9.87106093e-02  6.00000000e-01 
 3.24347679e-04 -1.97741802e-05 -9.87026093e-02  6.00000000e-01 
 3.26347679e-04  1.97835341e-05 -9.86946093e-02  6.00000000e-01 
 3.28347679e-04 -1.97730337e-05 -9.86866093e-02  6.00000000e-01 
 3.30347679e-04  1.97823861e-05 -9.86786093e-02  6.00000000e-01 
 3.32347679e-04 -1.97718875e-05 -9.86706093e-02  6.00000000e-01 
 3.34347679e-04  1.97812383e-05 -9.86626093e-02  6.00000000e-01 
 3.36347679e-04 -1.97707415e-05 -9.86546093e-02  6.00000000e-01 
 3.38347679e-04  1.97800907e-05 -9.86466093e-02  6.00000000e-01 
 3.40347679e-04 -1.97695956e-05 -9.86386093e-02  6.00000000e-01 
 3.42347679e-04  1.97789433e-05 -9.86306093e-02  6.00000000e-01 
 3.44347679e-04 -1.97684500e-05 -9.86226093e-02  6.00000000e-01 
 3.46347679e-04  1.97777961e-05 -9.86146093e-02  6.00000000e-01 
 3.48347679e-04 -1.97673045e-05 -9.86066093e-02  6.00000000e-01 
 3.50347679e-04  1.97766492e-05 -9.85986093e-02  6.00000000e-01 
 3.52347679e-04 -1.97661593e-05 -9.85906093e-02  6.00000000e-01 
 3.54347679e-04  1.97755024e-05 -9.85826093e-02  6.00000000e-01 
 3.56347679e-04 -1.97650142e-05 -9.85746093e-02  6.00000000e-01 
 3.58347679e-04  1.97743558e-05 -9.85666093e-02  6.00000000e-01 
 3.60347679e-04 -1.97638693e-05 -9.85586093e-02  6.00000000e-01 
 3.62347679e-04  1.97732094e-05 -9.85506093e-02  6.00000000e-01 
 3.64347679e-04 -1.97627247e-05 -9.85426093e-02  6.00000000e-01 
 3.66347679e-04  1.97720632e-05 -9.85346093e-02  6.00000000e-01 
 3.68347679e-04 -1.97615802e-05 -9.85266093e-02  6.00000000e-01 
 3.70347679e-04  1.97709172e-05 -9.85186093e-02  6.00000000e-01 
 3.72347679e-04 -1.97604360e-05 -9.85106093e-02  6.00000000e-01 
 3.74347679e-04  1.97697714e-05 -9.85026093e-02  6.00000000e-01 
 3.76347679e-04 -1.97592919e-05 -9.84946093e-02  6.00000000e-01 
 3.78347679e-04  1.97686258e-05 -9.84866093e-02  6.00000000e-01 
 3.80347679e-04 -1.97581480e-05 -9.84786093e-02  6.00000000e-01 
 3.82347679e-04  1.97674804e-05 -9.84706093e-02  6.00000000e-01 
 3.84347679e-04 -1.97570044e-05 -9.84626093e-02  6.00000000e-01 
 3.86347679e-04  1.97663352e-05 -9.84546093e-02  6.00000000e-01 
 3.88347679e-04 -1.97558609e-05 -9.84466093e-02  6.00000000e-01 
 3.90347679e-04  1.97651902e-05 -9.84386093e-02  6.00000000e-01 
 3.92347679e-04 -1.97547176e-05 -9.84306093e-02  6.00000000e-01 
 3.94347679e-04  1.97640454e-05 -9.84226093e-02  6.00000000e-01 
 3.96347679e-04 -1.97535745e-05 -9.84146093e-02  6.00000000e-01 
 3.98347679e-04  1.97629008e-05 -9.84066093e-02  6.00000000e-01 
 4.00347679e-04 -1.97524317e-05 -9.83986093e-02  6.00000000e-01 
 4.02347679e-04  1.97617564e-05 -9.83906093e-02  6.00000000e-01 
 4.04347679e-04 -1.97512890e-05 -9.83826093e-02  6.00000000e-01 
 4.06347679e-04  1.97606122e-05 -9.83746093e-02  6.00000000e-01 
 4.08347679e-04 -1.97501465e-05 -9.83666093e-02  6.00000000e-01 
 4.10347679e-04  1.97594682e-05 -9.83586093e-02  6.00000000e-01 
 4.12347679e-04 -1.97490042e-05 -9.83506093e-02  6.00000000e-01 
 4.14347679e-04  1.97583244e-05 -9.83426093e-02  6.00000000e-01 
 4.16347679e-04 -1.97478621e-05 -9.83346093e-02  6.00000000e-01 
 4.18347679e-04  1.97571807e-05 -9.83266093e-02  6.00000000e-01 
 4.20347679e-04 -1.97467202e-05 -9.83186093e-02  6.00000000e-01 
 4.22347679e-04  1.97013747e-05 -9.83106093e-02  6.00000000e-01 
 4.24347679e-04 -1.97455802e-05 -9.83026093e-02  6.00000000e-01 
 4.26347679e-04  1.97548958e-05 -9.82946093e-02  6.00000000e-01 
 4.28347679e-04 -1.97444387e-05 -9.82866093e-02  6.00000000e-01 
 4.30347679e-04  1.96991153e-05 -9.82786093e-02  6.00000000e-01 
 4.32347679e-04 -1.97432991e-05 -9.82706093e-02  6.00000000e-01 
 4.34347679e-04  1.96980668e-05 -9.82626093e-02  6.00000000e-01 
 4.36347679e-04 -1.97421596e-05 -9.82546093e-02  6.00000000e-01 
 4.38347679e-04  1.96969382e-05 -9.82466093e-02  6.00000000e-01 
 4.40347679e-04 -1.97410204e-05 -9.82386093e-02  6.00000000e-01 
 4.42347679e-04  1.96958100e-05 -9.82306093e-02  6.00000000e-01 
 4.44347679e-04 -1.97398813e-05 -9.82226093e-02  6.00000000e-01 
 4.46347679e-04  1.96946819e-05 -9.82146093e-02  6.00000000e-01 
 4.48347679e-04 -1.97387425e-05 -9.82066093e-02  6.00000000e-01 
 4.50347679e-04  1.96935540e-05 -9.81986093e-02  6.00000000e-01 
 4.52347679e-04 -1.97376038e-05 -9.81906093e-02  6.00000000e-01 
 4.54347679e-04  1.96924264e-05 -9.81826093e-02  6.00000000e-01 
 4.56347679e-04 -1.97364654e-05 -9.81746093e-02  6.00000000e-01 
 4.58347679e-04  1.96912989e-05 -9.81666093e-02  6.00000000e-01 
 4.60347679e-04 -1.97353271e-05 -9.81586093e-02  6.00000000e-01 
 4.62347679e-04  1.96901716e-05 -9.81506093e-02  6.00000000e-01 
 4.64347679e-04 -1.97341890e-05 -9.81426093e-02  6.00000000e-01 
 4.66347679e-04  1.96890445e-05 -9.81346093e-02  6.00000000e-01 
 4.68347679e-04 -1.97330511e-05 -9.81266093e-02  6.00000000e-01 
 4.70347679e-04  1.96879176e-05 -9.81186093e-02  6.00000000e-01 
 4.72347679e-04 -1.97319135e-05 -9.81106093e-02  6.00000000e-01 
 4.74347679e-04  1.96867909e-05 -9.81026093e-02  6.00000000e-01 
 4.76347679e-04 -1.97307760e-05 -9.80946093e-02  6.00000000e-01 
 4.78347679e-04  1.96856643e-05 -9.80866093e-02  6.00000000e-01 
 4.80347679e-04 -1.97296387e-05 -9.80786093e-02  6.00000000e-01 
 4.82347679e-04  1.96845380e-05 -9.80706093e-02  6.00000000e-01 
 4.84347679e-04 -1.97285016e-05 -9.80626093e-02  6.00000000e-01 
 4.86347679e-04  1.96834119e-05 -9.80546093e-02  6.00000000e-01 
 4.88347679e-04 -1.97273647e-05 -9.80466093e-02  6.00000000e-01 
 4.90347679e-04  1.96822859e-05 -9.80386093e-02  6.00000000e-01 
 4.92347679e-04 -1.97262280e-05 -9.80306093e-02  6.00000000e-01 
 4.94347679e-04  1.96811602e-05 -9.80226093e-02  6.00000000e-01 
 4.96347679e-04 -1.97250915e-05 -9.80146093e-02  6.00000000e-01 
 4.98347679e-04  1.96800346e-05 -9.80066093e-02  6.00000000e-01 
 5.00100100e-04 -1.97238749e-05 -9.79995996e-02  6.00000000e-01 
 5.00100110e-04 -9.51339398e-06 -9.79995996e-02  6.00000000e-01 
 5.00100130e-04 -7.64824063e-07 -9.79995995e-02  6.00000000e-01 
 5.00100170e-04 -3.40813789e-06 -9.79995993e-02  6.00000000e-01 
 5.00100200e-04  8.60462122e-06 -9.79995992e-02  6.00000000e-01 
 5.00100208e-04  4.37490256e-06 -9.79995992e-02  6.00000000e-01 
 5.00100224e-04 -2.95685889e-05 -9.79995991e-02  6.00000000e-01 
 5.00100256e-04 -3.67782233e-06 -9.79995990e-02  6.00000000e-01 
 5.00100320e-04 -1.59297486e-03 -9.79995987e-02  6.00000000e-01 
 5.00100386e-04 -1.28367725e-02 -9.79995985e-02  6.00000000e-01 
 5.00100476e-04  1.04240446e-02 -9.79995981e-02  6.00000000e-01 
 5.00100564e-04 -8.50690643e-03 -9.79995977e-02  6.00000000e-01 
 5.00100719e-04  7.61102513e-03 -9.79995971e-02  6.00000000e-01 
 5.00100874e-04 -6.74943804e-03 -9.79995965e-02  6.00000000e-01 
