 time            v(Q)            v(A)-v(B)       v(B)           
 0.00000000e+00  2.67657754e-09  4.00000000e-01  0.00000000e+00 
 1.00000000e-09  2.67657753e-09  4.00000004e-01  0.00000000e+00 
 2.00000000e-09  2.67657754e-09  4.00000008e-01  0.00000000e+00 
 4.00000000e-09  2.67657754e-09  4.00000016e-01  0.00000000e+00 
 8.00000000e-09  2.67657753e-09  4.00000032e-01  0.00000000e+00 
 1.60000000e-08  2.67657754e-09  4.00000064e-01  0.00000000e+00 
 3.20000000e-08  2.67657753e-09  4.00000128e-01  0.00000000e+00 
 6.40000000e-08  2.67657748e-09  4.00000256e-01  0.00000000e+00 
 1.00000000e-07  2.67657749e-09  4.00000400e-01  0.00000000e+00 
 1.00010000e-07  1.05137143e-05  4.00000400e-01  0.00000000e+00 
 1.00030000e-07 -5.07942833e-06  4.00000400e-01  0.00000000e+00 
 1.00070000e-07 -6.62266439e-06  4.00000400e-01  0.00000000e+00 
 1.00100000e-07  1.04917653e-06  4.00000400e-01  0.00000000e+00 
 1.00107639e-07  1.65676611e-05  4.00000400e-01  0.00000000e+00 
 1.00122918e-07  8.09572486e-06  4.00000400e-01  0.00000000e+00 
 1.00153475e-07 -2.03789797e-05  4.00000401e-01  0.00000000e+00 
 1.00214590e-07  1.79425818e-05  4.00000401e-01  0.00000000e+00 
 1.00288632e-07 -7.12473171e-05  4.00000401e-01  0.00000000e+00 
 1.00436716e-07  5.27500428e-01  4.00000402e-01  0.00000000e+00 
 1.00599176e-07  1.63279910e+00  4.00000402e-01  0.00000000e+00 
 1.00745771e-07  1.82226319e+00  4.00000403e-01  0.00000000e+00 
 1.01002643e-07  1.78610279e+00  4.00000404e-01  0.00000000e+00 
 1.01264008e-07  1.80965425e+00  4.00000405e-01  0.00000000e+00 
 1.01691610e-07  1.79120669e+00  4.00000407e-01  0.00000000e+00 
 1.02283627e-07  1.80804871e+00  4.00000409e-01  0.00000000e+00 
 1.03140422e-07  1.79202326e+00  4.00000413e-01  0.00000000e+00 
 1.04493505e-07  1.80765230e+00  4.00000418e-01  0.00000000e+00 
 1.06471197e-07  1.79225335e+00  4.00000426e-01  0.00000000e+00 
 1.09580302e-07  1.80752270e+00  4.00000438e-01  0.00000000e+00 
 1.14335889e-07  1.79233537e+00  4.00000457e-01  0.00000000e+00 
 1.21673009e-07  1.80747446e+00  4.00000487e-01  0.00000000e+00 
 1.33114554e-07  1.79236733e+00  4.00000532e-01  0.00000000e+00 
 1.53189528e-07  1.80745626e+00  4.00000613e-01  0.00000000e+00 
 1.93339477e-07  1.79237772e+00  4.00000773e-01  0.00000000e+00 
 2.64445525e-07  1.80745118e+00  4.00001058e-01  0.00000000e+00 
 4.06657623e-07  1.79238062e+00  4.00001627e-01  0.00000000e+00 
 6.91081817e-07  1.80744981e+00  4.00002764e-01  0.00000000e+00 
 1.25993021e-06  1.79238134e+00  4.00005040e-01  0.00000000e+00 
 2.39762698e-06  1.80744947e+00  4.00009591e-01  0.00000000e+00 
 4.39762698e-06  1.79238151e+00  4.00017591e-01  0.00000000e+00 
 6.39762698e-06  1.80744934e+00  4.00025591e-01  0.00000000e+00 
 8.39762698e-06  1.79238163e+00  4.00033591e-01  0.00000000e+00 
 1.03976270e-05  1.80744921e+00  4.00041591e-01  0.00000000e+00 
 1.23976270e-05  1.79238177e+00  4.00049591e-01  0.00000000e+00 
 1.43976270e-05  1.80744908e+00  4.00057591e-01  0.00000000e+00 
 1.63976270e-05  1.79238190e+00  4.00065591e-01  0.00000000e+00 
 1.83976270e-05  1.80744895e+00  4.00073591e-01  0.00000000e+00 
 2.03976270e-05  1.79238204e+00  4.00081591e-01  0.00000000e+00 
 2.23976270e-05  1.80744882e+00  4.00089591e-01  0.00000000e+00 
 2.43976270e-05  1.79238218e+00  4.00097591e-01  0.00000000e+00 
 2.63976270e-05  1.80744869e+00  4.00105591e-01  0.00000000e+00 
 2.83976270e-05  1.79238231e+00  4.00113591e-01  0.00000000e+00 
 3.03976270e-05  1.80744856e+00  4.00121591e-01  0.00000000e+00 
 3.23976270e-05  1.79238245e+00  4.00129591e-01  0.00000000e+00 
 3.43976270e-05  1.80744844e+00  4.00137591e-01  0.00000000e+00 
 3.63976270e-05  1.79238259e+00  4.00145591e-01  0.00000000e+00 
 3.83976270e-05  1.80744831e+00  4.00153591e-01  0.00000000e+00 
 4.03976270e-05  1.79238272e+00  4.00161591e-01  0.00000000e+00 
 4.23976270e-05  1.80744818e+00  4.00169591e-01  0.00000000e+00 
 4.43976270e-05  1.79238286e+00  4.00177591e-01  0.00000000e+00 
 4.63976270e-05  1.80744805e+00  4.00185591e-01  0.00000000e+00 
 4.83976270e-05  1.79238299e+00  4.00193591e-01  0.00000000e+00 
 5.03976270e-05  1.80744792e+00  4.00201591e-01  0.00000000e+00 
 5.23976270e-05  1.79238313e+00  4.00209591e-01  0.00000000e+00 
 5.43976270e-05  1.80744779e+00  4.00217591e-01  0.00000000e+00 
 5.63976270e-05  1.79238327e+00  4.00225591e-01  0.00000000e+00 
 5.83976270e-05  1.80744766e+00  4.00233591e-01  0.00000000e+00 
 6.03976270e-05  1.79238340e+00  4.00241591e-01  0.00000000e+00 
 6.23976270e-05  1.80744753e+00  4.00249591e-01  0.00000000e+00 
 6.43976270e-05  1.79238354e+00  4.00257591e-01  0.00000000e+00 
 6.63976270e-05  1.80744740e+00  4.00265591e-01  0.00000000e+00 
 6.83976270e-05  1.79238368e+00  4.00273591e-01  0.00000000e+00 
 7.03976270e-05  1.80744727e+00  4.00281591e-01  0.00000000e+00 
 7.23976270e-05  1.79238381e+00  4.00289591e-01  0.00000000e+00 
 7.43976270e-05  1.80744714e+00  4.00297591e-01  0.00000000e+00 
 7.63976270e-05  1.79238395e+00  4.00305591e-01  0.00000000e+00 
 7.83976270e-05  1.80744702e+00  4.00313591e-01  0.00000000e+00 
 8.03976270e-05  1.79238409e+00  4.00321591e-01  0.00000000e+00 
 8.23976270e-05  1.80744689e+00  4.00329591e-01  0.00000000e+00 
 8.43976270e-05  1.79238422e+00  4.00337591e-01  0.00000000e+00 
 8.63976270e-05  1.80744676e+00  4.00345591e-01  0.00000000e+00 
 8.83976270e-05  1.79238436e+00  4.00353591e-01  0.00000000e+00 
 9.03976270e-05  1.80744663e+00  4.00361591e-01  0.00000000e+00 
 9.23976270e-05  1.79238449e+00  4.00369591e-01  0.00000000e+00 
 9.43976270e-05  1.80744650e+00  4.00377591e-01  0.00000000e+00 
 9.63976270e-05  1.79238463e+00  4.00385591e-01  0.00000000e+00 
 9.83976270e-05  1.80744637e+00  4.00393591e-01  0.00000000e+00 
 1.00397627e-04  1.79238477e+00  4.00401591e-01  0.00000000e+00 
 1.02397627e-04  1.80744624e+00  4.00409591e-01  0.00000000e+00 
 1.04397627e-04  1.79238490e+00  4.00417591e-01  0.00000000e+00 
 1.06397627e-04  1.80744611e+00  4.00425591e-01  0.00000000e+00 
 1.08397627e-04  1.79238504e+00  4.00433591e-01  0.00000000e+00 
 1.10397627e-04  1.80744599e+00  4.00441591e-01  0.00000000e+00 
 1.12397627e-04  1.79238517e+00  4.00449591e-01  0.00000000e+00 
 1.14397627e-04  1.80744586e+00  4.00457591e-01  0.00000000e+00 
 1.16397627e-04  1.79238531e+00  4.00465591e-01  0.00000000e+00 
 1.18397627e-04  1.80744573e+00  4.00473591e-01  0.00000000e+00 
 1.20397627e-04  1.79238545e+00  4.00481591e-01  0.00000000e+00 
 1.22397627e-04  1.80744560e+00  4.00489591e-01  0.00000000e+00 
 1.24397627e-04  1.79238558e+00  4.00497591e-01  0.00000000e+00 
 1.26397627e-04  1.80744547e+00  4.00505591e-01  0.00000000e+00 
 1.28397627e-04  1.79238572e+00  4.00513591e-01  0.00000000e+00 
 1.30397627e-04  1.80744534e+00  4.00521591e-01  0.00000000e+00 
 1.32397627e-04  1.79238585e+00  4.00529591e-01  0.00000000e+00 
 1.34397627e-04  1.80744521e+00  4.00537591e-01  0.00000000e+00 
 1.36397627e-04  1.79238599e+00  4.00545591e-01  0.00000000e+00 
 1.38397627e-04  1.80744509e+00  4.00553591e-01  0.00000000e+00 
 1.40397627e-04  1.79238612e+00  4.00561591e-01  0.00000000e+00 
 1.42397627e-04  1.80744496e+00  4.00569591e-01  0.00000000e+00 
 1.44397627e-04  1.79238626e+00  4.00577591e-01  0.00000000e+00 
 1.46397627e-04  1.80744483e+00  4.00585591e-01  0.00000000e+00 
 1.48397627e-04  1.79238640e+00  4.00593591e-01  0.00000000e+00 
 1.50397627e-04  1.80744470e+00  4.00601591e-01  0.00000000e+00 
 1.52397627e-04  1.79238653e+00  4.00609591e-01  0.00000000e+00 
 1.54397627e-04  1.80744457e+00  4.00617591e-01  0.00000000e+00 
 1.56397627e-04  1.79238667e+00  4.00625591e-01  0.00000000e+00 
 1.58397627e-04  1.80744444e+00  4.00633591e-01  0.00000000e+00 
 1.60397627e-04  1.79238680e+00  4.00641591e-01  0.00000000e+00 
 1.62397627e-04  1.80744432e+00  4.00649591e-01  0.00000000e+00 
 1.64397627e-04  1.79238694e+00  4.00657591e-01  0.00000000e+00 
 1.66397627e-04  1.80744419e+00  4.00665591e-01  0.00000000e+00 
 1.68397627e-04  1.79238707e+00  4.00673591e-01  0.00000000e+00 
 1.70397627e-04  1.80744406e+00  4.00681591e-01  0.00000000e+00 
 1.72397627e-04  1.79238721e+00  4.00689591e-01  0.00000000e+00 
 1.74397627e-04  1.80744393e+00  4.00697591e-01  0.00000000e+00 
 1.76397627e-04  1.79238735e+00  4.00705591e-01  0.00000000e+00 
 1.78397627e-04  1.80744380e+00  4.00713591e-01  0.00000000e+00 
 1.80397627e-04  1.79238748e+00  4.00721591e-01  0.00000000e+00 
 1.82397627e-04  1.80744367e+00  4.00729591e-01  0.00000000e+00 
 1.84397627e-04  1.79238762e+00  4.00737591e-01  0.00000000e+00 
 1.86397627e-04  1.80744355e+00  4.00745591e-01  0.00000000e+00 
 1.88397627e-04  1.79238775e+00  4.00753591e-01  0.00000000e+00 
 1.90397627e-04  1.80744342e+00  4.00761591e-01  0.00000000e+00 
 1.92397627e-04  1.79238789e+00  4.00769591e-01  0.00000000e+00 
 1.94397627e-04  1.80744329e+00  4.00777591e-01  0.00000000e+00 
 1.96397627e-04  1.79238802e+00  4.00785591e-01  0.00000000e+00 
 1.98397627e-04  1.80744316e+00  4.00793591e-01  0.00000000e+00 
 2.00000000e-04  1.79238817e+00  4.00800000e-01  0.00000000e+00 
 2.00200000e-04  1.79999948e+00 -9.91992000e-02  5.00000000e-01 
 2.00600000e-04  1.80000040e+00 -9.91976000e-02  5.00000000e-01 
 2.01096147e-04  1.79999948e+00 -9.91956154e-02  5.00000000e-01 
 2.01646158e-04  1.80000040e+00 -9.91934154e-02  5.00000000e-01 
 2.02746181e-04  1.79999948e+00 -9.91890153e-02  5.00000000e-01 
 2.04746181e-04  1.80000040e+00 -9.91810153e-02  5.00000000e-01 
 2.06746181e-04  1.79999948e+00 -9.91730153e-02  5.00000000e-01 
 2.08746181e-04  1.80000040e+00 -9.91650153e-02  5.00000000e-01 
 2.10746181e-04  1.79999948e+00 -9.91570153e-02  5.00000000e-01 
 2.12746181e-04  1.80000040e+00 -9.91490153e-02  5.00000000e-01 
 2.14746181e-04  1.79999948e+00 -9.91410153e-02  5.00000000e-01 
 2.16746181e-04  1.80000040e+00 -9.91330153e-02  5.00000000e-01 
 2.18746181e-04  1.79999948e+00 -9.91250153e-02  5.00000000e-01 
 2.20746181e-04  1.80000040e+00 -9.91170153e-02  5.00000000e-01 
 2.22746181e-04  1.79999948e+00 -9.91090153e-02  5.00000000e-01 
 2.24746181e-04  1.80000040e+00 -9.91010153e-02  5.00000000e-01 
 2.26746181e-04  1.79999948e+00 -9.90930153e-02  5.00000000e-01 
 2.28746181e-04  1.80000040e+00 -9.90850153e-02  5.00000000e-01 
 2.30746181e-04  1.79999948e+00 -9.90770153e-02  5.00000000e-01 
 2.32746181e-04  1.80000040e+00 -9.90690153e-02  5.00000000e-01 
 2.34746181e-04  1.79999948e+00 -9.90610153e-02  5.00000000e-01 
 2.36746181e-04  1.80000040e+00 -9.90530153e-02  5.00000000e-01 
 2.38746181e-04  1.79999948e+00 -9.90450153e-02  5.00000000e-01 
 2.40746181e-04  1.80000040e+00 -9.90370153e-02  5.00000000e-01 
 2.42746181e-04  1.79999948e+00 -9.90290153e-02  5.00000000e-01 
 2.44746181e-04  1.80000040e+00 -9.90210153e-02  5.00000000e-01 
 2.46746181e-04  1.79999948e+00 -9.90130153e-02  5.00000000e-01 
 2.48746181e-04  1.80000040e+00 -9.90050153e-02  5.00000000e-01 
 2.50746181e-04  1.79999948e+00 -9.89970153e-02  5.00000000e-01 
 2.52746181e-04  1.80000040e+00 -9.89890153e-02  5.00000000e-01 
 2.54746181e-04  1.79999948e+00 -9.89810153e-02  5.00000000e-01 
 2.56746181e-04  1.80000040e+00 -9.89730153e-02  5.00000000e-01 
 2.58746181e-04  1.79999948e+00 -9.89650153e-02  5.00000000e-01 
 2.60746181e-04  1.80000040e+00 -9.89570153e-02  5.00000000e-01 
 2.62746181e-04  1.79999948e+00 -9.89490153e-02  5.00000000e-01 
 2.64746181e-04  1.80000040e+00 -9.89410153e-02  5.00000000e-01 
 2.66746181e-04  1.79999948e+00 -9.89330153e-02  5.00000000e-01 
 2.68746181e-04  1.80000040e+00 -9.89250153e-02  5.00000000e-01 
 2.70746181e-04  1.79999948e+00 -9.89170153e-02  5.00000000e-01 
 2.72746181e-04  1.80000040e+00 -9.89090153e-02  5.00000000e-01 
 2.74746181e-04  1.79999948e+00 -9.89010153e-02  5.00000000e-01 
 2.76746181e-04  1.80000040e+00 -9.88930153e-02  5.00000000e-01 
 2.78746181e-04  1.79999948e+00 -9.88850153e-02  5.00000000e-01 
 2.80746181e-04  1.80000040e+00 -9.88770153e-02  5.00000000e-01 
 2.82746181e-04  1.79999948e+00 -9.88690153e-02  5.00000000e-01 
 2.84746181e-04  1.80000040e+00 -9.88610153e-02  5.00000000e-01 
 2.86746181e-04  1.79999948e+00 -9.88530153e-02  5.00000000e-01 
 2.88746181e-04  1.80000040e+00 -9.88450153e-02  5.00000000e-01 
 2.90746181e-04  1.79999948e+00 -9.88370153e-02  5.00000000e-01 
 2.92746181e-04  1.80000040e+00 -9.88290153e-02  5.00000000e-01 
 2.94746181e-04  1.79999948e+00 -9.88210153e-02  5.00000000e-01 
 2.96746181e-04  1.80000040e+00 -9.88130153e-02  5.00000000e-01 
 2.98746181e-04  1.79999948e+00 -9.88050153e-02  5.00000000e-01 
 3.00746181e-04  1.80000040e+00 -9.87970153e-02  5.00000000e-01 
 3.02746181e-04  1.79999948e+00 -9.87890153e-02  5.00000000e-01 
 3.04746181e-04  1.80000040e+00 -9.87810153e-02  5.00000000e-01 
 3.06746181e-04  1.79999948e+00 -9.87730153e-02  5.00000000e-01 
 3.08746181e-04  1.80000040e+00 -9.87650153e-02  5.00000000e-01 
 3.10746181e-04  1.79999948e+00 -9.87570153e-02  5.00000000e-01 
 3.12746181e-04  1.80000040e+00 -9.87490153e-02  5.00000000e-01 
 3.14746181e-04  1.79999948e+00 -9.87410153e-02  5.00000000e-01 
 3.16746181e-04  1.80000040e+00 -9.87330153e-02  5.00000000e-01 
 3.18746181e-04  1.79999948e+00 -9.87250153e-02  5.00000000e-01 
 3.20746181e-04  1.80000040e+00 -9.87170153e-02  5.00000000e-01 
 3.22746181e-04  1.79999948e+00 -9.87090153e-02  5.00000000e-01 
 3.24746181e-04  1.80000040e+00 -9.87010153e-02  5.00000000e-01 
 3.26746181e-04  1.79999948e+00 -9.86930153e-02  5.00000000e-01 
 3.28746181e-04  1.80000040e+00 -9.86850153e-02  5.00000000e-01 
 3.30746181e-04  1.79999948e+00 -9.86770153e-02  5.00000000e-01 
 3.32746181e-04  1.80000040e+00 -9.86690153e-02  5.00000000e-01 
 3.34746181e-04  1.79999948e+00 -9.86610153e-02  5.00000000e-01 
 3.36746181e-04  1.80000040e+00 -9.86530153e-02  5.00000000e-01 
 3.38746181e-04  1.79999948e+00 -9.86450153e-02  5.00000000e-01 
 3.40746181e-04  1.80000040e+00 -9.86370153e-02  5.00000000e-01 
 3.42746181e-04  1.79999948e+00 -9.86290153e-02  5.00000000e-01 
 3.44746181e-04  1.80000040e+00 -9.86210153e-02  5.00000000e-01 
 3.46746181e-04  1.79999948e+00 -9.86130153e-02  5.00000000e-01 
 3.48746181e-04  1.80000040e+00 -9.86050153e-02  5.00000000e-01 
 3.50746181e-04  1.79999948e+00 -9.85970153e-02  5.00000000e-01 
 3.52746181e-04  1.80000040e+00 -9.85890153e-02  5.00000000e-01 
 3.54746181e-04  1.79999948e+00 -9.85810153e-02  5.00000000e-01 
 3.56746181e-04  1.80000040e+00 -9.85730153e-02  5.00000000e-01 
 3.58746181e-04  1.79999948e+00 -9.85650153e-02  5.00000000e-01 
 3.60746181e-04  1.80000040e+00 -9.85570153e-02  5.00000000e-01 
 3.62746181e-04  1.79999948e+00 -9.85490153e-02  5.00000000e-01 
 3.64746181e-04  1.80000040e+00 -9.85410153e-02  5.00000000e-01 
 3.66746181e-04  1.79999948e+00 -9.85330153e-02  5.00000000e-01 
 3.68746181e-04  1.80000040e+00 -9.85250153e-02  5.00000000e-01 
 3.70746181e-04  1.79999948e+00 -9.85170153e-02  5.00000000e-01 
 3.72746181e-04  1.80000040e+00 -9.85090153e-02  5.00000000e-01 
 3.74746181e-04  1.79999948e+00 -9.85010153e-02  5.00000000e-01 
 3.76746181e-04  1.80000040e+00 -9.84930153e-02  5.00000000e-01 
 3.78746181e-04  1.79999948e+00 -9.84850153e-02  5.00000000e-01 
 3.80746181e-04  1.80000040e+00 -9.84770153e-02  5.00000000e-01 
 3.82746181e-04  1.79999948e+00 -9.84690153e-02  5.00000000e-01 
 3.84746181e-04  1.80000040e+00 -9.84610153e-02  5.00000000e-01 
 3.86746181e-04  1.79999948e+00 -9.84530153e-02  5.00000000e-01 
 3.88746181e-04  1.80000040e+00 -9.84450153e-02  5.00000000e-01 
 3.90746181e-04  1.79999948e+00 -9.84370153e-02  5.00000000e-01 
 3.92746181e-04  1.80000040e+00 -9.84290153e-02  5.00000000e-01 
 3.94746181e-04  1.79999948e+00 -9.84210153e-02  5.00000000e-01 
 3.96746181e-04  1.80000040e+00 -9.84130153e-02  5.00000000e-01 
 3.98746181e-04  1.79999948e+00 -9.84050153e-02  5.00000000e-01 
 4.00746181e-04  1.80000040e+00 -9.83970153e-02  5.00000000e-01 
 4.02746181e-04  1.79999948e+00 -9.83890153e-02  5.00000000e-01 
 4.04746181e-04  1.80000040e+00 -9.83810153e-02  5.00000000e-01 
 4.06746181e-04  1.79999948e+00 -9.83730153e-02  5.00000000e-01 
 4.08746181e-04  1.80000040e+00 -9.83650153e-02  5.00000000e-01 
 4.10746181e-04  1.79999948e+00 -9.83570153e-02  5.00000000e-01 
 4.12746181e-04  1.80000040e+00 -9.83490153e-02  5.00000000e-01 
 4.14746181e-04  1.79999948e+00 -9.83410153e-02  5.00000000e-01 
 4.16746181e-04  1.80000040e+00 -9.83330153e-02  5.00000000e-01 
 4.18746181e-04  1.79999948e+00 -9.83250153e-02  5.00000000e-01 
 4.20746181e-04  1.80000040e+00 -9.83170153e-02  5.00000000e-01 
 4.22746181e-04  1.79999948e+00 -9.83090153e-02  5.00000000e-01 
 4.24746181e-04  1.80000040e+00 -9.83010153e-02  5.00000000e-01 
 4.26746181e-04  1.79999948e+00 -9.82930153e-02  5.00000000e-01 
 4.28746181e-04  1.80000040e+00 -9.82850153e-02  5.00000000e-01 
 4.30746181e-04  1.79999948e+00 -9.82770153e-02  5.00000000e-01 
 4.32746181e-04  1.80000040e+00 -9.82690153e-02  5.00000000e-01 
 4.34746181e-04  1.79999948e+00 -9.82610153e-02  5.00000000e-01 
 4.36746181e-04  1.80000040e+00 -9.82530153e-02  5.00000000e-01 
 4.38746181e-04  1.79999948e+00 -9.82450153e-02  5.00000000e-01 
 4.40746181e-04  1.80000040e+00 -9.82370153e-02  5.00000000e-01 
 4.42746181e-04  1.79999948e+00 -9.82290153e-02  5.00000000e-01 
 4.44746181e-04  1.80000040e+00 -9.82210153e-02  5.00000000e-01 
 4.46746181e-04  1.79999948e+00 -9.82130153e-02  5.00000000e-01 
 4.48746181e-04  1.80000040e+00 -9.82050153e-02  5.00000000e-01 
 4.50746181e-04  1.79999948e+00 -9.81970153e-02  5.00000000e-01 
 4.52746181e-04  1.80000040e+00 -9.81890153e-02  5.00000000e-01 
 4.54746181e-04  1.79999948e+00 -9.81810153e-02  5.00000000e-01 
 4.56746181e-04  1.80000040e+00 -9.81730153e-02  5.00000000e-01 
 4.58746181e-04  1.79999948e+00 -9.81650153e-02  5.00000000e-01 
 4.60746181e-04  1.80000040e+00 -9.81570153e-02  5.00000000e-01 
 4.62746181e-04  1.79999948e+00 -9.81490153e-02  5.00000000e-01 
 4.64746181e-04  1.80000040e+00 -9.81410153e-02  5.00000000e-01 
 4.66746181e-04  1.79999948e+00 -9.81330153e-02  5.00000000e-01 
 4.68746181e-04  1.80000040e+00 -9.81250153e-02  5.00000000e-01 
 4.70746181e-04  1.79999948e+00 -9.81170153e-02  5.00000000e-01 
 4.72746181e-04  1.80000040e+00 -9.81090153e-02  5.00000000e-01 
 4.74746181e-04  1.79999948e+00 -9.81010153e-02  5.00000000e-01 
 4.76746181e-04  1.80000040e+00 -9.80930153e-02  5.00000000e-01 
 4.78746181e-04  1.79999948e+00 -9.80850153e-02  5.00000000e-01 
 4.80746181e-04  1.80000040e+00 -9.80770153e-02  5.00000000e-01 
 4.82746181e-04  1.79999948e+00 -9.80690153e-02  5.00000000e-01 
 4.84746181e-04  1.80000040e+00 -9.80610153e-02  5.00000000e-01 
 4.86746181e-04  1.79999948e+00 -9.80530153e-02  5.00000000e-01 
 4.88746181e-04  1.80000040e+00 -9.80450153e-02  5.00000000e-01 
 4.90746181e-04  1.79999948e+00 -9.80370153e-02  5.00000000e-01 
 4.92746181e-04  1.80000040e+00 -9.80290153e-02  5.00000000e-01 
 4.94746181e-04  1.79999948e+00 -9.80210153e-02  5.00000000e-01 
 4.96746181e-04  1.80000040e+00 -9.80130153e-02  5.00000000e-01 
 4.98746181e-04  1.79999948e+00 -9.80050153e-02  5.00000000e-01 
 5.00100100e-04  1.80000040e+00 -9.79995996e-02  5.00000000e-01 
 5.00100110e-04  1.79999291e+00 -9.79995996e-02  5.00000000e-01 
 5.00100130e-04  1.79998648e+00 -9.79995995e-02  5.00000000e-01 
 5.00100170e-04  1.79997647e+00 -9.79995993e-02  5.00000000e-01 
 5.00100200e-04  1.80001674e+00 -9.79995992e-02  5.00000000e-01 
 5.00100208e-04  1.80004296e+00 -9.79995992e-02  5.00000000e-01 
 5.00100224e-04  1.80002805e+00 -9.79995991e-02  5.00000000e-01 
 5.00100256e-04  1.79999936e+00 -9.79995990e-02  5.00000000e-01 
 5.00100320e-04  1.79956144e+00 -9.79995987e-02  5.00000000e-01 
 5.00100386e-04  1.79701675e+00 -9.79995985e-02  5.00000000e-01 
 5.00100476e-04  1.80037867e+00 -9.79995981e-02  5.00000000e-01 
 5.00100570e-04  1.79230274e+00 -9.79995977e-02  5.00000000e-01 
 5.00100715e-04  1.80615201e+00 -9.79995971e-02  5.00000000e-01 
 5.00100982e-04  1.79413862e+00 -9.79995961e-02  5.00000000e-01 
 5.00101298e-04  1.80547461e+00 -9.79995948e-02  5.00000000e-01 
